!CSV A.01.01
!Agilent Technologies,N5222A,MY51421451,A.09.90.02
!Agilent N5222A: A.09.90.02
!Date: Wednesday, April 02, 2014 18:08:50
!Source: Standard

BEGIN CH1_DATA
Freq(Hz),S11(DB),S11(DEG),S12(DB),S12(DEG),S21(DB),S21(DEG),S22(DB),S22(DEG)
1000000000,-40.053322,0.28296554,-0.11468288,68.973755,-0.11296523,68.98864,-38.185276,-56.966438
1001484375,-40.249325,-0.79368931,-0.11374528,68.526947,-0.11081882,68.569244,-37.861366,-60.802578
1002968750,-40.098053,1.3793162,-0.11874953,68.109947,-0.10861683,68.131332,-38.405964,-60.635647
1004453125,-40.185692,-2.9094653,-0.11797081,67.676025,-0.11483863,67.676743,-38.194153,-62.187294
1005937500,-40.307446,0.096247695,-0.11622765,67.270584,-0.11441232,67.234352,-38.465843,-62.830193
1007421875,-41.215794,0.45874283,-0.11461493,66.788597,-0.11338998,66.853363,-38.554909,-62.19965
1008906250,-40.267155,2.518306,-0.1162852,66.387398,-0.11364196,66.391792,-38.671856,-64.590591
1010390625,-40.665104,-1.093874,-0.11759567,65.962242,-0.11336936,65.983231,-39.013683,-61.644699
1011875000,-40.146793,0.044602424,-0.11912655,65.53933,-0.11413192,65.52771,-39.385834,-63.502708
1013359375,-41.073147,-2.8147876,-0.11834303,65.079918,-0.11368056,65.111061,-39.091091,-63.585018
1014843750,-41.038383,-1.4762348,-0.11919083,64.63221,-0.11561631,64.701324,-39.19363,-62.564499
1016328125,-41.029263,-0.41450831,-0.11729208,64.221786,-0.11183157,64.241219,-39.10397,-66.745735
1017812500,-40.936916,-1.2505424,-0.11628967,63.790852,-0.11345579,63.797562,-39.664619,-61.93858
1019296875,-41.442715,-2.8689988,-0.11881433,63.367046,-0.11107764,63.36639,-39.868187,-63.585682
1020781250,-42.036804,-3.6688652,-0.1191144,62.92197,-0.11304983,62.944038,-39.800011,-63.838699
1022265625,-41.513321,-0.69922912,-0.11706948,62.515705,-0.11488657,62.513401,-39.699051,-65.013
1023750000,-42.136185,-6.3854904,-0.11955706,62.069584,-0.11704454,62.092354,-40.412228,-67.851036
1025234375,-41.86132,-2.7029862,-0.11882171,61.64431,-0.11756503,61.682198,-40.106384,-64.760223
1026718750,-42.556263,-2.1585701,-0.11597256,61.206123,-0.1135014,61.222694,-39.912643,-65.664551
1028203125,-43.049549,-4.5816612,-0.12140752,60.771732,-0.11326119,60.794525,-39.834732,-68.225708
1029687500,-42.364902,-2.9925647,-0.12223832,60.336102,-0.10965768,60.325317,-40.914005,-72.932274
1031171875,-42.74509,-6.6361818,-0.11948532,59.933075,-0.11520222,59.922699,-40.475483,-70.681244
1032656250,-43.278591,-3.251971,-0.11668002,59.470943,-0.11155991,59.506268,-41.067314,-69.182045
1034140625,-43.430004,-2.9488385,-0.12029126,59.051521,-0.11367557,59.065517,-41.085369,-67.828659
1035625000,-43.364128,-4.4198332,-0.12072322,58.620289,-0.10839636,58.626972,-40.658752,-71.187668
1037109375,-43.517086,-7.4867892,-0.11423094,58.207767,-0.11640967,58.203033,-41.729015,-73.88958
1038593750,-43.277763,-8.3084764,-0.12087379,57.742695,-0.11011689,57.79327,-40.905334,-69.127449
1040078125,-44.105206,-6.3172083,-0.12124393,57.320957,-0.11315844,57.32856,-41.506531,-72.527496
1041562500,-43.899792,-4.8209071,-0.11899256,56.881859,-0.11524269,56.899952,-41.581181,-72.491173
1043046875,-44.548077,-7.2188253,-0.11942167,56.444633,-0.11229414,56.479149,-41.486012,-72.440308
1044531250,-44.796371,-6.9618216,-0.11982705,56.026253,-0.11828951,56.053116,-42.200417,-73.21328
1046015625,-44.915718,0.77226853,-0.11945583,55.59182,-0.11618811,55.619305,-42.043503,-74.592766
1047500000,-44.960426,-1.7741197,-0.11501868,55.174873,-0.11361917,55.202171,-42.85215,-71.071075
1048984375,-45.599857,-3.753499,-0.11752375,54.721741,-0.11339509,54.726883,-42.425144,-82.380646
1050468750,-44.495583,2.7201297,-0.11848074,54.312786,-0.11087134,54.334785,-42.440975,-73.10202
1051953125,-45.480637,3.3905714,-0.12130155,53.872181,-0.11427516,53.894005,-42.82312,-76.477516
1053437500,-45.888458,3.6753654,-0.11824305,53.428448,-0.11721387,53.47364,-42.739014,-79.238235
1054921875,-46.509632,2.8024385,-0.12019818,53.013218,-0.11651645,53.038357,-42.466198,-79.596237
1056406250,-46.919487,6.720355,-0.12150475,52.566715,-0.11235578,52.643051,-43.083775,-84.903183
1057890625,-45.838333,5.9160681,-0.11962595,52.152485,-0.1183183,52.174095,-42.999485,-87.01812
1059375000,-46.026062,3.9548759,-0.1208089,51.706959,-0.11684053,51.736328,-43.741776,-85.879562
1060859375,-46.867172,8.7893486,-0.11752191,51.306015,-0.11631219,51.275005,-43.881985,-80.492561
1062343750,-45.967934,6.359808,-0.12263323,50.862438,-0.11686695,50.905685,-43.112213,-94.799324
1063828125,-46.42382,2.3790479,-0.11996283,50.43441,-0.11524607,50.464275,-44.093273,-86.974289
1065312500,-47.000107,12.709917,-0.11894665,50.006905,-0.11787216,50.000908,-44.630077,-92.56443
1066796875,-47.101677,23.254948,-0.12364954,49.54607,-0.1147566,49.607571,-43.861401,-96.54261
1068281250,-47.48558,13.801603,-0.1238464,49.130463,-0.11380408,49.149506,-43.494663,-99.588776
1069765625,-46.137104,11.334391,-0.11982791,48.698242,-0.11382301,48.702991,-45.200737,-91.207985
1071250000,-46.771099,24.461733,-0.12067082,48.270702,-0.11405183,48.303215,-43.528683,-95.502022
1072734375,-47.796703,21.394152,-0.12013262,47.82938,-0.11908983,47.866539,-44.626431,-94.083244
1074218750,-46.58831,16.818945,-0.12284517,47.398113,-0.11568776,47.430172,-44.896919,-96.88987
1075703125,-47.054832,26.858196,-0.1216568,46.989937,-0.11487655,47.018246,-45.024162,-103.75707
1077187500,-47.357124,20.234278,-0.12171849,46.53376,-0.11663245,46.578457,-44.415691,-110.48727
1078671875,-48.015594,26.267115,-0.11997931,46.114815,-0.11617529,46.156414,-46.89566,-103.68814
1080156250,-47.747921,28.016022,-0.11917414,45.688526,-0.1195286,45.667641,-45.153278,-105.98133
1081640625,-48.711037,21.393724,-0.12488177,45.253109,-0.12026256,45.273365,-47.459164,-109.99135
1083125000,-48.663654,30.615343,-0.12044668,44.81551,-0.11749485,44.851234,-44.814087,-116.84369
1084609375,-47.41272,32.06031,-0.12264269,44.362949,-0.11446725,44.425163,-44.915752,-99.559242
1086093750,-49.469143,29.95503,-0.12070999,43.980659,-0.12049464,43.94521,-47.042988,-112.00394
1087578125,-47.856354,34.20673,-0.12308876,43.52182,-0.11602271,43.536728,-45.925713,-114.58919
1089062500,-48.027897,45.013783,-0.12211821,43.08321,-0.11657333,43.12505,-45.8092,-128.96342
1090546875,-47.266621,36.680779,-0.12273866,42.672188,-0.11914201,42.638683,-46.015324,-122.33948
1092031250,-49.928661,35.931198,-0.12211238,42.211178,-0.11856975,42.249695,-47.661499,-117.87411
1093515625,-47.729836,43.212738,-0.12007298,41.819637,-0.11751211,41.812469,-46.830078,-117.76926
1095000000,-48.026394,43.422394,-0.12523302,41.344337,-0.1172391,41.352337,-46.979336,-124.0224
1096484375,-48.791954,50.808632,-0.12479641,40.962326,-0.11577298,40.930878,-48.163517,-137.21776
1097968750,-47.791794,49.148479,-0.12101295,40.495892,-0.11416147,40.495422,-48.175632,-128.35165
1099453125,-47.609673,56.31657,-0.12302148,40.068279,-0.11800533,40.099892,-47.87178,-144.59714
1100937500,-47.748344,49.44067,-0.124516,39.632832,-0.11997373,39.669109,-47.707191,-143.92679
1102421875,-47.566746,55.990414,-0.12285666,39.221283,-0.12345704,39.214977,-48.636806,-140.0407
1103906250,-48.119156,64.224144,-0.12290441,38.769585,-0.11822023,38.761368,-48.687523,-135.33226
1105390625,-48.462402,68.894012,-0.12008608,38.368309,-0.12119167,38.363255,-48.766651,-160.60458
1106875000,-48.388317,58.071896,-0.1243628,37.918274,-0.12135518,37.922356,-47.620838,-155.48964
1108359375,-49.245842,68.900726,-0.12237176,37.482151,-0.11928617,37.535881,-48.359364,-150.69298
1109843750,-48.430302,70.140686,-0.12232612,37.042423,-0.12149724,37.044811,-48.098209,-158.0439
1111328125,-48.28931,68.60144,-0.12188537,36.617874,-0.11917794,36.645702,-49.609634,-157.29514
1112812500,-47.61821,73.728203,-0.1271887,36.195511,-0.12259468,36.203369,-48.021824,-164.6684
1114296875,-47.700134,74.458992,-0.12402626,35.746944,-0.11810772,35.795116,-48.476364,-167.88899
1115781250,-48.782726,78.028275,-0.12705299,35.309494,-0.11788508,35.340218,-48.380608,-156.89943
1117265625,-47.457504,79.573967,-0.1212042,34.912231,-0.12190642,34.905708,-49.753944,174.9234
1118750000,-48.066929,76.413605,-0.12255768,34.452305,-0.11817674,34.460037,-48.588139,-175.60449
1120234375,-48.243702,83.458168,-0.12351584,34.038837,-0.12253521,34.061188,-48.4044,-177.04378
1121718750,-48.13945,90.559006,-0.1241416,33.607716,-0.12200145,33.601326,-48.068516,175.94467
1123203125,-46.980175,88.16246,-0.12413462,33.184715,-0.11904626,33.185925,-47.660988,-174.81079
1124687500,-47.449852,91.569496,-0.12574448,32.734997,-0.1230555,32.744205,-47.048729,167.47653
1126171875,-46.263725,86.713554,-0.12474865,32.307827,-0.12047344,32.312897,-48.093498,161.16245
1127656250,-47.089325,88.52858,-0.12847377,31.881424,-0.11779249,31.883099,-47.447865,159.81903
1129140625,-45.503139,94.399681,-0.12519641,31.431637,-0.12048436,31.492653,-48.86359,147.8734
1130625000,-45.987926,96.852356,-0.12430119,31.024363,-0.12337711,31.028378,-48.265358,161.93867
1132109375,-45.539364,90.942474,-0.12416291,30.587967,-0.11986755,30.59864,-48.520611,165.13347
1133593750,-44.989349,101.69678,-0.12236851,30.149296,-0.11772703,30.168266,-47.405315,157.52278
1135078125,-45.517445,98.82737,-0.12335055,29.728939,-0.12071695,29.711266,-45.480541,150.84137
1136562500,-44.583012,100.34286,-0.1249019,29.298504,-0.12483856,29.306173,-46.698662,140.75735
1138046875,-45.327885,99.123459,-0.13144392,28.872217,-0.12090304,28.848526,-45.919064,152.86702
1139531250,-44.406155,101.41774,-0.12545533,28.441853,-0.11885957,28.445827,-46.479328,142.64861
1141015625,-43.919411,102.62645,-0.12693064,27.989937,-0.1228623,28.025454,-45.060867,144.03224
1142500000,-43.760029,106.34582,-0.12298,27.563715,-0.12473462,27.574997,-45.879383,137.9223
1143984375,-43.55323,105.49718,-0.12077326,27.136816,-0.12174957,27.132748,-45.613319,133.43239
1145468750,-42.674381,102.06837,-0.12799104,26.723717,-0.12064698,26.693531,-44.910778,132.55608
1146953125,-43.332699,105.11538,-0.12575813,26.282852,-0.12577997,26.283169,-45.388123,127.96862
1148437500,-43.755997,107.87147,-0.12547852,25.836927,-0.12544952,25.832617,-43.439262,123.71661
1149921875,-42.485432,103.20353,-0.12734114,25.402769,-0.12762791,25.430361,-44.940266,117.59735
1151406250,-43.020512,106.82421,-0.12303944,24.996319,-0.12367707,25.003469,-44.092934,124.08125
1152890625,-42.745338,102.61506,-0.12626699,24.551796,-0.12440612,24.574427,-45.143154,117.82895
1154375000,-41.841896,105.05885,-0.12229529,24.114094,-0.11895718,24.118889,-43.887905,115.29344
1155859375,-41.899212,104.1386,-0.12730049,23.699366,-0.12098261,23.689331,-43.322895,117.3912
1157343750,-42.47892,108.38742,-0.12522185,23.248991,-0.11894934,23.252108,-44.393715,108.87365
1158828125,-42.181988,104.37261,-0.12534702,22.811996,-0.12678063,22.826492,-45.047924,107.75343
1160312500,-41.235123,101.83643,-0.12622198,22.388636,-0.12340526,22.383667,-43.345753,109.93885
1161796875,-41.257553,105.11151,-0.1254079,21.969183,-0.12186009,21.961668,-43.893921,114.1728
1163281250,-41.536469,102.1709,-0.12544325,21.522995,-0.12548476,21.532227,-42.900127,108.52315
1164765625,-41.584641,100.76228,-0.12558185,21.09124,-0.1234651,21.088663,-43.302567,104.79686
1166250000,-41.285473,98.556267,-0.12534739,20.656233,-0.12169676,20.68243,-43.377804,104.87232
1167734375,-41.020283,98.631004,-0.12902732,20.23213,-0.12542146,20.228615,-43.173363,106.96616
1169218750,-40.941715,101.76936,-0.12782051,19.794651,-0.1248282,19.815039,-42.892982,102.09763
1170703125,-41.230621,100.21161,-0.12928794,19.381777,-0.12539932,19.338739,-42.788113,100.78104
1172187500,-41.036217,96.208,-0.13184617,18.934372,-0.12487178,18.941212,-42.160648,109.86102
1173671875,-40.584152,100.17688,-0.12906149,18.511938,-0.12636343,18.502789,-43.049213,106.30541
1175156250,-41.093502,99.893517,-0.12855698,18.092283,-0.12233303,18.070507,-42.213398,101.75315
1176640625,-40.675457,102.22404,-0.12816967,17.668734,-0.12432431,17.63567,-42.273609,103.94816
1178125000,-40.28141,100.77521,-0.12418934,17.214485,-0.12924306,17.22571,-42.161972,101.08308
1179609375,-40.757534,96.944824,-0.12558091,16.794363,-0.12911931,16.765934,-41.759308,98.218346
1181093750,-40.352627,99.088921,-0.12792006,16.358873,-0.12898433,16.353329,-41.475716,102.00019
1182578125,-40.162571,93.74511,-0.12892622,15.907623,-0.12554383,15.920647,-42.248493,104.97425
1184062500,-40.090904,97.739388,-0.12831117,15.493594,-0.12577596,15.463219,-42.202221,95.302666
1185546875,-39.840649,97.279137,-0.12518565,15.047694,-0.12793384,15.089512,-40.725895,100.39244
1187031250,-39.596382,97.282791,-0.12654278,14.627422,-0.13316765,14.597265,-41.058636,101.54589
1188515625,-40.052776,98.145782,-0.1304172,14.20715,-0.12687355,14.179956,-40.553318,98.130966
1190000000,-40.037212,96.244049,-0.12877935,13.800655,-0.12424231,13.753573,-40.406258,96.472824
1191484375,-39.782928,93.270424,-0.12958768,13.341928,-0.12214047,13.342949,-40.531704,97.67141
1192968750,-39.572243,96.129822,-0.12625015,12.912437,-0.12578413,12.892742,-40.394547,95.894852
1194453125,-39.451138,95.735756,-0.12663674,12.485447,-0.12886611,12.428903,-40.286079,97.758827
1195937500,-39.513252,95.878235,-0.13158229,12.071259,-0.12400777,12.024924,-40.205212,96.682663
1197421875,-39.095787,94.950378,-0.13155085,11.615199,-0.12386931,11.585832,-40.371967,93.926178
1198906250,-38.603626,95.331406,-0.13156807,11.171812,-0.1261327,11.168773,-39.729485,93.945045
1200390625,-38.917484,94.446289,-0.13186301,10.736747,-0.12551017,10.74072,-39.892918,92.432304
1201875000,-38.461391,93.491539,-0.12855652,10.328135,-0.1259611,10.301569,-39.817589,93.973221
1203359375,-38.692715,93.828011,-0.12979643,9.8713531,-0.12825364,9.8759327,-39.923355,93.06678
1204843750,-38.501514,92.178352,-0.12897208,9.4739523,-0.12800345,9.433383,-39.010685,95.505768
1206328125,-37.998932,93.143158,-0.1287449,9.04144,-0.12305223,9.0319309,-39.319176,90.474449
1207812500,-38.08548,92.976631,-0.1294187,8.611186,-0.1252487,8.5734053,-39.06583,89.373962
1209296875,-38.102566,93.662987,-0.13151084,8.1581774,-0.12994584,8.1383076,-39.226105,96.098854
1210781250,-37.657162,93.009529,-0.12920398,7.7586346,-0.1303021,7.6993079,-38.539574,92.302452
1212265625,-37.75206,90.24221,-0.12762293,7.3016114,-0.13444085,7.3133969,-38.402348,90.655083
1213750000,-37.739761,92.068306,-0.1314816,6.8556819,-0.13010035,6.8644843,-38.239746,87.480019
1215234375,-37.579071,92.607613,-0.13222541,6.4481297,-0.12927242,6.4112043,-38.185299,88.510811
1216718750,-37.237537,93.19162,-0.13257414,6.0069885,-0.1286177,5.9895973,-37.948486,84.35244
1218203125,-37.489651,91.436974,-0.13249263,5.5817838,-0.12338621,5.589653,-37.553585,85.493385
1219687500,-37.244839,90.216286,-0.13090383,5.1518922,-0.13028769,5.1675658,-38.01215,86.203873
1221171875,-37.169098,91.119537,-0.13048825,4.7156,-0.13058688,4.7212038,-37.314064,86.459755
1222656250,-36.910847,90.955078,-0.12810749,4.2916174,-0.1315989,4.2485833,-37.421379,84.102905
1224140625,-36.927864,92.105263,-0.13382557,3.8552396,-0.12718253,3.8657615,-37.542801,88.894051
1225625000,-36.744347,90.929268,-0.13146697,3.4157536,-0.13149086,3.4443595,-37.304638,84.494965
1227109375,-36.830231,89.353386,-0.13096039,2.9990439,-0.130732,2.985358,-37.487892,83.477875
1228593750,-36.893257,91.358521,-0.12643667,2.566632,-0.12981448,2.5359941,-36.782345,82.858765
1230078125,-36.514183,91.740082,-0.12835395,2.1294513,-0.13378355,2.1176264,-37.128643,80.922066
1231562500,-36.579155,88.984261,-0.13200085,1.6883452,-0.12818259,1.6788342,-36.869858,79.186752
1233046875,-36.398872,90.935371,-0.13352478,1.2522349,-0.12828556,1.2484324,-37.064507,82.430756
1234531250,-36.092434,90.230949,-0.13235188,0.84260941,-0.12827282,0.82444197,-36.495182,78.619545
1236015625,-35.929821,89.795654,-0.13468957,0.39638102,-0.12879352,0.42106178,-36.422642,80.734276
1237500000,-35.928188,90.742828,-0.13310313,-0.016646612,-0.12973337,-0.039045092,-36.760612,80.454674
1238984375,-35.990002,89.668686,-0.13020167,-0.45524931,-0.13363059,-0.4512648,-36.370346,79.10054
1240468750,-35.767094,89.27108,-0.13525045,-0.86643964,-0.13009341,-0.93352157,-36.125027,75.760063
1241953125,-35.781532,89.983276,-0.13071932,-1.3185047,-0.12723687,-1.3148284,-36.210915,72.64502
1243437500,-35.703312,90.147881,-0.13384128,-1.7614669,-0.13365889,-1.7599713,-35.829285,73.175201
1244921875,-35.581299,89.792557,-0.13218714,-2.1941881,-0.12929907,-2.1870289,-36.244694,75.47924
1246406250,-35.383362,87.293831,-0.1375262,-2.5847905,-0.12845071,-2.6135156,-35.860088,75.716805
1247890625,-35.16021,90.381378,-0.13351588,-3.0156465,-0.12997894,-3.0676899,-35.809494,73.808731
1249375000,-35.205925,89.57473,-0.13291092,-3.4954314,-0.13471386,-3.4680843,-35.829708,73.437248
1250859375,-35.230137,88.865257,-0.1353427,-3.8911951,-0.13463369,-3.9251001,-35.633415,70.776924
1252343750,-35.321419,90.078575,-0.13462807,-4.3366652,-0.13498832,-4.3279338,-35.753563,72.706276
1253828125,-35.101944,88.48185,-0.13410136,-4.7646146,-0.1321508,-4.7770171,-35.142307,68.950325
1255312500,-34.896904,87.688698,-0.13449362,-5.2092743,-0.13479926,-5.1856556,-35.310757,69.487427
1256796875,-34.778576,87.02375,-0.13414429,-5.6317739,-0.13530998,-5.6295037,-35.310772,68.633537
1258281250,-35.136536,86.389359,-0.13450544,-6.0470476,-0.13564792,-6.0803251,-35.023338,68.234848
1259765625,-34.942535,87.270943,-0.13307624,-6.5116677,-0.13291728,-6.5059595,-35.309212,67.246208
1261250000,-34.656452,87.689987,-0.13565207,-6.9229813,-0.12885106,-6.902092,-34.841782,66.322472
1262734375,-34.845108,84.850525,-0.1308533,-7.3589306,-0.1300396,-7.3392143,-34.956348,64.572792
1264218750,-34.723267,87.65419,-0.13161717,-7.790041,-0.1294167,-7.7947783,-35.129101,66.082901
1265703125,-34.58411,84.577835,-0.13514622,-8.2009649,-0.13191831,-8.2040253,-34.791248,66.704819
1267187500,-34.665443,86.919266,-0.13240905,-8.6651058,-0.13498086,-8.6167202,-34.782444,62.01482
1268671875,-34.247265,86.130424,-0.13717304,-9.0690422,-0.13563392,-9.0838842,-34.70356,61.407253
1270156250,-34.321545,85.020515,-0.13602446,-9.5087938,-0.13240348,-9.5088825,-34.604988,62.630997
1271640625,-34.219341,86.097084,-0.13768929,-9.9365873,-0.13314931,-9.9338741,-34.587597,61.431171
1273125000,-34.537788,84.262115,-0.14019722,-10.356326,-0.12757917,-10.384793,-34.618702,60.651451
1274609375,-34.309792,84.860535,-0.13705508,-10.791382,-0.13136393,-10.796174,-34.403343,60.608395
1276093750,-34.187103,84.943001,-0.13949059,-11.217478,-0.13363844,-11.264708,-34.691319,60.553986
1277578125,-34.331348,83.890419,-0.13391407,-11.661644,-0.13464533,-11.722453,-34.60603,58.158787
1279062500,-34.300968,82.878319,-0.13590954,-12.095079,-0.1308479,-12.104012,-34.257717,60.568192
1280546875,-34.359634,81.754097,-0.13575143,-12.514161,-0.13346568,-12.54078,-34.264717,57.796474
1282031250,-34.023579,82.028862,-0.13205023,-12.961029,-0.13112734,-12.964663,-34.708141,55.983276
1283515625,-34.035782,82.278961,-0.13430843,-13.362496,-0.13613723,-13.433643,-34.456749,58.253365
1285000000,-33.848484,80.688644,-0.1366941,-13.824454,-0.13007136,-13.841206,-34.772366,57.48505
1286484375,-34.052589,80.486488,-0.13589963,-14.268624,-0.13094789,-14.250146,-34.394299,55.765438
1287968750,-33.986328,80.44561,-0.13538617,-14.691083,-0.13511001,-14.678591,-34.589367,54.759007
1289453125,-33.906895,80.908699,-0.13697819,-15.106454,-0.13593353,-15.117349,-34.350426,55.953899
1290937500,-34.191048,79.541161,-0.13685095,-15.552877,-0.13348512,-15.554411,-34.623611,55.272587
1292421875,-34.127861,79.262421,-0.13592641,-15.976485,-0.1369192,-15.977356,-34.274143,53.079353
1293906250,-34.002747,78.159706,-0.13632202,-16.41943,-0.13102145,-16.39419,-34.232925,54.817272
1295390625,-33.972736,79.117599,-0.13684878,-16.834375,-0.13413495,-16.831064,-34.264328,51.414047
1296875000,-34.135319,78.286621,-0.13492949,-17.285828,-0.13620958,-17.274168,-34.138149,53.699261
