!CSV A.01.01
!Agilent Technologies,N5222A,MY51421451,A.09.90.02
!Agilent N5222A: A.09.90.02
!Date: Tuesday, June 23, 2015 15:32:24
!Source: Standard

BEGIN CH20_DATA
Freq(Hz),S33(DB),S33(DEG),S34(DB),S34(DEG),S43(DB),S43(DEG),S44(DB),S44(DEG)
4000000000,-51.935101,-22.974918,-0.11429016,-102.05167,-0.11494514,-102.12534,-51.872414,-86.864189
4000312500,-49.73386,2.2333467,-0.14473541,-103.82062,-0.098344468,-102.1244,-49.882576,-96.065674
4000625000,-50.874638,-1.5197458,-0.13429408,-103.32328,-0.10402041,-102.17899,-50.085403,-96.121277
4000937500,-51.457794,-8.1581373,-0.12573467,-102.81022,-0.10762707,-102.20127,-50.799419,-96.951218
4001250000,-52.705761,-18.174986,-0.12130389,-102.40488,-0.11460709,-102.24458,-51.020744,-99.616592
4001562500,-52.52327,-20.641207,-0.11780906,-102.19956,-0.11261597,-102.28146,-51.880672,-97.61631
4001875000,-52.054192,-23.69969,-0.11649933,-102.1603,-0.11405972,-102.31182,-51.740108,-90.338661
4002187500,-51.357868,-19.595818,-0.11418443,-102.22878,-0.11361989,-102.36043,-51.198269,-92.246361
4002500000,-50.562855,-20.977678,-0.11701284,-102.33044,-0.11412881,-102.37403,-50.761639,-88.298973
4002812500,-50.625454,-21.490545,-0.11888134,-102.43093,-0.11211801,-102.43457,-50.677799,-87.131424
4003125000,-50.440269,-21.220373,-0.11624968,-102.4544,-0.1125365,-102.46497,-50.708557,-86.628212
4003437500,-50.524151,-24.182602,-0.11692168,-102.50542,-0.1125296,-102.50461,-50.975445,-89.532951
4003750000,-50.428913,-22.270529,-0.11862788,-102.54887,-0.11369921,-102.54031,-51.57872,-90.737991
4004062500,-50.812675,-23.972994,-0.11494453,-102.57835,-0.1117195,-102.57442,-51.803196,-91.174713
4004375000,-50.272175,-26.157442,-0.11608561,-102.62959,-0.11521213,-102.59548,-51.45314,-90.883926
4004687500,-50.37709,-26.442026,-0.11712775,-102.66682,-0.11758894,-102.6464,-51.7047,-92.460083
4005000000,-50.207722,-27.271257,-0.11671465,-102.71078,-0.11793116,-102.67052,-51.475685,-92.594612
4005312500,-49.482388,-24.358223,-0.11626502,-102.74969,-0.11704154,-102.71378,-51.026527,-93.934425
4005625000,-49.457161,-27.346794,-0.11585497,-102.77798,-0.11775099,-102.74955,-51.123463,-90.275291
4005937500,-49.148422,-25.530338,-0.1141867,-102.80535,-0.11852682,-102.7784,-51.372009,-90.443413
4006250000,-49.348961,-24.475151,-0.11702798,-102.84512,-0.1185811,-102.80767,-50.906979,-90.509331
4006562500,-49.305977,-22.938961,-0.11487028,-102.87487,-0.11597692,-102.85707,-51.484573,-91.20282
4006875000,-49.345886,-19.066166,-0.11379099,-102.91637,-0.1172324,-102.8932,-51.375088,-88.605667
4007187500,-48.962555,-20.464392,-0.11381196,-102.94489,-0.11684163,-102.92963,-51.159859,-87.053131
4007500000,-49.177452,-21.155178,-0.11661482,-102.99194,-0.11439194,-102.97243,-51.46452,-84.204201
4007812500,-49.045624,-25.55106,-0.11733355,-103.02522,-0.11521111,-103.01935,-52.118656,-83.539406
4008125000,-49.710785,-29.232065,-0.11828056,-103.06112,-0.11641838,-103.04449,-52.080231,-84.119148
4008437500,-50.220474,-29.986847,-0.11856332,-103.10467,-0.11834265,-103.074,-52.640739,-85.708946
4008750000,-50.557938,-34.765942,-0.11564735,-103.12847,-0.11486512,-103.10957,-52.107368,-77.705742
4009062500,-50.981056,-31.198891,-0.11771733,-103.15968,-0.11448756,-103.13609,-52.261337,-80.392815
4009375000,-51.456249,-29.64296,-0.11748138,-103.1955,-0.11291026,-103.17322,-51.668808,-80.877106
4009687500,-51.895775,-29.571814,-0.1217301,-103.22478,-0.1140304,-103.22604,-51.426979,-84.848381
4010000000,-51.822338,-26.854837,-0.11990461,-103.2727,-0.1150281,-103.26101,-50.863033,-84.66275
4010312500,-52.397587,-21.179848,-0.12012972,-103.29299,-0.11173934,-103.29897,-50.984322,-84.750008
4010625000,-51.942997,-24.96966,-0.11618008,-103.32702,-0.11319269,-103.33406,-50.978798,-83.95372
4010937500,-51.201836,-24.077044,-0.11928801,-103.38422,-0.11415705,-103.35748,-50.944016,-83.089645
4011250000,-51.036572,-25.280581,-0.11511401,-103.40473,-0.1168863,-103.41634,-51.743626,-85.083107
4011562500,-50.668461,-27.896782,-0.11454843,-103.44574,-0.11537685,-103.44825,-51.271217,-80.506203
4011875000,-49.886429,-26.99341,-0.11556245,-103.4782,-0.11494908,-103.48447,-51.495842,-81.50605
4012187500,-49.327873,-32.304764,-0.11469876,-103.52099,-0.1144307,-103.52101,-52.234047,-82.887497
4012500000,-49.24334,-34.099453,-0.11802273,-103.56407,-0.11597008,-103.5493,-51.867638,-84.056313
4012812500,-48.905315,-35.010227,-0.11712747,-103.61494,-0.11731938,-103.60311,-51.720402,-89.028305
4013125000,-48.641438,-36.470203,-0.11537043,-103.63718,-0.1175359,-103.63248,-51.775761,-86.332085
4013437500,-48.570126,-36.172722,-0.11543912,-103.68021,-0.11712306,-103.65578,-51.513691,-85.642624
4013750000,-49.057106,-33.769974,-0.11571878,-103.69673,-0.11751426,-103.70479,-51.526905,-81.651978
4014062500,-49.651009,-27.63061,-0.11527061,-103.73726,-0.11573498,-103.71881,-51.53804,-76.056091
4014375000,-49.688522,-22.590803,-0.11568043,-103.75716,-0.11659137,-103.75695,-51.731655,-72.0765
4014687500,-50.10553,-18.585686,-0.11700277,-103.8089,-0.11603452,-103.80708,-51.167,-70.654747
4015000000,-49.908916,-20.452852,-0.11630093,-103.84126,-0.11347129,-103.82875,-50.851894,-70.022537
4015312500,-49.627422,-23.940811,-0.11948135,-103.87767,-0.11744447,-103.88256,-50.126762,-73.73098
4015625000,-49.40641,-26.601734,-0.11985218,-103.8952,-0.11783645,-103.89925,-50.404346,-75.79908
4015937500,-49.235363,-27.932381,-0.11542878,-103.94389,-0.11518253,-103.93665,-50.514912,-77.387482
4016250000,-48.797775,-32.14072,-0.11719337,-103.9939,-0.11644686,-103.98463,-49.894833,-78.286171
4016562500,-48.981396,-28.814646,-0.11844038,-104.03414,-0.11531843,-104.0106,-49.83075,-77.741005
4016875000,-49.744465,-23.631557,-0.11646692,-104.0771,-0.1166161,-104.05032,-50.359272,-75.077972
4017187500,-49.368134,-21.738508,-0.11588519,-104.10047,-0.11454424,-104.09727,-50.388615,-79.722153
4017500000,-49.721367,-19.783895,-0.11702175,-104.12435,-0.11420265,-104.1347,-50.62812,-75.525352
4017812500,-49.574287,-16.083231,-0.11331282,-104.17976,-0.11350966,-104.18208,-50.799717,-75.303864
4018125000,-49.47419,-18.150021,-0.11634302,-104.18193,-0.11518031,-104.2122,-50.326607,-75.334259
4018437500,-48.813389,-19.63475,-0.11771867,-104.23235,-0.11540177,-104.24806,-50.299191,-77.212303
4018750000,-48.865196,-24.452848,-0.11495294,-104.25433,-0.11716212,-104.28688,-50.853771,-81.167725
4019062500,-48.293114,-27.361599,-0.1161342,-104.30387,-0.11667605,-104.3297,-50.262924,-85.843185
4019375000,-48.40189,-27.006622,-0.1168478,-104.34512,-0.11710275,-104.35606,-50.667797,-82.224884
4019687500,-48.415813,-26.591423,-0.11181335,-104.38635,-0.1209912,-104.38208,-51.040909,-83.180336
4020000000,-48.697838,-28.62826,-0.11411481,-104.40324,-0.11907217,-104.43144,-51.607243,-76.356178
4020312500,-48.938709,-28.496481,-0.1144961,-104.46436,-0.11957034,-104.46854,-51.37487,-75.840164
4020625000,-48.643394,-29.534176,-0.11289381,-104.48667,-0.11856201,-104.49474,-51.710789,-71.566788
4020937500,-48.924103,-32.068058,-0.11423347,-104.51005,-0.11748694,-104.53699,-50.831013,-73.168488
4021250000,-48.836994,-34.730972,-0.11372028,-104.56387,-0.11740659,-104.55765,-50.365467,-74.809502
4021562500,-48.730728,-34.454559,-0.11790265,-104.59346,-0.11517762,-104.60528,-50.679375,-77.913956
4021875000,-48.655842,-37.167919,-0.1167561,-104.63282,-0.11412063,-104.64433,-50.391136,-81.0644
4022187500,-48.584183,-36.185219,-0.11669812,-104.67823,-0.11406624,-104.66489,-50.141071,-79.453445
4022500000,-48.207188,-34.424824,-0.1214551,-104.71661,-0.11410622,-104.69942,-50.498299,-78.654884
4022812500,-47.992104,-31.643484,-0.11808125,-104.74862,-0.11170959,-104.72926,-50.81216,-75.0569
4023125000,-47.994106,-25.903606,-0.11561771,-104.75717,-0.11428135,-104.78745,-50.355438,-72.640358
4023437500,-47.528252,-24.125437,-0.11696041,-104.79586,-0.11183789,-104.81824,-50.929375,-70.091995
4023750000,-47.231171,-21.227993,-0.11830804,-104.83983,-0.11557502,-104.86038,-50.330898,-70.07605
4024062500,-47.287457,-19.216799,-0.11741352,-104.87904,-0.11538407,-104.89468,-50.481998,-69.684395
4024375000,-47.190063,-19.472517,-0.11600541,-104.93188,-0.11779683,-104.9223,-50.303066,-68.977768
4024687500,-46.777977,-20.212801,-0.11615991,-104.96331,-0.11474478,-104.95567,-49.744045,-68.558815
4025000000,-46.92345,-21.425812,-0.11738847,-104.99761,-0.11629434,-104.98402,-49.895004,-67.843643
4025312500,-46.816898,-23.52117,-0.11421439,-105.0335,-0.11592984,-105.0079,-49.744942,-69.240105
4025625000,-47.059525,-22.531097,-0.11595333,-105.06505,-0.11393683,-105.0593,-50.501183,-69.829788
4025937500,-46.82439,-25.461893,-0.11643511,-105.1105,-0.11500948,-105.10424,-51.097916,-72.906731
4026250000,-47.198643,-28.576353,-0.11414112,-105.15569,-0.11269473,-105.13822,-51.129124,-74.758255
4026562500,-47.152088,-29.636679,-0.11581095,-105.18953,-0.11259823,-105.18885,-51.475288,-77.561966
4026875000,-46.770359,-29.271418,-0.11641878,-105.21055,-0.1155616,-105.22294,-51.131874,-76.752731
4027187500,-47.053326,-30.255167,-0.11665316,-105.24384,-0.11801671,-105.25549,-51.412498,-77.082474
4027500000,-46.939171,-29.535049,-0.11344258,-105.2834,-0.12003826,-105.2935,-51.000576,-73.954811
4027812500,-46.621918,-28.941284,-0.11370363,-105.3092,-0.11909513,-105.34866,-50.575241,-74.531288
4028125000,-46.524353,-30.458035,-0.1125756,-105.34165,-0.11731178,-105.37955,-50.383881,-72.654076
4028437500,-46.37833,-30.63439,-0.11492027,-105.38892,-0.11773343,-105.41336,-50.274166,-73.330009
4028750000,-46.636547,-31.031193,-0.11797209,-105.40926,-0.11625462,-105.44221,-49.608185,-70.215683
4029062500,-46.660507,-33.222229,-0.11928462,-105.45578,-0.11511748,-105.46519,-49.573853,-70.359009
4029375000,-46.954681,-33.140083,-0.1197125,-105.47412,-0.11395379,-105.4826,-49.076622,-69.323753
4029687500,-47.217949,-32.284515,-0.12058535,-105.52608,-0.11807721,-105.53183,-48.6138,-67.106674
4030000000,-47.116982,-31.627861,-0.11752822,-105.56808,-0.1172203,-105.57599,-48.922947,-67.390427
4030312500,-47.150082,-29.886805,-0.11536522,-105.60778,-0.11678723,-105.60395,-49.639786,-67.813377
4030625000,-47.088318,-28.258209,-0.11464522,-105.66331,-0.11532496,-105.6496,-49.514538,-68.706718
4030937500,-47.226299,-28.378065,-0.11599077,-105.69008,-0.11878287,-105.69125,-50.09481,-70.954071
4031250000,-47.2994,-27.859604,-0.11567762,-105.73422,-0.11684407,-105.7204,-49.951195,-66.872566
4031562500,-47.251205,-28.107721,-0.11619277,-105.76107,-0.11492487,-105.75137,-49.545971,-70.104469
4031875000,-47.020771,-27.216452,-0.11743107,-105.80012,-0.11760285,-105.8084,-49.489498,-70.892059
4032187500,-47.075653,-28.440554,-0.1179244,-105.81077,-0.11442971,-105.83308,-49.351994,-70.767227
4032500000,-46.908314,-25.875164,-0.12068236,-105.83135,-0.11505076,-105.87847,-48.893871,-71.418907
4032812500,-46.648399,-28.727407,-0.11609337,-105.8799,-0.11782549,-105.90123,-48.711239,-69.60125
4033125000,-46.50716,-32.087223,-0.11792432,-105.92918,-0.11689901,-105.92104,-48.58823,-70.206276
4033437500,-46.356155,-33.204666,-0.11843134,-105.96417,-0.11823373,-105.96426,-48.367966,-69.766602
4033750000,-46.193733,-36.728619,-0.11801601,-106.018,-0.11829,-105.98784,-47.962685,-70.713295
4034062500,-46.176388,-36.282001,-0.11850871,-106.03343,-0.11964706,-106.03014,-48.115158,-70.735458
4034375000,-46.438293,-36.967751,-0.11836059,-106.07108,-0.1176374,-106.05835,-48.433056,-68.822861
4034687500,-46.692623,-35.794487,-0.11697643,-106.10692,-0.11440288,-106.10591,-47.818745,-66.486877
4035000000,-47.070526,-32.602127,-0.11879001,-106.14571,-0.11610894,-106.15178,-48.640427,-65.575104
4035312500,-47.257523,-32.687511,-0.11539298,-106.15275,-0.11498614,-106.21994,-48.676991,-65.892143
4035625000,-47.343544,-31.2061,-0.11700462,-106.20634,-0.11516453,-106.23385,-49.144791,-63.775723
4035937500,-46.849953,-30.751253,-0.11900969,-106.24144,-0.11437327,-106.28117,-49.352737,-61.694839
4036250000,-46.767902,-31.837116,-0.11769681,-106.25821,-0.11160145,-106.32117,-49.452042,-59.228268
4036562500,-46.728172,-32.528339,-0.11983265,-106.33442,-0.11373968,-106.33234,-49.577408,-60.63213
4036875000,-46.622227,-32.724518,-0.11726106,-106.36491,-0.11200444,-106.37256,-49.803535,-58.903034
4037187500,-46.495396,-32.881702,-0.11501455,-106.39091,-0.11492485,-106.41487,-50.040047,-56.477303
4037500000,-46.011326,-35.741375,-0.12069245,-106.43242,-0.11572544,-106.42622,-49.636078,-55.613003
4037812500,-46.435589,-34.136707,-0.11570278,-106.48183,-0.11643575,-106.46999,-49.949993,-54.644562
4038125000,-46.384182,-33.821747,-0.11615702,-106.51797,-0.11627949,-106.50996,-49.246769,-54.946289
4038437500,-46.33905,-35.194771,-0.11839297,-106.55733,-0.11522245,-106.557,-49.138153,-57.317268
4038750000,-46.252579,-33.948933,-0.11986508,-106.60546,-0.11874357,-106.5591,-48.784801,-60.083595
4039062500,-45.857735,-36.465401,-0.11900553,-106.637,-0.11762693,-106.61282,-49.058182,-61.540504
4039375000,-45.870289,-35.912079,-0.11863933,-106.66101,-0.11799591,-106.64805,-48.96077,-62.438511
4039687500,-45.951038,-34.921135,-0.11803953,-106.70277,-0.11871431,-106.69071,-48.701664,-63.103161
4040000000,-45.748196,-37.288792,-0.12139563,-106.75019,-0.1172885,-106.72366,-48.77142,-62.77121
4040312500,-45.984325,-36.490978,-0.12021932,-106.77398,-0.11713885,-106.74897,-49.167442,-60.364391
4040625000,-46.183136,-35.454697,-0.11981926,-106.80563,-0.11618406,-106.77826,-49.35342,-57.585526
4040937500,-46.415722,-36.962872,-0.1207148,-106.84478,-0.1135096,-106.82229,-49.407787,-56.355869
4041250000,-46.665031,-37.329117,-0.11973386,-106.86437,-0.11501168,-106.86337,-50.45752,-51.596516
4041562500,-46.470772,-34.901764,-0.11926207,-106.90376,-0.11516955,-106.90566,-49.893848,-52.353409
4041875000,-46.202305,-32.964832,-0.11829299,-106.92808,-0.11540213,-106.9622,-49.441574,-58.054279
4042187500,-46.223507,-31.588516,-0.11917546,-106.96992,-0.11399867,-106.99113,-49.173447,-57.115387
4042500000,-45.832485,-27.450197,-0.12103634,-107.01682,-0.11624352,-107.03831,-48.355408,-60.905312
4042812500,-45.925114,-24.644735,-0.11787602,-107.0705,-0.11698305,-107.07491,-48.286137,-62.336529
4043125000,-45.904324,-23.623577,-0.11800684,-107.10431,-0.1163076,-107.11249,-48.070431,-62.091064
4043437500,-46.017574,-26.410881,-0.11495265,-107.1341,-0.11530673,-107.14622,-48.385143,-61.057575
4043750000,-45.768875,-27.533152,-0.11590835,-107.16927,-0.11684634,-107.18713,-48.670166,-62.300743
4044062500,-45.643463,-27.720886,-0.11697765,-107.19202,-0.11899584,-107.19474,-49.147499,-59.88578
4044375000,-45.582573,-30.060417,-0.11469258,-107.25758,-0.11906219,-107.24834,-49.217529,-58.122597
4044687500,-45.537487,-30.12455,-0.11529435,-107.28129,-0.11774294,-107.26525,-48.740673,-57.510078
4045000000,-45.939758,-31.210396,-0.11453785,-107.31339,-0.11893742,-107.31275,-49.256821,-55.003376
4045312500,-45.940758,-30.706102,-0.11741655,-107.36554,-0.11654762,-107.33894,-48.801781,-54.507393
4045625000,-46.067173,-31.228285,-0.11475871,-107.3937,-0.11519165,-107.37621,-48.272541,-54.241875
4045937500,-46.111351,-29.972651,-0.11604199,-107.43312,-0.11535084,-107.40729,-48.356926,-53.114651
4046250000,-46.024235,-29.815041,-0.11419565,-107.45977,-0.11546365,-107.43627,-48.07616,-53.510849
4046562500,-45.937538,-30.472414,-0.11698849,-107.49127,-0.11939391,-107.48858,-47.64547,-52.214222
4046875000,-45.749489,-31.447126,-0.11816899,-107.51345,-0.11788996,-107.51197,-47.703686,-51.734184
4047187500,-45.733879,-32.194572,-0.11577398,-107.56164,-0.11778632,-107.55869,-47.898289,-50.803093
4047500000,-45.710693,-33.093472,-0.1183902,-107.57797,-0.11707386,-107.59604,-47.712872,-52.821659
4047812500,-45.635658,-33.221218,-0.11741754,-107.63069,-0.1165392,-107.61316,-47.914379,-54.50362
4048125000,-45.686466,-30.873272,-0.11776873,-107.66623,-0.11930479,-107.66328,-48.076176,-55.348518
4048437500,-45.399929,-29.587467,-0.11870197,-107.70287,-0.11735084,-107.69631,-48.474483,-53.97858
4048750000,-45.487003,-28.963123,-0.11881594,-107.72272,-0.11549614,-107.74864,-48.532429,-53.778584
4049062500,-45.42012,-28.190081,-0.11690079,-107.77702,-0.11669052,-107.78371,-48.641331,-53.134846
4049375000,-45.311485,-32.643501,-0.11985942,-107.79424,-0.11858024,-107.79162,-48.543568,-50.840115
4049687500,-45.14373,-31.895996,-0.11793295,-107.85316,-0.11835665,-107.84639,-48.289925,-48.910263
4050000000,-44.918171,-35.041252,-0.11675218,-107.87484,-0.11792626,-107.85822,-48.20039,-47.094273
4050312500,-44.939613,-35.209476,-0.12030837,-107.93155,-0.11902235,-107.90558,-48.17696,-45.972908
4050625000,-44.974613,-35.098358,-0.11855944,-107.95479,-0.11689808,-107.93964,-49.057976,-52.166397
4050937500,-45.005451,-33.055241,-0.1153775,-108.00372,-0.11772728,-107.97424,-49.196297,-53.932758
4051250000,-44.976433,-31.231461,-0.11755203,-108.04086,-0.11748956,-108.01312,-49.902214,-57.870731
4051562500,-45.017246,-29.366463,-0.11540102,-108.0579,-0.1176725,-108.051,-50.343136,-60.036518
4051875000,-44.766163,-28.178143,-0.11772256,-108.10488,-0.11668933,-108.06964,-50.053543,-55.383778
4052187500,-44.602173,-26.732964,-0.11566558,-108.15688,-0.11701486,-108.12103,-49.438259,-54.373615
4052500000,-44.631313,-26.382849,-0.12083052,-108.1914,-0.11781643,-108.15723,-48.60899,-56.377762
4052812500,-44.459526,-25.725941,-0.11920638,-108.22647,-0.11699653,-108.20828,-48.078163,-58.763096
4053125000,-44.524441,-25.395369,-0.1194648,-108.25997,-0.11842112,-108.25135,-47.560623,-60.085823
4053437500,-44.374187,-25.803322,-0.11797164,-108.31583,-0.11689626,-108.2999,-47.151386,-57.358944
4053750000,-44.659916,-26.117907,-0.11649457,-108.32008,-0.1168356,-108.3154,-47.582809,-59.923824
4054062500,-44.786388,-27.069126,-0.11530755,-108.36546,-0.11736974,-108.35337,-47.608498,-59.620621
4054375000,-44.89743,-27.900352,-0.11681297,-108.39408,-0.11557622,-108.39288,-47.992065,-56.791412
4054687500,-44.850597,-27.862198,-0.11901766,-108.42751,-0.1159756,-108.4269,-48.168037,-55.037418
4055000000,-44.634048,-28.82056,-0.11691667,-108.4556,-0.1164647,-108.4445,-47.894997,-52.540798
4055312500,-44.314274,-29.189644,-0.11939459,-108.49155,-0.11430141,-108.49574,-47.960819,-50.844784
4055625000,-44.104336,-29.300457,-0.11944995,-108.54554,-0.11334839,-108.52883,-47.545883,-50.643478
4055937500,-43.967964,-29.666889,-0.11881579,-108.56807,-0.11394028,-108.55076,-47.567036,-48.37809
4056250000,-44.032059,-30.463703,-0.1235024,-108.61195,-0.11624353,-108.5971,-47.196613,-49.088612
4056562500,-44.061859,-29.054159,-0.11936151,-108.64143,-0.11620821,-108.63342,-47.516888,-48.871704
4056875000,-44.145462,-29.252131,-0.12014312,-108.67652,-0.11815751,-108.67045,-47.667404,-49.99099
4057187500,-44.29837,-31.269466,-0.1212381,-108.71335,-0.11851044,-108.70656,-47.905178,-51.861301
4057500000,-44.459114,-29.694641,-0.11792205,-108.73599,-0.12030194,-108.76197,-47.979679,-52.907997
4057812500,-44.472839,-30.487051,-0.1196648,-108.7793,-0.1196055,-108.79555,-47.940788,-54.03548
4058125000,-44.467396,-31.287554,-0.11704792,-108.811,-0.11543094,-108.82878,-48.164585,-55.19154
4058437500,-44.593456,-29.947645,-0.11568753,-108.86009,-0.11810155,-108.85377,-48.414078,-56.490028
4058750000,-44.658836,-30.757807,-0.11896065,-108.88639,-0.11508452,-108.88954,-48.171642,-58.348019
4059062500,-44.614571,-30.865561,-0.11878933,-108.92577,-0.1160497,-108.92495,-48.084705,-62.904644
4059375000,-44.54554,-30.872452,-0.11626455,-108.96434,-0.11396727,-108.97543,-48.284466,-61.374374
4059687500,-44.346138,-30.198093,-0.11749146,-109.01649,-0.11547382,-109.00518,-48.181427,-58.53664
4060000000,-44.211922,-28.633615,-0.11870248,-109.04613,-0.11392353,-109.04975,-47.854961,-59.581844
4060312500,-44.171566,-28.229923,-0.11753701,-109.08107,-0.11516729,-109.07937,-47.257256,-57.698284
4060625000,-44.244869,-27.789902,-0.12139552,-109.11415,-0.11451519,-109.11755,-47.523964,-57.084278
