!CSV A.01.01
!Agilent Technologies,N5222A,MY51421451,A.09.90.02
!Agilent N5222A: A.09.90.02
!Date: Tuesday, June 23, 2015 15:28:26
!Source: Standard

BEGIN CH20_DATA
Freq(Hz),S33(DB),S33(DEG),S34(DB),S34(DEG),S43(DB),S43(DEG),S44(DB),S44(DEG)
4000000000,-44.333069,-154.14729,-0.10652546,-106.29814,-0.10706597,-106.36296,-46.133369,150.90584
4000363281.25,-46.111538,-161.39748,-0.13665041,-107.9948,-0.091593698,-106.40882,-45.626465,157.99139
4000726562.5,-45.253025,-159.30255,-0.12569033,-107.40352,-0.097428255,-106.4362,-45.455315,157.28035
4001089843.75,-44.742218,-158.19705,-0.11671496,-106.83012,-0.10456135,-106.48148,-45.166046,155.524
4001453125,-44.237778,-156.15233,-0.11043318,-106.49039,-0.10616906,-106.50121,-45.111977,154.09735
4001816406.25,-44.293934,-154.55246,-0.10897,-106.40173,-0.10431118,-106.55309,-45.596439,153.94618
4002179687.5,-44.471272,-154.1797,-0.11009466,-106.47422,-0.10594227,-106.61022,-45.627346,154.01186
4002542968.75,-44.660835,-154.48911,-0.1065699,-106.60166,-0.10336345,-106.64523,-46.018093,154.99213
4002906250,-44.689995,-152.60265,-0.107821,-106.69388,-0.10702755,-106.69306,-46.445858,154.24806
4003269531.25,-44.589413,-154.5484,-0.10614838,-106.72271,-0.10628667,-106.74453,-46.223949,153.48703
4003632812.5,-44.367023,-152.30125,-0.10914303,-106.7809,-0.10647659,-106.76833,-45.845409,153.03383
4003996093.75,-44.497314,-152.89178,-0.10949358,-106.83324,-0.10907944,-106.8463,-45.979401,153.28889
4004359375,-44.430153,-151.35278,-0.10762116,-106.86966,-0.10718279,-106.86643,-45.659286,151.42899
4004722656.25,-44.409271,-149.48117,-0.10811504,-106.90606,-0.10752748,-106.92458,-45.69487,151.58669
4005085937.5,-44.398361,-149.73994,-0.10540494,-106.95403,-0.10819014,-106.94298,-45.720261,153.41829
4005449218.75,-44.396767,-148.42659,-0.10692142,-106.99913,-0.11281955,-106.97703,-45.645451,152.75839
4005812500,-44.536209,-148.43494,-0.10661844,-107.04187,-0.1103818,-107.02431,-45.762409,153.26462
4006175781.25,-44.724155,-149.30788,-0.10914187,-107.06851,-0.10908186,-107.06859,-45.665031,153.62218
4006539062.5,-44.89109,-150.81731,-0.10785586,-107.12539,-0.11045916,-107.11045,-45.956192,151.00674
4006902343.75,-45.260754,-150.34018,-0.10883351,-107.16872,-0.10591591,-107.17278,-46.013321,152.4184
4007265625,-45.251202,-148.75018,-0.10812461,-107.21876,-0.10739964,-107.20015,-46.192116,151.93668
4007628906.25,-44.981579,-148.41583,-0.1087461,-107.24486,-0.10656827,-107.25095,-46.058838,150.7142
4007992187.5,-44.625015,-148.97586,-0.1091508,-107.29153,-0.10854603,-107.27631,-46.170593,146.87236
4008355468.75,-44.218472,-150.52509,-0.10828146,-107.34536,-0.11059903,-107.33772,-46.147701,146.84312
4008718750,-43.986446,-151.43385,-0.11069714,-107.39343,-0.10646022,-107.36575,-46.127834,145.79802
4009082031.25,-43.846226,-152.69373,-0.11290482,-107.44234,-0.10703763,-107.41304,-46.200497,146.33894
4009445312.5,-43.884312,-155.32358,-0.11415581,-107.44429,-0.10564312,-107.44322,-46.367741,148.18607
4009808593.75,-44.004738,-154.99403,-0.1107103,-107.49375,-0.10725506,-107.50214,-46.300068,150.89526
4010171875,-44.030121,-158.77893,-0.11227403,-107.54115,-0.1063099,-107.54666,-46.414635,151.91261
4010535156.25,-44.377506,-157.97592,-0.11205123,-107.58894,-0.10567208,-107.58047,-46.253189,152.98589
4010898437.5,-44.343407,-155.995,-0.11011986,-107.62452,-0.10704798,-107.62125,-46.381977,150.96767
4011261718.75,-44.188232,-154.35863,-0.10828117,-107.66199,-0.10789479,-107.6787,-46.192932,147.82771
4011625000,-44.251797,-153.58162,-0.10854031,-107.71331,-0.10853143,-107.70378,-46.257076,147.09322
4011988281.25,-44.181568,-151.94635,-0.10474742,-107.75886,-0.10986461,-107.76014,-46.162296,148.1924
4012351562.5,-44.084469,-148.24338,-0.10815839,-107.80544,-0.1073903,-107.7871,-46.056198,149.29391
4012714843.75,-44.141697,-146.7128,-0.10830905,-107.85672,-0.1096419,-107.83765,-45.928211,149.1346
4013078125,-43.961784,-146.32802,-0.10610808,-107.89635,-0.10966055,-107.86686,-46.039513,149.44301
4013441406.25,-44.100807,-146.84183,-0.10946714,-107.91104,-0.10877728,-107.9226,-45.832039,150.65097
4013804687.5,-44.404331,-149.03912,-0.10866915,-107.97503,-0.10890035,-107.96922,-46.143101,149.2814
4014167968.75,-44.586155,-152.39418,-0.10599785,-108.01852,-0.10760055,-108.00058,-47.161644,147.00777
4014531250,-44.839359,-154.69493,-0.10644103,-108.04559,-0.10814251,-108.048,-47.345272,143.13179
4014894531.25,-44.819004,-155.75641,-0.10813991,-108.09623,-0.10766865,-108.10203,-47.43919,146.17856
4015257812.5,-44.827942,-153.43832,-0.10859092,-108.13689,-0.10529849,-108.13083,-47.698589,146.21429
4015621093.75,-44.570232,-152.00902,-0.11086695,-108.17666,-0.10945889,-108.18414,-47.385521,150.22598
4015984375,-44.428471,-150.38438,-0.10844769,-108.21963,-0.11016639,-108.21336,-47.269764,152.08771
4016347656.25,-44.597263,-149.27541,-0.11367404,-108.27364,-0.10874382,-108.26311,-46.851421,153.25543
4016710937.5,-44.617569,-151.21895,-0.10992966,-108.30414,-0.10620563,-108.30884,-46.847595,151.46404
4017074218.75,-44.97221,-153.66652,-0.1110959,-108.33858,-0.10797344,-108.36254,-47.059853,150.74637
4017437500,-45.276257,-153.59999,-0.10910667,-108.38626,-0.10526116,-108.4062,-47.013622,149.73586
4017800781.25,-45.152874,-157.3519,-0.10681616,-108.42903,-0.10755843,-108.46128,-46.904465,149.0015
4018164062.5,-45.284065,-153.48853,-0.10690252,-108.46494,-0.10690852,-108.49038,-47.167751,148.99881
4018527343.75,-45.126148,-150.86571,-0.10884225,-108.48615,-0.10954874,-108.52381,-46.70969,150.79514
4018890625,-45.235756,-149.3689,-0.10905092,-108.54839,-0.11039788,-108.57123,-46.576721,153.61507
4019253906.25,-44.971813,-147.24651,-0.10699542,-108.59294,-0.11096116,-108.60809,-46.36208,151.58159
4019617187.5,-44.749794,-148.33727,-0.10761717,-108.63303,-0.10978554,-108.66471,-46.276165,149.1709
4019980468.75,-44.799305,-148.87459,-0.10705785,-108.67255,-0.11095122,-108.70876,-46.654018,146.14828
4020343750,-44.565479,-149.51381,-0.10700951,-108.72015,-0.10962421,-108.75392,-46.559135,145.40987
4020707031.25,-44.42334,-148.2263,-0.10750686,-108.78394,-0.11078522,-108.78857,-47.222103,144.46262
4021070312.5,-44.251076,-148.98146,-0.10406961,-108.81024,-0.10988111,-108.82298,-46.925201,146.34373
4021433593.75,-44.206158,-149.26248,-0.10969051,-108.85456,-0.10873925,-108.85681,-46.972088,150.19975
4021796875,-43.894508,-149.17438,-0.10693036,-108.8873,-0.10616294,-108.90817,-47.069958,151.49414
4022160156.25,-44.057022,-149.47345,-0.11224311,-108.94711,-0.10773169,-108.93214,-47.189075,151.668
4022523437.5,-44.466274,-146.81802,-0.10981677,-108.9614,-0.10604268,-108.97681,-47.178173,148.29053
4022886718.75,-44.900921,-147.22603,-0.10815804,-109.0176,-0.10780221,-109.03167,-47.22858,147.98862
4023250000,-45.44817,-147.01315,-0.10694123,-109.0554,-0.10522525,-109.06488,-47.207249,145.74216
4023613281.25,-46.044022,-146.61726,-0.1089009,-109.09354,-0.10632844,-109.11033,-47.415005,147.19897
4023976562.5,-45.994652,-146.89285,-0.10718376,-109.13923,-0.10530558,-109.16201,-47.510036,146.17772
4024339843.75,-46.078129,-147.26167,-0.10760955,-109.1843,-0.10693469,-109.20522,-47.950745,146.61415
4024703125,-46.091537,-144.03226,-0.10915197,-109.22982,-0.10702869,-109.23352,-47.813137,146.6273
4025066406.25,-46.026859,-144.49963,-0.10710129,-109.27459,-0.10728071,-109.26148,-48.045933,146.66922
4025429687.5,-45.957623,-145.05632,-0.11018831,-109.30816,-0.11041056,-109.31268,-47.597622,145.69333
4025792968.75,-45.595722,-144.58035,-0.10798992,-109.37006,-0.10834354,-109.35387,-47.452438,145.85907
4026156250,-45.430836,-145.21132,-0.10743918,-109.39658,-0.10641692,-109.41425,-46.541897,144.9388
4026519531.25,-45.249779,-143.82947,-0.10832225,-109.44489,-0.1057096,-109.44489,-46.52742,145.59859
4026882812.5,-45.184483,-143.69954,-0.10659643,-109.50963,-0.1087238,-109.4993,-46.653408,145.68359
4027246093.75,-45.088413,-142.16089,-0.10750269,-109.52132,-0.10740214,-109.54285,-46.832867,145.94
4027609375,-44.991665,-142.07788,-0.10506475,-109.57783,-0.11027839,-109.59959,-47.044659,144.65163
4027972656.25,-44.980713,-140.72275,-0.10683752,-109.591,-0.11194207,-109.62355,-47.248615,143.99258
4028335937.5,-44.934193,-141.88745,-0.10759258,-109.63197,-0.10800056,-109.69212,-47.290031,146.50136
4028699218.75,-44.807384,-141.48988,-0.11116365,-109.68172,-0.10803627,-109.71171,-47.469082,148.84491
4029062500,-44.907803,-141.56607,-0.11409041,-109.72432,-0.10621538,-109.75806,-48.187778,153.14001
4029425781.25,-44.531105,-142.10074,-0.11289483,-109.76015,-0.10896243,-109.79366,-48.374207,149.51497
4029789062.5,-44.784954,-143.09599,-0.10918653,-109.81418,-0.10861564,-109.82134,-48.494724,150.4171
4030152343.75,-44.801872,-144.27136,-0.1086494,-109.86034,-0.10918795,-109.87914,-48.256218,148.63843
4030515625,-44.820789,-143.7191,-0.11104113,-109.92323,-0.10905163,-109.91662,-48.080311,146.61162
4030878906.25,-44.968285,-144.61697,-0.10566212,-109.963,-0.10919736,-109.95395,-47.846268,146.36095
4031242187.5,-45.368076,-144.84151,-0.10846354,-110.00544,-0.11055166,-109.98836,-47.790661,148.89516
4031605468.75,-45.264725,-144.50246,-0.10926539,-110.04715,-0.10774688,-110.05866,-47.689102,148.26976
4031968750,-45.282593,-145.38684,-0.11077166,-110.07303,-0.1107967,-110.08785,-47.823017,149.48688
4032332031.25,-45.137367,-144.81207,-0.10935512,-110.11322,-0.1076881,-110.1601,-48.236767,151.74178
4032695312.5,-45.232197,-144.22673,-0.11155199,-110.14597,-0.10778598,-110.17322,-48.147011,151.86067
4033058593.75,-45.00053,-142.36945,-0.110662,-110.1774,-0.10823677,-110.20574,-48.57235,151.65018
4033421875,-44.611034,-141.09564,-0.10877837,-110.2365,-0.11078126,-110.23885,-48.459549,154.90785
4033785156.25,-44.432068,-139.10159,-0.10861838,-110.26932,-0.11111081,-110.26379,-48.884956,153.39268
4034148437.5,-44.404991,-140.09904,-0.11066093,-110.32745,-0.10903249,-110.32144,-48.753967,152.02452
4034511718.75,-44.534611,-141.11533,-0.11107045,-110.3589,-0.11224939,-110.36337,-48.853115,151.44025
4034875000,-44.862888,-142.35063,-0.10978943,-110.40466,-0.10878064,-110.42501,-48.889675,147.39343
4035238281.25,-45.028389,-144.47733,-0.10957623,-110.451,-0.10794054,-110.4856,-49.02301,146.36497
4035601562.5,-45.150616,-147.01233,-0.10920813,-110.49775,-0.10759143,-110.52633,-49.114594,144.81123
4035964843.75,-45.140427,-145.41341,-0.11098722,-110.5114,-0.10753003,-110.56537,-48.964401,142.6087
4036328125,-44.966965,-144.35249,-0.11084037,-110.56483,-0.10704587,-110.60807,-48.592178,138.10223
4036691406.25,-44.890842,-142.23441,-0.10823865,-110.60522,-0.10576032,-110.65417,-48.670921,136.96538
4037054687.5,-44.834896,-141.86879,-0.10929772,-110.64021,-0.10801771,-110.6657,-48.753468,136.80499
4037417968.75,-44.56369,-141.49164,-0.10980444,-110.70843,-0.10747235,-110.71133,-48.070415,135.49638
4037781250,-44.594345,-141.00516,-0.10974269,-110.75518,-0.10837939,-110.75539,-48.734612,135.46007
4038144531.25,-44.593082,-141.71979,-0.10812846,-110.78806,-0.1105594,-110.79417,-48.999405,135.0174
4038507812.5,-44.504833,-141.53827,-0.10866737,-110.84597,-0.11403969,-110.8428,-49.298283,136.86333
4038871093.75,-44.665951,-141.78394,-0.11009178,-110.89328,-0.11014915,-110.88828,-49.278172,141.16582
4039234375,-44.556915,-140.33858,-0.10859808,-110.94388,-0.10897982,-110.93182,-49.400433,143.84315
4039597656.25,-44.774513,-139.2254,-0.11020327,-110.99831,-0.1103929,-110.95031,-49.241432,144.47583
4039960937.5,-44.691185,-139.59882,-0.11147582,-111.02855,-0.10966969,-111.00689,-48.918774,144.80756
4040324218.75,-44.50951,-140.81081,-0.11009718,-111.07352,-0.11065953,-111.05524,-49.228024,141.65611
4040687500,-44.404743,-141.57004,-0.11034361,-111.09537,-0.10837515,-111.10699,-49.144203,134.25952
4041050781.25,-44.527687,-142.32251,-0.11260084,-111.14812,-0.10692628,-111.12962,-48.361839,131.72624
4041414062.5,-44.447411,-143.86855,-0.11036852,-111.17133,-0.10796248,-111.17046,-48.398632,132.61566
4041777343.75,-44.7579,-142.04076,-0.10919788,-111.22144,-0.10570757,-111.21871,-48.285103,134.43947
4042140625,-45.346916,-142.69087,-0.10959267,-111.25852,-0.10975048,-111.2767,-49.171398,138.76442
4042503906.25,-45.736519,-142.42645,-0.10773508,-111.31727,-0.10607029,-111.31588,-49.425117,141.88091
4042867187.5,-46.098454,-143.31645,-0.10555728,-111.34676,-0.10743165,-111.37408,-49.292118,144.97983
4043230468.75,-46.384762,-143.10646,-0.10881201,-111.40966,-0.10755714,-111.41898,-49.419933,144.30539
4043593750,-45.836456,-142.92316,-0.10749551,-111.44167,-0.10853167,-111.44181,-49.21767,142.02809
4043957031.25,-45.569675,-139.5477,-0.10935234,-111.49374,-0.10991789,-111.48384,-49.07748,139.65363
4044320312.5,-45.395462,-140.22826,-0.10656807,-111.5251,-0.11171197,-111.53371,-48.652771,137.61972
4044683593.75,-45.454636,-139.6179,-0.10919962,-111.56774,-0.11057161,-111.57018,-49.066906,135.65285
4045046875,-45.190983,-141.78174,-0.10572278,-111.61758,-0.11201724,-111.60807,-49.467892,135.00398
4045410156.25,-45.485798,-142.02625,-0.10634738,-111.65908,-0.1076752,-111.63271,-49.441376,135.94786
4045773437.5,-45.48539,-142.9046,-0.10659081,-111.6922,-0.10939065,-111.67804,-50.04797,133.85173
4046136718.75,-45.288666,-141.91968,-0.10703201,-111.73018,-0.10893951,-111.73289,-50.380306,133.1277
4046500000,-45.216537,-142.28732,-0.10967208,-111.78197,-0.1073818,-111.76101,-50.60796,135.19804
4046863281.25,-45.219948,-141.73894,-0.11023268,-111.81131,-0.11087858,-111.80931,-50.727001,135.65869
4047226562.5,-45.071697,-140.27519,-0.11002807,-111.85684,-0.10803205,-111.8406,-50.556194,134.63676
4047589843.75,-45.20388,-138.50084,-0.10854839,-111.90772,-0.10826215,-111.90181,-50.080376,135.74362
4047953125,-45.310734,-139.87509,-0.11071324,-111.93064,-0.10859371,-111.93008,-50.642521,133.20285
4048316406.25,-45.632996,-139.77855,-0.11115405,-111.97446,-0.10818316,-111.97939,-49.94981,135.85722
4048679687.5,-45.873848,-139.90767,-0.11004104,-112.02405,-0.1113211,-112.02944,-49.604675,133.33609
4049042968.75,-45.747414,-139.04166,-0.11046337,-112.0565,-0.10753023,-112.06735,-50.146111,131.47569
4049406250,-45.54866,-137.9772,-0.11100972,-112.09738,-0.10975137,-112.10663,-49.79607,130.09497
4049769531.25,-45.096474,-136.56882,-0.10809319,-112.14461,-0.11083367,-112.14938,-49.791935,125.5834
4050132812.5,-44.93475,-135.56841,-0.11007156,-112.18966,-0.10852521,-112.19885,-50.078945,125.487
4050496093.75,-44.810577,-136.21487,-0.10892686,-112.24994,-0.10977149,-112.21587,-49.351196,126.06591
4050859375,-45.060158,-137.22252,-0.10744195,-112.28246,-0.10955839,-112.25095,-48.685013,129.12193
4051222656.25,-45.25499,-137.54982,-0.10851019,-112.3391,-0.10817818,-112.31003,-47.88266,133.14618
4051585937.5,-45.856712,-135.85258,-0.10746647,-112.37556,-0.10869174,-112.33485,-47.761894,133.58195
4051949218.75,-45.981918,-137.55276,-0.10875151,-112.39487,-0.10982551,-112.40432,-48.297291,133.42215
4052312500,-46.254375,-136.73315,-0.10866434,-112.44788,-0.11070404,-112.42317,-48.746174,134.06052
4052675781.25,-46.516171,-135.14066,-0.10946589,-112.50146,-0.10981081,-112.48649,-49.812248,136.56587
4053039062.5,-46.618099,-134.86638,-0.10890672,-112.54232,-0.10862121,-112.54502,-49.914551,140.84329
4053402343.75,-46.834007,-135.26106,-0.11172631,-112.59736,-0.10816848,-112.58986,-50.470497,144.10944
4053765625,-46.565945,-135.71661,-0.10855484,-112.6336,-0.10998113,-112.62895,-50.405178,140.95605
4054128906.25,-46.304596,-137.78183,-0.10827912,-112.67311,-0.10564131,-112.65903,-50.502834,139.78687
4054492187.5,-46.089714,-137.80815,-0.11102423,-112.69573,-0.10818556,-112.69034,-50.314964,137.03404
4054855468.75,-46.101719,-137.99837,-0.1072883,-112.74287,-0.10530555,-112.73318,-49.826,133.30089
4055218750,-45.919033,-134.45193,-0.11297111,-112.77681,-0.10925057,-112.76537,-50.718945,131.77037
4055582031.25,-46.022755,-132.6331,-0.10982157,-112.83657,-0.10696306,-112.82871,-51.292076,128.07974
4055945312.5,-46.100567,-132.78307,-0.11620637,-112.87747,-0.10692339,-112.86895,-51.126923,126.9381
4056308593.75,-46.075691,-131.50015,-0.11269263,-112.92093,-0.10897858,-112.91765,-51.206009,125.39049
4056671875,-46.225548,-132.69402,-0.11206353,-112.96344,-0.10782655,-112.95765,-50.991257,128.59824
4057035156.25,-45.893692,-133.52966,-0.11272044,-113.01292,-0.11102091,-113.02001,-50.571785,126.7152
4057398437.5,-45.91758,-131.69223,-0.11116048,-113.05338,-0.10949651,-113.05841,-50.405052,132.02754
4057761718.75,-45.820255,-135.03191,-0.11188357,-113.09441,-0.11205795,-113.08208,-49.987656,132.53853
4058125000,-45.716488,-134.66849,-0.11048476,-113.12641,-0.11129148,-113.13966,-49.880508,135.26524
4058488281.25,-45.736927,-135.69926,-0.10978737,-113.17194,-0.10799199,-113.16964,-49.731129,136.10364
4058851562.5,-45.962448,-136.82071,-0.10963628,-113.21954,-0.1083301,-113.19789,-49.393085,136.85641
4059214843.75,-45.560688,-134.62361,-0.10854287,-113.26465,-0.10829531,-113.26408,-49.119053,139.46786
4059578125,-45.937859,-133.87779,-0.11096968,-113.30913,-0.10770944,-113.30155,-49.715706,138.45418
4059941406.25,-46.191864,-136.00658,-0.11083588,-113.33875,-0.10967915,-113.34181,-50.088978,136.28265
4060304687.5,-46.328354,-132.1936,-0.11147729,-113.38544,-0.10552755,-113.38773,-50.574066,135.51543
4060667968.75,-46.471653,-133.98515,-0.11494395,-113.41956,-0.10648235,-113.45352,-50.318508,135.53105
4061031250,-46.420448,-135.70537,-0.11303642,-113.4793,-0.10905964,-113.48403,-50.27264,133.41957
4061394531.25,-47.049896,-134.27928,-0.11175075,-113.52247,-0.10739756,-113.51268,-49.948315,132.6823
4061757812.5,-46.848164,-133.66051,-0.11201799,-113.56559,-0.10736251,-113.55811,-49.593594,132.22562
4062121093.75,-46.692638,-133.36212,-0.11086892,-113.61316,-0.10731216,-113.59341,-49.588779,132.77054
4062484375,-46.935677,-135.05299,-0.11073293,-113.63269,-0.10698461,-113.63397,-48.963848,132.97266
4062847656.25,-46.6646,-135.49554,-0.11166459,-113.68847,-0.10650491,-113.6733,-48.970627,126.52644
4063210937.5,-46.106365,-138.10574,-0.10918845,-113.71957,-0.10744221,-113.72068,-48.580097,126.51067
4063574218.75,-46.093296,-138.20654,-0.10908113,-113.75884,-0.10492914,-113.77224,-48.52277,128.31602
4063937500,-45.377296,-136.07449,-0.10884871,-113.80354,-0.10540604,-113.81135,-49.516159,122.63437
4064300781.25,-45.656487,-135.75479,-0.11054658,-113.84607,-0.107391,-113.85777,-50.28273,125.83923
4064664062.5,-45.361816,-135.92831,-0.10996953,-113.87416,-0.10970843,-113.88893,-50.071442,125.88341
4065027343.75,-45.415688,-135.51706,-0.1097964,-113.94459,-0.11001431,-113.93097,-50.917595,127.28864
4065390625,-45.390682,-134.60971,-0.11142804,-113.96282,-0.10996436,-113.99783,-50.532337,128.06883
4065753906.25,-45.815838,-136.62521,-0.1075624,-114.00738,-0.10959671,-114.03729,-50.161335,126.84873
4066117187.5,-45.920559,-136.40849,-0.10988226,-114.05747,-0.10843964,-114.07165,-50.463448,127.11143
4066480468.75,-46.359814,-136.06419,-0.10871927,-114.08788,-0.1117091,-114.12592,-50.223755,123.47009
4066843750,-46.07428,-134.30894,-0.1108925,-114.14464,-0.10755781,-114.12461,-51.183601,121.50984
4067207031.25,-46.15591,-134.37068,-0.10865428,-114.17081,-0.108496,-114.19739,-50.62001,121.66151
4067570312.5,-46.337997,-133.79175,-0.11180799,-114.23042,-0.10928797,-114.21921,-50.963184,126.70113
4067933593.75,-46.181995,-132.25525,-0.11217273,-114.27573,-0.10728374,-114.25618,-50.612099,130.57098
4068296875,-46.187416,-132.1124,-0.11245906,-114.32417,-0.11078753,-114.28857,-51.016525,128.60689
4068660156.25,-45.678509,-133.16843,-0.10892169,-114.34249,-0.10816307,-114.35202,-51.179806,128.20316
4069023437.5,-45.426819,-133.72368,-0.11292702,-114.39802,-0.11005089,-114.37577,-51.635494,125.18761
4069386718.75,-45.459167,-132.76051,-0.11033805,-114.42843,-0.11026351,-114.41626,-51.393044,122.23985
4069750000,-45.536064,-134.96553,-0.11069379,-114.4809,-0.11022191,-114.45689,-51.884354,120.27757
