!CSV A.01.01
!Agilent Technologies,N5222A,MY51421451,A.09.90.02
!Agilent N5222A: A.09.90.02
!Date: Tuesday, February 11, 2014 11:21:01
!Source: Standard

BEGIN CH2_DATA
Freq(Hz),S33(DB),S33(DEG),S34(DB),S34(DEG),S43(DB),S43(DEG),S44(DB),S44(DEG)
1000000000,-41.276859,-94.58873,-0.26239413,47.407726,-0.25755075,47.394356,-45.46965,-55.770092
1001484375,-41.502007,-92.79496,-0.25936884,46.939716,-0.25840369,46.940857,-45.549831,-56.052326
1002968750,-40.858891,-91.747528,-0.26452196,46.481499,-0.25912115,46.471466,-46.216843,-59.864384
1004453125,-41.30962,-92.692764,-0.25696623,46.035152,-0.26054123,46.01619,-45.084812,-55.203842
1005937500,-41.76902,-93.473717,-0.26359957,45.560017,-0.25896835,45.551117,-45.371742,-55.852791
1007421875,-41.575451,-95.133675,-0.25908256,45.097721,-0.2598584,45.078403,-45.65086,-57.682354
1008906250,-42.38245,-96.380501,-0.26257402,44.641617,-0.25750646,44.653294,-45.29454,-64.503647
1010390625,-41.822624,-98.686798,-0.26368695,44.196934,-0.25864935,44.144184,-46.465351,-62.88995
1011875000,-41.927296,-96.025566,-0.26146886,43.70356,-0.25743473,43.71331,-46.598907,-55.18824
1013359375,-41.591732,-99.634247,-0.26212084,43.242519,-0.2625165,43.257687,-46.1353,-51.786213
1014843750,-42.436485,-100.9076,-0.25977477,42.784748,-0.25941762,42.761944,-46.138371,-53.296021
1016328125,-42.624229,-98.952988,-0.26233947,42.326275,-0.25734499,42.328381,-46.375328,-62.961765
1017812500,-42.206264,-101.37288,-0.26132879,41.864811,-0.26060495,41.844501,-46.604702,-52.810387
1019296875,-42.693272,-103.8978,-0.25962374,41.383652,-0.2633951,41.389797,-46.090618,-57.368263
1020781250,-42.602592,-106.21416,-0.26002589,40.92104,-0.25919494,40.899052,-47.647537,-62.140678
1022265625,-42.964348,-102.53005,-0.26170266,40.477203,-0.25894111,40.468254,-47.040268,-55.057159
1023750000,-42.919762,-103.07686,-0.26162103,39.999134,-0.26286545,39.988998,-47.915241,-61.161716
1025234375,-43.25528,-105.13799,-0.25911742,39.527943,-0.26188558,39.539982,-48.466171,-60.917816
1026718750,-43.02103,-103.77216,-0.2627759,39.085327,-0.26535708,39.073071,-48.854927,-57.601089
1028203125,-42.908413,-106.79037,-0.26104462,38.63398,-0.26357895,38.596676,-48.540848,-65.344086
1029687500,-43.012039,-104.99936,-0.26489457,38.148117,-0.25940117,38.160728,-48.358002,-64.036789
1031171875,-42.777164,-106.78339,-0.26470461,37.693325,-0.26308271,37.688984,-48.788761,-64.220261
1032656250,-43.055138,-108.91853,-0.26091179,37.215527,-0.26210248,37.223576,-49.592857,-56.182537
1034140625,-43.568966,-108.37978,-0.26206377,36.764946,-0.26521894,36.751152,-49.092129,-56.995358
1035625000,-43.070133,-109.58485,-0.26284826,36.306641,-0.26323679,36.301731,-49.580799,-55.751957
1037109375,-43.305962,-108.98938,-0.26436836,35.840813,-0.26007763,35.852795,-49.752266,-63.699245
1038593750,-43.732857,-111.4716,-0.265861,35.375954,-0.26022062,35.371704,-49.968258,-56.07951
1040078125,-43.839893,-117.32715,-0.26477492,34.923763,-0.25910404,34.900688,-50.463104,-58.078972
1041562500,-43.378548,-114.08241,-0.26636893,34.466637,-0.26322326,34.414894,-49.555977,-51.606152
1043046875,-43.54475,-119.85751,-0.26464429,33.98674,-0.26256174,33.981766,-50.513573,-68.538261
1044531250,-43.783867,-120.22697,-0.26371592,33.535542,-0.26846915,33.535244,-49.524883,-62.063572
1046015625,-43.689774,-118.82434,-0.26193666,33.052189,-0.26395321,33.067558,-49.930416,-56.617065
1047500000,-44.091385,-119.46396,-0.26584569,32.606335,-0.26646137,32.60487,-51.585293,-53.873508
1048984375,-44.135098,-117.27025,-0.26445234,32.146561,-0.26121107,32.128532,-49.400146,-63.984154
1050468750,-44.264282,-120.87451,-0.26505116,31.672758,-0.26478398,31.689848,-50.902962,-61.70356
1051953125,-44.616318,-121.79066,-0.26750425,31.215143,-0.26439601,31.202368,-51.861019,-43.958256
1053437500,-44.238667,-119.50127,-0.26531571,30.751602,-0.26621959,30.740742,-50.713802,-56.902534
1054921875,-44.362022,-125.8784,-0.26307139,30.287651,-0.26487702,30.301418,-52.092537,-55.464153
1056406250,-44.147552,-127.73111,-0.26742634,29.81951,-0.26659688,29.83215,-51.010925,-56.899788
1057890625,-44.003677,-122.51929,-0.26971325,29.344002,-0.26442644,29.332327,-53.318539,-51.870392
1059375000,-44.349072,-132.84697,-0.2666676,28.899876,-0.26637599,28.919451,-53.58662,-61.180725
1060859375,-44.894604,-129.9554,-0.26908624,28.426439,-0.2630074,28.447407,-52.5271,-53.309761
1062343750,-45.072147,-130.586,-0.26498994,27.994173,-0.26718092,27.979816,-52.523777,-55.74321
1063828125,-44.789516,-136.32918,-0.271056,27.505383,-0.27124006,27.510654,-54.637707,-59.792271
1065312500,-44.962971,-131.1877,-0.26676273,27.050848,-0.26621431,27.040709,-55.346603,-46.685841
1066796875,-45.935387,-130.9955,-0.27201581,26.582113,-0.26525411,26.566366,-53.732468,-58.915356
1068281250,-45.139233,-135.40854,-0.26961717,26.12014,-0.26518881,26.121773,-53.391361,-62.530777
1069765625,-45.662247,-138.70436,-0.26859841,25.666389,-0.26612574,25.683054,-54.137291,-53.486622
1071250000,-45.51067,-137.06825,-0.26658627,25.20583,-0.26873225,25.20336,-53.81255,-45.379887
1072734375,-45.502399,-136.49899,-0.26876628,24.733459,-0.26499876,24.730543,-55.759861,-35.156036
1074218750,-45.513256,-136.30103,-0.26828736,24.290951,-0.26823643,24.251568,-57.58979,-34.39542
1075703125,-45.890919,-139.97774,-0.26893446,23.832125,-0.26829824,23.795826,-55.476051,-59.048237
1077187500,-45.31955,-140.84793,-0.27055717,23.333519,-0.26644832,23.362598,-57.512531,-33.572292
1078671875,-46.119629,-142.30469,-0.26886076,22.876125,-0.26991135,22.888325,-54.230457,-32.205482
1080156250,-45.402302,-142.54272,-0.26988313,22.417147,-0.26943198,22.416666,-57.054985,-34.481743
1081640625,-45.479008,-143.55292,-0.27022228,21.953514,-0.26900324,21.939178,-55.884193,-43.158173
1083125000,-46.105854,-142.55064,-0.27005869,21.467745,-0.26712602,21.514561,-59.322014,-17.953796
1084609375,-46.4501,-148.45003,-0.26930141,21.029186,-0.27118191,21.024467,-57.999001,-12.073885
1086093750,-46.765671,-150.50644,-0.26991972,20.587463,-0.26633897,20.583965,-63.963642,-21.329979
1087578125,-47.065395,-147.55161,-0.27238438,20.098885,-0.26926985,20.110147,-59.456192,-10.515976
1089062500,-45.970272,-148.80687,-0.26995406,19.646084,-0.26775643,19.643452,-58.388336,-11.541072
1090546875,-46.679153,-157.27287,-0.27162936,19.177008,-0.27013016,19.167988,-59.604507,-12.148441
1092031250,-46.668198,-154.8179,-0.2753273,18.734146,-0.26974538,18.730331,-59.219971,-15.862155
1093515625,-46.678654,-149.08965,-0.27435794,18.270477,-0.26710996,18.246794,-66.316505,8.9510365
1095000000,-47.537781,-159.87114,-0.26986101,17.810736,-0.27065718,17.792028,-61.748383,46.576363
1096484375,-47.832787,-155.70763,-0.27013201,17.327814,-0.26624027,17.318148,-60.869148,35.409233
1097968750,-48.185131,-157.62512,-0.27552715,16.863636,-0.26981923,16.865129,-55.345078,28.181435
1099453125,-47.060997,-162.33121,-0.26981935,16.414139,-0.26767725,16.400412,-54.734108,19.38162
1100937500,-47.698822,-162.97823,-0.27313277,15.953135,-0.27221736,15.938558,-61.800053,23.376175
1102421875,-47.070145,-169.7751,-0.27176765,15.482178,-0.26994672,15.478515,-58.263908,26.834593
1103906250,-47.346355,-163.16817,-0.27478212,15.020575,-0.26623988,15.036943,-59.206978,25.210932
1105390625,-47.63448,-168.57016,-0.27395555,14.564156,-0.27504304,14.555521,-57.373634,19.501993
1106875000,-48.061501,-169.44897,-0.27471453,14.08765,-0.27254945,14.088177,-55.74052,32.838772
1108359375,-48.55085,-169.60938,-0.27158192,13.62113,-0.27258211,13.627478,-58.862446,45.311222
1109843750,-48.116146,-167.34756,-0.27529952,13.159341,-0.27375364,13.175912,-57.923519,67.4188
1111328125,-48.152004,-171.1031,-0.27552944,12.717514,-0.27276254,12.701405,-56.750973,58.691673
1112812500,-47.349991,-165.58575,-0.27283394,12.243465,-0.27330554,12.229271,-57.116821,43.475304
1114296875,-48.510422,-175.76523,-0.27622378,11.774737,-0.27052245,11.800257,-53.533504,60.905998
1115781250,-48.252289,-177.36116,-0.27436408,11.320748,-0.27600032,11.310861,-56.613369,42.059105
1117265625,-48.280907,179.72733,-0.27231824,10.864424,-0.27556571,10.855929,-54.185143,49.554737
1118750000,-48.599213,177.08856,-0.27673137,10.368608,-0.27246389,10.3816,-53.789928,50.641758
1120234375,-48.244205,173.97034,-0.2757144,9.9369717,-0.27383384,9.9450865,-52.05822,58.595081
1121718750,-48.739708,172.72061,-0.27348018,9.4571209,-0.27318385,9.4842587,-57.018726,43.048847
1123203125,-48.137566,166.43932,-0.27524668,8.9648857,-0.27338079,9.0156155,-53.978851,54.870323
1124687500,-49.439499,170.22882,-0.27611017,8.5381985,-0.27403051,8.5573969,-56.739223,68.164116
1126171875,-49.691242,163.56662,-0.27837774,8.0814104,-0.27467215,8.0655088,-52.662731,68.18943
1127656250,-49.433628,155.14006,-0.27501369,7.6077962,-0.27370372,7.6207495,-53.592403,68.541214
1129140625,-48.514122,155.71933,-0.27780607,7.154829,-0.27550706,7.1474924,-51.804672,68.672646
1130625000,-48.082005,157.60867,-0.27697247,6.6956024,-0.27223492,6.6802788,-53.444408,57.694118
1132109375,-48.512608,157.63371,-0.27581725,6.2141876,-0.27612087,6.2182975,-51.487083,61.768017
1133593750,-48.332253,153.48335,-0.2788178,5.7627411,-0.27598336,5.7724557,-49.900063,60.709885
1135078125,-48.765591,151.28839,-0.27630952,5.2991843,-0.27645549,5.2989182,-50.576462,58.210186
1136562500,-49.255066,147.53572,-0.27463582,4.8235998,-0.27789596,4.8390326,-50.76115,54.898785
1138046875,-48.45575,150.57727,-0.27587569,4.3627305,-0.27721211,4.3676305,-50.099522,59.557903
1139531250,-48.880344,141.17577,-0.27693674,3.9046996,-0.27293241,3.9028461,-50.28651,65.099854
1141015625,-49.217674,145.18289,-0.27639499,3.4543517,-0.27364168,3.4276392,-49.465504,65.885719
1142500000,-47.685852,144.5197,-0.27846384,2.9826937,-0.27572536,3.003788,-49.307938,67.786636
1143984375,-48.775265,137.96857,-0.2783305,2.5246019,-0.27531648,2.5291348,-48.783241,66.678177
1145468750,-47.130543,140.10127,-0.27534118,2.0799165,-0.27664295,2.0686033,-48.940693,54.057491
1146953125,-47.983299,134.26476,-0.27710494,1.5984093,-0.27758873,1.6170453,-48.830826,53.138279
1148437500,-47.910309,130.97173,-0.27634355,1.142116,-0.27754316,1.1408848,-49.78027,57.544968
1149921875,-47.634415,135.94434,-0.27780217,0.66602492,-0.27786279,0.68710059,-48.705471,58.078712
1151406250,-47.037525,135.82912,-0.28066874,0.22842734,-0.27674904,0.22113305,-47.90588,69.854996
1152890625,-47.427517,127.03713,-0.27983847,-0.25256398,-0.27507481,-0.25327694,-48.784718,57.695114
1154375000,-47.008896,122.83901,-0.27854785,-0.7078324,-0.27823189,-0.69020778,-47.473301,60.591537
1155859375,-46.998249,133.88249,-0.27910537,-1.1628586,-0.27801311,-1.1870643,-47.279266,60.099613
1157343750,-47.50975,128.99545,-0.27612156,-1.6302196,-0.27900833,-1.6317829,-46.419716,62.691643
1158828125,-47.210831,129.20856,-0.27976385,-2.0804548,-0.27811867,-2.1218357,-47.553493,64.684311
1160312500,-47.472351,120.59964,-0.27997062,-2.5656056,-0.27821311,-2.5805318,-48.220757,62.457348
1161796875,-47.886635,120.80788,-0.27962789,-3.043458,-0.27611578,-3.016444,-48.87323,63.423279
1163281250,-47.101139,116.70444,-0.27909395,-3.4851236,-0.27786586,-3.4701855,-46.523396,59.258564
1164765625,-45.917809,118.04446,-0.27807295,-3.9517093,-0.28003651,-3.9813821,-45.984531,62.503185
1166250000,-46.444515,116.6044,-0.27839616,-4.4111447,-0.2784026,-4.4071999,-45.984776,60.070175
1167734375,-46.810993,105.87543,-0.28278095,-4.8666258,-0.27849424,-4.8699441,-45.980728,64.225052
1169218750,-46.78717,110.61326,-0.2811493,-5.3190699,-0.28013873,-5.3378997,-44.50774,64.039879
1170703125,-46.251953,110.09468,-0.28018901,-5.8201084,-0.28064859,-5.7955308,-46.362526,57.013332
1172187500,-46.282051,106.36476,-0.28024811,-6.2606063,-0.27851048,-6.2592707,-45.879601,56.333973
1173671875,-45.736752,105.13866,-0.2778756,-6.722342,-0.28116587,-6.7331285,-46.284229,62.164066
1175156250,-45.827679,103.10438,-0.28198993,-7.1747656,-0.28116882,-7.1990256,-44.958805,55.395817
1176640625,-45.774254,106.13903,-0.28170159,-7.6536369,-0.27810648,-7.6667056,-44.394962,49.454735
1178125000,-44.983936,101.47776,-0.28153121,-8.1084585,-0.28259033,-8.1046162,-45.69136,53.570179
1179609375,-45.258087,102.08936,-0.28335029,-8.5826578,-0.27853483,-8.5926571,-44.126305,58.881107
1181093750,-45.654312,109.14236,-0.28254285,-9.0349827,-0.27927041,-9.0746412,-44.971928,59.094498
1182578125,-45.915089,98.459755,-0.28605005,-9.5015192,-0.27796718,-9.5109425,-44.789513,51.566357
1184062500,-45.61142,96.503639,-0.28459054,-9.9311113,-0.28046745,-9.9606733,-44.719398,53.194977
1185546875,-45.513142,91.888611,-0.28488532,-10.423782,-0.28011459,-10.451501,-44.50835,62.283417
1187031250,-44.729443,93.274132,-0.28318962,-10.872559,-0.2830137,-10.876038,-44.829475,56.432659
1188515625,-45.181866,93.276329,-0.28130621,-11.367602,-0.28484893,-11.349604,-44.343697,59.573845
1190000000,-45.047234,97.356377,-0.28109401,-11.838723,-0.28061286,-11.808076,-43.922825,56.91888
1191484375,-44.828655,90.564621,-0.28322703,-12.269624,-0.28080934,-12.28383,-44.690838,56.536079
1192968750,-44.425102,94.83181,-0.28198767,-12.734247,-0.28517652,-12.767748,-44.136219,53.951855
1194453125,-44.758724,90.817505,-0.28371486,-13.190957,-0.28198496,-13.197558,-43.322533,53.093216
1195937500,-44.659698,89.147644,-0.28334942,-13.651036,-0.28455731,-13.683693,-44.09597,56.032921
1197421875,-44.338928,89.025162,-0.28457296,-14.134703,-0.28475803,-14.133381,-43.617813,56.993366
1198906250,-44.855057,91.035881,-0.28448913,-14.583504,-0.28048772,-14.597639,-43.128342,53.493484
1200390625,-44.388084,85.597244,-0.28594306,-15.052667,-0.28346208,-15.058759,-43.953922,54.244564
1201875000,-44.563869,84.414795,-0.28210798,-15.522079,-0.28331855,-15.520273,-43.375046,52.375099
1203359375,-43.469601,83.775314,-0.28743559,-15.974336,-0.28570628,-15.978888,-43.44125,57.904556
1204843750,-44.275894,79.146088,-0.28335825,-16.418058,-0.28437656,-16.438234,-42.772667,53.424919
1206328125,-44.44968,80.671822,-0.28717688,-16.901255,-0.28366423,-16.901655,-43.123425,55.313007
1207812500,-44.064568,79.089958,-0.28821933,-17.368221,-0.28497991,-17.338274,-43.424545,52.59573
1209296875,-44.287102,76.787048,-0.28707939,-17.822536,-0.28315368,-17.844112,-43.116798,51.470375
1210781250,-43.087307,78.427124,-0.28536206,-18.279835,-0.28589267,-18.307478,-42.97229,53.441189
1212265625,-43.73053,78.427094,-0.28522053,-18.771315,-0.28327107,-18.769861,-43.001781,52.344288
1213750000,-43.566547,75.770859,-0.28405041,-19.228405,-0.28594637,-19.206013,-43.204914,52.586231
1215234375,-43.477562,76.970322,-0.28693768,-19.679605,-0.28524044,-19.681669,-42.189186,53.356781
1216718750,-43.53754,71.660355,-0.28811583,-20.153635,-0.28528914,-20.123981,-42.779469,54.310162
1218203125,-43.848148,72.20356,-0.28944588,-20.604181,-0.28165838,-20.612103,-42.012409,51.616341
1219687500,-43.464855,70.61541,-0.28649029,-21.071901,-0.28542975,-21.054594,-41.966785,49.385036
1221171875,-42.875469,70.05471,-0.28446862,-21.524757,-0.28791961,-21.520197,-42.5317,50.107704
1222656250,-42.601158,69.5961,-0.28777158,-22.003048,-0.28782988,-21.992813,-41.919495,50.90942
1224140625,-42.98735,71.162338,-0.28949943,-22.438204,-0.28749561,-22.454906,-42.137215,48.203995
1225625000,-42.482651,64.504524,-0.28813383,-22.929243,-0.28577343,-22.8981,-41.596878,49.728455
1227109375,-43.273972,71.257927,-0.28891659,-23.357176,-0.28767666,-23.382504,-41.511398,48.311638
1228593750,-41.908577,65.361115,-0.28643471,-23.836349,-0.28576028,-23.817949,-41.947994,47.072617
1230078125,-42.534584,66.832565,-0.28629354,-24.310371,-0.28952488,-24.295868,-42.343075,50.817265
1231562500,-42.105736,62.997295,-0.28814036,-24.769558,-0.29140711,-24.753283,-41.643581,47.071411
1233046875,-42.351044,62.877041,-0.28863052,-25.233591,-0.29063129,-25.244331,-41.440601,49.556747
1234531250,-41.923443,61.878468,-0.29286525,-25.693695,-0.28693932,-25.676634,-41.499645,47.125866
1236015625,-41.95599,60.662838,-0.28748938,-26.161594,-0.28685531,-26.141582,-41.267384,47.00045
1237500000,-42.042034,61.941853,-0.29096782,-26.59251,-0.28532889,-26.623501,-41.321011,46.605289
1238984375,-41.719276,61.727631,-0.28786743,-27.072105,-0.28767133,-27.092531,-40.793552,49.30722
1240468750,-41.572327,56.806705,-0.28946969,-27.559719,-0.28833857,-27.536236,-40.565487,46.466854
1241953125,-41.485893,57.483028,-0.29229605,-27.994568,-0.2872296,-28.01943,-40.635452,46.964748
1243437500,-41.197216,54.19022,-0.28870177,-28.466328,-0.28854448,-28.47875,-41.333096,45.846439
1244921875,-41.616257,55.022022,-0.29183096,-28.905777,-0.29076082,-28.92524,-40.941498,43.075264
1246406250,-41.502613,52.313965,-0.29200134,-29.391142,-0.2877472,-29.404802,-40.977539,47.589535
1247890625,-41.267994,54.784462,-0.28810111,-29.831602,-0.28911984,-29.835045,-40.853821,46.691196
1249375000,-41.395279,52.763733,-0.29215291,-30.317656,-0.28966105,-30.318567,-40.511833,44.854832
1250859375,-41.173313,53.63472,-0.28780746,-30.760683,-0.29194003,-30.789335,-40.333172,43.264675
1252343750,-40.796764,53.414787,-0.29181767,-31.25869,-0.28946123,-31.219542,-40.154774,46.157619
1253828125,-41.430435,51.581207,-0.29009986,-31.704035,-0.28982565,-31.692963,-40.531113,41.008007
1255312500,-40.500931,49.041527,-0.29279315,-32.181538,-0.29093087,-32.138741,-40.590694,42.368252
1256796875,-40.578236,52.158329,-0.29232317,-32.640347,-0.28760189,-32.645138,-40.420586,43.613567
1258281250,-40.967316,48.178772,-0.28921965,-33.093063,-0.29039234,-33.096592,-39.837894,41.578568
1259765625,-40.779518,50.070484,-0.29303932,-33.547657,-0.29157832,-33.566563,-40.29324,44.429947
1261250000,-40.62191,49.059616,-0.29205844,-34.020161,-0.28997192,-34.011566,-40.122585,42.993202
1262734375,-40.512077,47.207047,-0.29184183,-34.473736,-0.29316151,-34.472641,-39.835152,41.718269
1264218750,-39.991154,48.009972,-0.2958827,-34.954388,-0.28967273,-34.934402,-39.706413,43.340542
1265703125,-40.341164,46.848305,-0.29191649,-35.412075,-0.29080418,-35.389523,-40.238575,43.434509
1267187500,-40.263233,47.398411,-0.29302362,-35.855202,-0.29102546,-35.853542,-39.601559,39.485252
1268671875,-40.384613,45.579433,-0.29504678,-36.335529,-0.2874181,-36.321533,-39.663113,41.317291
1270156250,-39.775692,41.921444,-0.29297924,-36.792778,-0.29335991,-36.78204,-39.465351,37.468357
1271640625,-40.233215,45.503025,-0.29015639,-37.242222,-0.29503247,-37.253677,-39.517445,37.609112
1273125000,-39.663494,40.486187,-0.29162702,-37.713432,-0.29203179,-37.724735,-39.601753,34.812069
1274609375,-39.658733,43.052166,-0.29220289,-38.182194,-0.29213986,-38.185131,-39.470608,36.036907
1276093750,-39.963188,40.404331,-0.29392239,-38.638771,-0.29168135,-38.654968,-39.619942,37.088978
1277578125,-39.989502,38.512638,-0.29533103,-39.088245,-0.29568937,-39.094509,-39.419136,38.275631
1279062500,-39.954853,43.348194,-0.29523769,-39.555538,-0.29034585,-39.543228,-39.322075,37.976917
1280546875,-39.660576,39.133984,-0.29562151,-40.023849,-0.28972057,-40.003044,-39.521538,38.826859
1282031250,-39.827221,39.542122,-0.29388487,-40.48518,-0.29176268,-40.502808,-39.259937,34.675537
1283515625,-39.780552,38.884743,-0.29493707,-40.952309,-0.29261431,-40.939537,-39.285164,36.772949
1285000000,-39.68528,39.87664,-0.29494867,-41.408676,-0.29339254,-41.432873,-39.392277,34.664639
1286484375,-39.78989,35.816353,-0.29355872,-41.887024,-0.29021609,-41.875187,-39.21677,33.287502
1287968750,-39.267155,35.231129,-0.2948494,-42.340076,-0.29441041,-42.329716,-38.942596,34.438992
1289453125,-39.139881,36.343159,-0.29528964,-42.803524,-0.29031858,-42.791748,-39.112576,32.822319
1290937500,-39.102966,32.593033,-0.29592887,-43.266651,-0.29479769,-43.256496,-38.83857,33.719929
1292421875,-39.045948,35.295029,-0.29659238,-43.742271,-0.29291087,-43.719086,-39.098827,32.98584
1293906250,-39.711216,34.189396,-0.29745939,-44.202019,-0.29368243,-44.201279,-38.952724,32.89119
