!CSV A.01.01
!Agilent Technologies,N5222A,MY51421451,A.09.90.02
!Agilent N5222A: A.09.90.02
!Date: Tuesday, June 23, 2015 15:23:07
!Source: Standard

BEGIN CH20_DATA
Freq(Hz),S33(DB),S33(DEG),S34(DB),S34(DEG),S43(DB),S43(DEG),S44(DB),S44(DEG)
4000000000,-49.768009,123.63174,-0.66064411,-149.51326,-0.66484815,-149.55717,-40.861279,111.82062
4000312500,-53.128571,113.61299,-0.69552678,-151.38289,-0.64779735,-149.66243,-41.067783,114.41059
4000625000,-52.067142,114.49154,-0.68473482,-150.9669,-0.6543479,-149.7946,-40.769188,112.93317
4000937500,-50.488132,116.16678,-0.67421752,-150.54208,-0.65730727,-149.91371,-40.513107,111.57545
4001250000,-49.843616,116.2566,-0.66786748,-150.21109,-0.66175574,-150.02135,-40.249588,111.44985
4001562500,-49.613472,118.02854,-0.66519642,-150.10553,-0.6641252,-150.14868,-40.247272,111.93198
4001875000,-49.410427,118.82317,-0.66593039,-150.16136,-0.66343677,-150.28384,-40.322647,112.03541
4002187500,-49.562241,119.16795,-0.6648466,-150.32137,-0.6641627,-150.39647,-40.469555,112.45424
4002500000,-49.789436,119.31799,-0.66312742,-150.51607,-0.66142201,-150.55011,-40.334148,113.94057
4002812500,-49.918278,122.28699,-0.66451997,-150.68515,-0.66039515,-150.6571,-40.514027,112.87326
4003125000,-50.049644,120.3101,-0.66483051,-150.83061,-0.66166198,-150.79669,-40.479431,113.77632
4003437500,-49.915161,119.58814,-0.66515827,-150.9498,-0.66172141,-150.90211,-40.411442,113.01401
4003750000,-49.692581,120.37506,-0.6673035,-151.08305,-0.66176683,-151.03296,-40.367191,113.1366
4004062500,-50.087517,119.91036,-0.66810292,-151.2086,-0.66244549,-151.16692,-40.323341,111.47318
4004375000,-49.719261,119.7478,-0.66481334,-151.32756,-0.66264057,-151.28471,-40.363735,112.42917
4004687500,-49.823975,118.30142,-0.66657972,-151.47661,-0.66576827,-151.38655,-40.366318,112.40643
4005000000,-49.820732,120.90093,-0.66277468,-151.58344,-0.66640347,-151.53467,-40.367535,112.49097
4005312500,-49.481888,121.50009,-0.66643864,-151.69714,-0.66586435,-151.64954,-40.233059,111.87083
4005625000,-49.833473,122.8614,-0.66485399,-151.8302,-0.66826987,-151.76416,-40.268593,111.95494
4005937500,-49.900925,122.96219,-0.66383487,-151.95366,-0.66563386,-151.89291,-40.306248,112.67208
4006250000,-49.95504,118.89678,-0.66294384,-152.06761,-0.66749561,-152.01112,-40.319542,111.88057
4006562500,-50.38607,117.6015,-0.66355425,-152.19563,-0.66603702,-152.14194,-40.4617,112.36988
4006875000,-50.782349,117.08776,-0.66527402,-152.32315,-0.6640591,-152.26315,-40.284302,112.79286
4007187500,-50.533733,115.59998,-0.6654048,-152.45183,-0.66771913,-152.39221,-40.58292,111.37609
4007500000,-50.401917,116.17664,-0.66648108,-152.58607,-0.66715759,-152.52147,-40.384052,112.43505
4007812500,-49.897316,117.80145,-0.66625959,-152.68382,-0.66559756,-152.64159,-40.579998,111.29867
4008125000,-49.403885,116.62227,-0.66801316,-152.8183,-0.6641835,-152.76273,-40.594471,110.71439
4008437500,-48.765594,117.18246,-0.66710383,-152.94029,-0.66597015,-152.86775,-40.614697,110.39375
4008750000,-48.549938,115.6079,-0.66707116,-153.06802,-0.66707069,-153.02089,-40.664661,110.51851
4009062500,-48.001511,112.23055,-0.66887528,-153.17529,-0.66405177,-153.15161,-40.640804,110.92152
4009375000,-48.026188,107.65587,-0.66889542,-153.31535,-0.66582495,-153.27534,-40.594807,111.62214
4009687500,-48.018501,106.3968,-0.66939855,-153.42393,-0.66424143,-153.37633,-40.532631,112.00452
4010000000,-48.738674,103.07368,-0.67079395,-153.55502,-0.66383719,-153.50696,-40.533405,111.47166
4010312500,-48.255295,101.76833,-0.67107779,-153.69235,-0.66123313,-153.64212,-40.362232,113.42
4010625000,-48.276894,102.15346,-0.66510707,-153.79161,-0.66616243,-153.75229,-40.538651,113.00587
4010937500,-48.534,105.00922,-0.66866624,-153.9052,-0.66581458,-153.87543,-40.506416,112.28575
4011250000,-48.440891,104.15931,-0.66620046,-154.05067,-0.66514796,-154.01001,-40.539501,111.19659
4011562500,-48.520733,107.63996,-0.66418618,-154.17726,-0.66567099,-154.14427,-40.618282,111.23941
4011875000,-48.43499,107.90575,-0.66512352,-154.27881,-0.66415638,-154.25072,-40.33424,111.50967
4012187500,-48.69199,110.07919,-0.66354126,-154.4171,-0.66472107,-154.38922,-40.271236,110.84306
4012500000,-48.347908,111.61221,-0.66539508,-154.53644,-0.6672011,-154.50911,-40.24831,111.28236
4012812500,-48.08897,112.81083,-0.66600901,-154.67302,-0.66695523,-154.63483,-40.14666,111.00259
4013125000,-48.088894,113.81067,-0.66555482,-154.80881,-0.66548228,-154.74673,-40.09301,111.76594
4013437500,-48.0937,110.94386,-0.66645902,-154.94958,-0.66800427,-154.87297,-40.252308,111.55973
4013750000,-48.100441,107.43931,-0.66549766,-155.03326,-0.66424185,-155.00394,-40.187809,112.30964
4014062500,-48.317928,105.86893,-0.6653378,-155.15321,-0.66599762,-155.1178,-40.455257,113.01119
4014375000,-48.529205,103.18073,-0.66597277,-155.29599,-0.66705918,-155.25276,-40.746651,113.13058
4014687500,-48.410126,99.258568,-0.66457039,-155.41431,-0.66364115,-155.3851,-40.889862,113.62711
4015000000,-48.508198,98.948135,-0.66376734,-155.52779,-0.66405123,-155.50514,-40.637539,114.86466
4015312500,-48.554424,98.807121,-0.66539472,-155.65488,-0.66435087,-155.62219,-40.692238,114.37355
4015625000,-48.217453,100.2268,-0.66899312,-155.77988,-0.66683072,-155.72739,-40.598209,114.59752
4015937500,-48.000095,99.626587,-0.66761613,-155.90479,-0.66953653,-155.86555,-40.328506,114.53969
4016250000,-48.001442,103.92085,-0.66823339,-156.02086,-0.66632521,-155.98729,-40.299232,114.16502
4016562500,-48.611111,99.597466,-0.66714025,-156.15981,-0.66557002,-156.10324,-40.196918,114.64354
4016875000,-48.279743,97.724335,-0.66727597,-156.28313,-0.66578025,-156.23843,-40.303459,114.36217
4017187500,-48.593975,94.81163,-0.66389436,-156.39258,-0.66608548,-156.39313,-40.366898,114.0431
4017500000,-48.819443,91.51754,-0.66636974,-156.53754,-0.66387409,-156.50981,-40.343159,113.91949
4017812500,-48.653713,89.530296,-0.66820556,-156.6468,-0.6648702,-156.6279,-40.366104,114.40192
4018125000,-49.026344,92.8414,-0.66777313,-156.76587,-0.66723019,-156.75731,-40.125359,114.39247
4018437500,-48.848797,94.657028,-0.66512185,-156.88936,-0.66616076,-156.86703,-39.988266,113.79958
4018750000,-49.093311,99.326836,-0.66526592,-157.00606,-0.6693967,-156.9814,-39.932125,113.49298
4019062500,-48.633759,99.067635,-0.66472715,-157.13318,-0.66639769,-157.11896,-39.941109,113.35295
4019375000,-48.550297,99.00843,-0.66597497,-157.24141,-0.6680342,-157.24811,-39.897415,112.88597
4019687500,-48.600098,99.137245,-0.66472405,-157.38338,-0.67034763,-157.36336,-40.038982,112.81551
4020000000,-48.357231,99.400879,-0.66591501,-157.51111,-0.66742992,-157.49405,-40.140488,113.21722
4020312500,-47.831646,99.762054,-0.66403389,-157.65021,-0.66935438,-157.60857,-40.267982,112.57153
4020625000,-47.627354,98.707901,-0.66351813,-157.77184,-0.66663712,-157.73363,-40.44619,113.35453
4020937500,-47.485325,97.344719,-0.66465592,-157.87978,-0.66783422,-157.8783,-40.353207,113.65691
4021250000,-47.168438,96.846748,-0.66678196,-158.01476,-0.66532224,-157.98038,-40.142284,114.61161
4021562500,-47.100426,97.243675,-0.66570818,-158.1492,-0.66714257,-158.09836,-40.073029,114.79147
4021875000,-47.116165,97.253143,-0.66790241,-158.24951,-0.66604316,-158.22513,-39.90617,114.82848
4022187500,-47.415691,96.941971,-0.66799742,-158.39235,-0.66492957,-158.34634,-39.910179,114.87783
4022500000,-47.669559,96.275642,-0.66949779,-158.50345,-0.66308606,-158.45866,-39.811646,114.30967
4022812500,-47.98468,94.072876,-0.66742384,-158.63165,-0.66319895,-158.59581,-40.053028,114.32766
4023125000,-48.157902,93.539719,-0.66789931,-158.76169,-0.66327095,-158.72714,-40.144749,114.54328
4023437500,-48.683132,93.3908,-0.66594952,-158.87433,-0.66364199,-158.85596,-40.062004,114.58624
4023750000,-49.158344,92.554947,-0.66912246,-159.00177,-0.66240394,-158.9901,-40.096638,114.46326
4024062500,-49.142017,92.61219,-0.67030609,-159.12125,-0.6660794,-159.10402,-40.029339,115.15568
4024375000,-49.315907,89.988754,-0.66862303,-159.24791,-0.66528791,-159.21266,-40.188419,115.61674
4024687500,-49.309856,88.772812,-0.66855127,-159.38673,-0.6694271,-159.34413,-40.030884,115.67244
4025000000,-49.216156,89.56356,-0.66729534,-159.51579,-0.66683686,-159.4603,-40.028271,116.71895
4025312500,-48.854248,88.442497,-0.6658563,-159.64922,-0.66807324,-159.59006,-40.070885,116.79901
4025625000,-49.051506,90.633064,-0.66771728,-159.76114,-0.66437209,-159.7211,-39.928638,115.49309
4025937500,-48.561745,91.750122,-0.66790408,-159.87805,-0.66559279,-159.84264,-39.920158,114.04173
4026250000,-48.44574,89.759407,-0.66729051,-160.00362,-0.66442406,-159.95203,-40.064831,113.86521
4026562500,-48.39801,92.113472,-0.66508389,-160.11183,-0.66303378,-160.07982,-40.059322,111.5993
4026875000,-48.023506,93.189919,-0.66652584,-160.22546,-0.66698062,-160.20422,-39.997967,111.8274
4027187500,-48.219826,92.659744,-0.66724229,-160.37221,-0.66752422,-160.3399,-39.841507,111.99595
4027500000,-48.212288,93.663078,-0.66270155,-160.49352,-0.66621029,-160.48615,-40.031315,112.30331
4027812500,-48.070717,92.941986,-0.6659171,-160.62022,-0.66595089,-160.6019,-39.862537,112.70401
4028125000,-48.146961,94.269966,-0.66513664,-160.70964,-0.67073584,-160.71426,-39.830246,112.31618
4028437500,-47.811951,93.94384,-0.66633332,-160.84286,-0.66947335,-160.85005,-39.806984,112.81898
4028750000,-47.522087,91.949501,-0.66764134,-160.97539,-0.66728932,-160.95743,-39.644466,114.381
4029062500,-47.635525,94.292152,-0.6728574,-161.07979,-0.66715693,-161.0616,-39.799274,115.33118
4029375000,-47.40387,88.760963,-0.67176962,-161.23163,-0.66822916,-161.21907,-39.657349,116.93731
4029687500,-47.196442,89.097786,-0.67307669,-161.34964,-0.66602075,-161.33516,-39.604427,117.23278
4030000000,-46.878326,91.080322,-0.66953331,-161.46066,-0.66638905,-161.44833,-39.807365,118.05956
4030312500,-46.958302,88.04303,-0.66545641,-161.60439,-0.66895032,-161.56448,-39.767437,116.07008
4030625000,-47.186596,87.783188,-0.66918314,-161.74239,-0.66828489,-161.67223,-39.709175,116.05337
4030937500,-47.295589,86.727242,-0.66535592,-161.86035,-0.66721284,-161.81281,-39.737129,115.08399
4031250000,-47.464012,86.270393,-0.66220385,-161.97743,-0.66879284,-161.96153,-39.750828,114.57513
4031562500,-47.287697,83.780846,-0.66764003,-162.12369,-0.66699463,-162.08308,-39.59668,114.9721
4031875000,-47.313797,83.868332,-0.66898888,-162.23354,-0.66738629,-162.20905,-39.675896,114.81287
4032187500,-47.156345,83.229141,-0.67006838,-162.35275,-0.66526473,-162.33824,-39.610588,115.20875
4032500000,-47.225384,83.133965,-0.66999137,-162.45441,-0.66367811,-162.46104,-39.600048,115.57434
4032812500,-47.076126,82.211914,-0.66832978,-162.57463,-0.66774958,-162.58705,-39.668358,116.18268
4033125000,-46.795021,84.540077,-0.66722614,-162.70392,-0.67038959,-162.68401,-39.477127,115.47649
4033437500,-46.293251,86.961105,-0.66586804,-162.83885,-0.66895223,-162.82086,-39.426044,115.94878
4033750000,-46.312714,89.236427,-0.66894436,-162.95372,-0.66907805,-162.91119,-39.478516,116.96068
4034062500,-46.065342,88.700493,-0.66907775,-163.10303,-0.67096984,-163.03877,-39.452652,116.45502
4034375000,-45.908352,87.222969,-0.67014104,-163.1931,-0.66877019,-163.16829,-39.521183,116.82181
4034687500,-46.137009,85.600914,-0.66928089,-163.33067,-0.66793782,-163.29987,-39.710281,117.4203
4035000000,-46.149235,83.156563,-0.66631347,-163.43559,-0.66783708,-163.45573,-39.599976,116.77094
4035312500,-46.396,78.459755,-0.66967654,-163.57736,-0.66658026,-163.58801,-39.849113,116.04706
4035625000,-46.081955,77.314407,-0.66753304,-163.70869,-0.66388047,-163.70021,-39.717674,115.32571
4035937500,-46.16708,78.87056,-0.66970986,-163.81969,-0.66561443,-163.83429,-40.075035,115.20163
4036250000,-46.323906,80.641884,-0.66980994,-163.9276,-0.66517895,-163.93352,-40.080456,113.97618
4036562500,-46.242496,80.699593,-0.66980141,-164.08305,-0.66733694,-164.0549,-40.147472,114.28802
4036875000,-46.303104,82.529564,-0.67119712,-164.22105,-0.66814005,-164.16669,-40.119888,114.62116
4037187500,-46.188717,83.357391,-0.66935289,-164.31657,-0.66688544,-164.28772,-40.167355,114.97363
4037500000,-46.303658,83.413063,-0.67142439,-164.46054,-0.66614008,-164.41919,-40.136925,115.55555
4037812500,-45.854836,82.730339,-0.66695845,-164.57683,-0.66772163,-164.54269,-39.992138,116.05564
4038125000,-46.019585,84.39212,-0.66834843,-164.71725,-0.66830903,-164.69122,-40.02927,115.10384
4038437500,-45.821529,82.594543,-0.66685116,-164.83853,-0.66842496,-164.78703,-39.919662,116.31187
4038750000,-45.847126,81.197464,-0.66526133,-164.9491,-0.66943419,-164.93007,-39.759232,116.42136
4039062500,-45.902576,82.266991,-0.66736382,-165.08757,-0.66717738,-165.04326,-39.614693,115.97038
4039375000,-46.101639,80.694611,-0.67048138,-165.21965,-0.66917241,-165.1767,-39.548214,115.86382
4039687500,-46.147209,80.479179,-0.66741997,-165.34024,-0.66754168,-165.30093,-39.552147,116.32056
4040000000,-45.887726,80.628815,-0.66988283,-165.47464,-0.6694535,-165.40656,-39.476276,116.04704
4040312500,-45.710384,79.54055,-0.67165142,-165.5909,-0.67163998,-165.51994,-39.706123,115.68979
4040625000,-45.359421,79.78009,-0.67145616,-165.71616,-0.66952544,-165.65948,-39.798485,114.86591
4040937500,-45.365116,78.666153,-0.66902339,-165.83043,-0.66968292,-165.78871,-39.862179,114.409
4041250000,-45.101284,77.441116,-0.67044169,-165.95335,-0.6685133,-165.90556,-39.815094,113.49083
4041562500,-45.243389,76.650078,-0.67428535,-166.07376,-0.66841495,-166.04456,-39.994705,114.25645
4041875000,-45.460945,76.552811,-0.67076212,-166.19817,-0.66434586,-166.17293,-39.779545,114.04433
4042187500,-45.730141,75.964836,-0.66834044,-166.31583,-0.66640162,-166.28667,-39.670902,114.68116
4042500000,-46.25388,72.047905,-0.66592431,-166.4512,-0.66645223,-166.42757,-39.486313,116.10001
4042812500,-46.414425,71.190277,-0.66907066,-166.58614,-0.66471618,-166.54865,-39.52951,116.50422
4043125000,-46.500145,70.238716,-0.67150247,-166.70554,-0.667476,-166.67117,-39.413109,116.58573
4043437500,-46.232704,68.87896,-0.67050582,-166.83215,-0.6694271,-166.80118,-39.531956,116.91011
4043750000,-46.300426,70.198761,-0.67059076,-166.94855,-0.67019278,-166.92589,-39.629326,116.13828
4044062500,-46.107246,71.274986,-0.66800284,-167.07332,-0.66777319,-167.0361,-39.681107,114.79999
4044375000,-45.612782,72.385277,-0.66863197,-167.18985,-0.67184049,-167.15526,-39.687313,115.03309
4044687500,-45.828232,71.728249,-0.66800392,-167.32884,-0.67146331,-167.28789,-39.683723,115.26448
4045000000,-45.572021,72.697571,-0.66866803,-167.43886,-0.66828191,-167.41693,-39.86227,115.70757
4045312500,-45.458935,70.050186,-0.66679829,-167.58011,-0.66800636,-167.52827,-39.690052,116.04358
4045625000,-45.265961,70.623459,-0.66785258,-167.68839,-0.67037833,-167.65295,-39.675514,116.21973
4045937500,-45.463776,69.460106,-0.669958,-167.81664,-0.66785234,-167.78143,-39.880825,116.85854
4046250000,-45.394047,70.632507,-0.66872334,-167.93932,-0.66733402,-167.89864,-39.713154,116.90083
4046562500,-45.326302,70.130959,-0.66875333,-168.06326,-0.66826862,-168.01674,-39.727936,118.50612
4046875000,-45.257919,71.222321,-0.66831315,-168.20595,-0.66885751,-168.14883,-39.749012,117.90112
4047187500,-45.123383,70.713539,-0.66767949,-168.29536,-0.66848743,-168.25996,-39.735954,118.66628
4047500000,-45.31287,70.201775,-0.66750669,-168.42036,-0.66845077,-168.39464,-39.542187,118.26444
4047812500,-45.295998,69.326874,-0.6685397,-168.52022,-0.66890091,-168.51523,-39.533417,117.61348
4048125000,-45.417442,68.681091,-0.66889697,-168.67795,-0.67010146,-168.64856,-39.495522,117.38544
4048437500,-45.420624,67.878052,-0.67120588,-168.78802,-0.66956127,-168.7718,-39.649242,117.65049
4048750000,-45.726196,65.726242,-0.67115021,-168.92459,-0.67094618,-168.88953,-39.517162,116.46167
4049062500,-45.685867,66.985489,-0.66825426,-169.03819,-0.66950768,-169.02705,-39.609322,116.1505
4049375000,-45.715786,67.302628,-0.66856879,-169.17358,-0.66947633,-169.13669,-39.661041,117.53165
4049687500,-45.484592,69.130203,-0.67182034,-169.31332,-0.67191368,-169.26062,-39.892265,116.47933
4050000000,-44.96838,72.496536,-0.67117751,-169.42543,-0.67257595,-169.37799,-39.921795,116.65258
4050312500,-45.080105,73.762733,-0.67196459,-169.54141,-0.67250222,-169.505,-39.79372,115.62102
4050625000,-45.165295,70.183128,-0.66651922,-169.68123,-0.67304122,-169.63019,-39.771656,114.20315
4050937500,-45.223885,67.649033,-0.66915619,-169.81064,-0.67110139,-169.75087,-39.813198,113.36222
4051250000,-45.147038,65.644691,-0.66699767,-169.91125,-0.66942942,-169.87851,-39.571033,112.49442
4051562500,-45.46743,61.685654,-0.66706681,-170.03668,-0.66953516,-169.9989,-39.551968,111.2025
4051875000,-45.466064,63.607361,-0.66689569,-170.17374,-0.669213,-170.12846,-39.720219,112.59929
4052187500,-45.49099,59.872826,-0.66685432,-170.30156,-0.67071712,-170.25555,-39.488873,113.45998
4052500000,-45.669296,61.691521,-0.67048442,-170.43172,-0.66989529,-170.37573,-39.376339,115.08292
4052812500,-45.348034,59.707642,-0.66992116,-170.53683,-0.66876137,-170.5166,-39.252121,117.2602
4053125000,-45.511372,60.791798,-0.67084801,-170.70135,-0.66954952,-170.65445,-39.10392,117.08595
4053437500,-45.425194,59.829643,-0.67090857,-170.81213,-0.66818321,-170.7606,-38.991558,118.06781
4053750000,-45.190399,60.605656,-0.67089003,-170.92662,-0.66811287,-170.88173,-38.913799,116.11248
4054062500,-45.168732,60.477943,-0.67023599,-171.03949,-0.66782904,-171.00795,-39.050159,116.346
4054375000,-45.091404,59.769539,-0.66902453,-171.17442,-0.66903633,-171.12212,-39.095547,115.94662
4054687500,-44.78566,61.729343,-0.67041391,-171.27974,-0.66884768,-171.25285,-39.24305,117.23755
4055000000,-44.884537,62.356342,-0.66927093,-171.40228,-0.67101598,-171.38963,-39.255424,117.37789
4055312500,-44.769302,62.391735,-0.6703611,-171.54236,-0.66970801,-171.49359,-39.292007,117.30814
4055625000,-44.967117,61.859684,-0.67104143,-171.65059,-0.6673466,-171.62666,-39.308838,117.81606
4055937500,-45.105637,61.736073,-0.67302006,-171.79265,-0.6659348,-171.75475,-39.362717,117.75952
4056250000,-45.10199,62.171967,-0.67424786,-171.90707,-0.66761142,-171.88091,-39.39378,118.67892
4056562500,-44.894699,62.201946,-0.67312723,-172.03743,-0.66961896,-171.99287,-39.301315,117.28085
4056875000,-44.838131,59.863083,-0.67233634,-172.14372,-0.66980726,-172.13684,-39.538158,117.03728
4057187500,-44.86779,61.405022,-0.67231983,-172.26959,-0.67217743,-172.25052,-39.392914,116.94639
4057500000,-44.698605,59.293625,-0.67282665,-172.38899,-0.67159837,-172.39273,-39.306076,115.947
4057812500,-44.555752,58.803982,-0.67328078,-172.51308,-0.67306471,-172.49538,-39.334873,115.46939
4058125000,-44.468521,57.232071,-0.66889447,-172.64056,-0.67152768,-172.62059,-39.334839,115.53321
4058437500,-44.538044,57.500713,-0.67072958,-172.76903,-0.6707952,-172.76303,-39.299767,114.48655
4058750000,-44.376968,57.330738,-0.67224592,-172.88757,-0.66683507,-172.8645,-39.061371,115.12248
4059062500,-44.464268,55.707787,-0.66887438,-173.01585,-0.66940588,-172.99493,-39.010498,114.10654
4059375000,-44.333656,55.07457,-0.66940159,-173.13745,-0.66675407,-173.12323,-39.036366,114.00018
4059687500,-44.047501,54.81443,-0.67009509,-173.26846,-0.66704392,-173.2422,-39.029198,114.48499
4060000000,-43.928638,55.44585,-0.67196697,-173.38989,-0.67155969,-173.36292,-38.998806,114.32436
4060312500,-43.997131,55.674149,-0.67104727,-173.5229,-0.66841644,-173.48819,-38.951134,115.39844
4060625000,-44.060516,57.552929,-0.67368597,-173.65358,-0.67002487,-173.63518,-38.970852,115.45005
4060937500,-43.934647,55.535538,-0.6726948,-173.7583,-0.66712177,-173.75633,-38.967564,115.92851
4061250000,-44.180992,52.832653,-0.67251557,-173.88161,-0.66872382,-173.86279,-38.931152,115.90935
4061562500,-44.295879,52.361172,-0.67281693,-174.02812,-0.66720635,-173.99692,-38.929901,115.47157
4061875000,-44.648056,52.542397,-0.67307329,-174.13998,-0.66680479,-174.11717,-38.938358,115.64811
