!CSV A.01.01
!Agilent Technologies,N5222A,MY51421451,A.09.90.02
!Agilent N5222A: A.09.90.02
!Date: Sunday, March 23, 2014 16:05:19
!Source: Standard

BEGIN CH1_DATA
Freq(Hz),S11(DB),S11(DEG),S12(DB),S12(DEG),S21(DB),S21(DEG),S22(DB),S22(DEG)
1000000000,-44.982079,-55.003437,-96.088707,74.668236,-29.660233,162.69043,-10.286845,0.78477204
1001093750,-45.695187,-52.718727,-105.93376,123.87095,-29.638298,159.84511,-10.295738,-1.8793635
1002187500,-46.302467,-52.201702,-89.168343,134.64003,-29.641268,157.00899,-10.300841,-4.5048542
1003281250,-46.946884,-53.347134,-91.103691,-19.010345,-29.641464,154.20277,-10.305315,-7.105309
1004375000,-47.420895,-56.237591,-89.029564,16.211329,-29.631124,151.32202,-10.307302,-9.6788282
1005468750,-47.87326,-60.835873,-90.526581,-58.119228,-29.620106,148.53352,-10.314198,-12.210783
1006562500,-47.684277,-66.121628,-89.93045,70.888824,-29.603188,145.7529,-10.326932,-14.692526
1007656250,-47.270542,-71.759468,-97.664864,86.817291,-29.606022,142.88242,-10.337762,-17.16044
1008750000,-46.448189,-76.01622,-84.296524,37.46151,-29.598377,140.10712,-10.36033,-19.625055
1009843750,-45.442463,-78.541771,-109.89172,-7.8348103,-29.593239,137.28575,-10.384215,-22.074749
1010937500,-44.435543,-79.764969,-94.449203,-154.70126,-29.595509,134.40614,-10.419163,-24.552059
1012031250,-43.283321,-79.118614,-96.975807,-146.83568,-29.579082,131.56894,-10.459079,-27.03854
1013125000,-42.206573,-76.803055,-102.49291,-58.932545,-29.573854,128.74803,-10.504588,-29.557056
1014218750,-41.243973,-74.355537,-93.319366,-175.72093,-29.571114,125.90717,-10.554353,-32.13065
1015312500,-40.372646,-70.851631,-87.45269,143.88916,-29.563833,123.05117,-10.608927,-34.752003
1016406250,-39.53051,-66.888466,-109.34312,175.10632,-29.551243,120.24749,-10.666208,-37.455238
1017500000,-38.744862,-62.506062,-97.028839,152.42932,-29.54467,117.40253,-10.723965,-40.215588
1018593750,-38.059826,-57.74464,-93.353989,-152.93295,-29.536436,114.55288,-10.779521,-43.07193
1019687500,-37.432171,-52.674656,-107.51588,-157.2664,-29.524817,111.70143,-10.832671,-45.980335
1020781250,-36.879566,-47.422081,-112.52968,18.600492,-29.511047,108.86772,-10.876895,-48.955769
1021875000,-36.377563,-41.813324,-94.72271,-114.30556,-29.50123,106.00583,-10.911075,-51.989876
1022968750,-35.928928,-36.192554,-98.042046,-92.683258,-29.50074,103.20979,-10.934052,-55.048428
1024062500,-35.520859,-30.514406,-101.27013,91.878738,-29.488474,100.29706,-10.947806,-58.138378
1025156250,-35.220844,-24.600239,-94.895813,33.580788,-29.488344,97.369179,-10.948298,-61.223351
1026250000,-34.929688,-18.71454,-94.647057,27.302126,-29.482018,94.560257,-10.936131,-64.27417
1027343750,-34.708023,-13.117051,-92.072754,15.347327,-29.483505,91.683327,-10.911148,-67.287895
1028437500,-34.472748,-6.7350349,-88.602806,-39.497078,-29.473097,88.841339,-10.877599,-70.233261
1029531250,-34.352779,-0.79114211,-96.959351,-10.819729,-29.477272,85.961594,-10.835021,-73.121414
1030625000,-34.244675,5.3410797,-92.369286,164.40956,-29.471825,83.170235,-10.787883,-75.896469
1031718750,-34.198902,11.618055,-93.511627,-93.214684,-29.473713,80.315536,-10.737761,-78.589752
1032812500,-34.192066,17.944277,-87.625771,29.248075,-29.479055,77.383965,-10.684401,-81.178574
1033906250,-34.236164,23.982265,-103.16366,69.771477,-29.489567,74.59256,-10.635738,-83.680283
1035000000,-34.318417,30.203369,-100.02497,120.49133,-29.491423,71.793907,-10.593745,-86.095779
1036093750,-34.451862,36.53001,-95.80481,54.839554,-29.472477,68.959862,-10.558144,-88.418297
1037187500,-34.616074,42.818726,-100.83743,95.036636,-29.468979,66.141273,-10.529881,-90.681877
1038281250,-34.853886,49.160671,-92.710007,177.28362,-29.470438,63.328304,-10.513215,-92.88781
1039375000,-35.141476,55.650887,-95.737488,152.57384,-29.465097,60.517376,-10.5063,-95.068031
1040468750,-35.486568,61.684757,-93.532158,-67.326698,-29.464794,57.731552,-10.511252,-97.22657
1041562500,-35.86042,68.089844,-96.672058,-104.09427,-29.461178,54.921654,-10.527874,-99.378464
1042656250,-36.313442,74.351845,-96.313713,32.218616,-29.439474,52.094944,-10.554648,-101.54765
1043750000,-36.803455,80.602768,-100.19416,58.835781,-29.433868,49.255249,-10.593503,-103.74772
1044843750,-37.385628,86.911423,-94.194382,-52.610107,-29.425325,46.440983,-10.641412,-105.96992
1045937500,-38.019596,92.931602,-98.630798,-90.290977,-29.423677,43.628387,-10.69692,-108.27197
1047031250,-38.73204,99.139862,-105.14336,100.97136,-29.410406,40.77425,-10.761201,-110.61878
1048125000,-39.548519,105.40106,-95.581192,93.201508,-29.409801,38.008133,-10.826589,-113.04225
1049218750,-40.421364,111.28002,-93.124474,66.62072,-29.391321,35.129158,-10.899935,-115.51721
1050312500,-41.396065,117.13757,-97.023911,-37.156105,-29.396807,32.291904,-10.968985,-118.06164
1051406250,-42.580826,122.72591,-90.513153,-116.48058,-29.388111,29.508476,-11.040113,-120.67745
1052500000,-43.747597,127.85555,-97.146423,-115.64011,-29.384943,26.655634,-11.108587,-123.37157
1053593750,-45.183598,132.21205,-94.026436,-129.58762,-29.37204,23.808998,-11.173068,-126.09657
1054687500,-46.789627,136.76237,-103.96078,54.821308,-29.365589,20.884972,-11.234771,-128.87378
1055781250,-48.723309,140.37512,-104.83887,-29.554325,-29.36129,18.035322,-11.28608,-131.68095
1056875000,-50.874786,142.53876,-88.136932,-76.446716,-29.351501,15.225622,-11.335292,-134.51086
1057968750,-53.440624,139.01016,-95.180069,-47.726479,-29.351982,12.40607,-11.379827,-137.3488
1059062500,-55.870174,131.14674,-98.29406,-156.774,-29.337259,9.5692463,-11.416656,-140.18254
1060156250,-58.208736,113.27534,-89.287964,-104.82363,-29.332512,6.6726456,-11.45006,-143.00148
1061250000,-58.523624,88.92514,-99.828957,-74.923561,-29.318916,3.8109996,-11.480703,-145.81589
1062343750,-56.917347,74.578659,-87.927422,99.045006,-29.318176,0.96237326,-11.508717,-148.61124
1063437500,-55.219936,70.510818,-92.257278,129.705,-29.318853,-1.8847733,-11.53695,-151.38657
1064531250,-53.671719,67.881409,-92.774475,23.985006,-29.304815,-4.7300248,-11.565293,-154.1382
1065625000,-52.627453,69.902214,-90.148483,102.85542,-29.306404,-7.6265836,-11.592264,-156.89153
1066718750,-51.80228,74.190697,-97.834908,-65.461517,-29.291931,-10.419572,-11.621492,-159.62476
1067812500,-51.192448,79.44735,-94.58387,-159.00644,-29.294294,-13.32842,-11.651917,-162.35733
1068906250,-50.828163,85.938606,-97.664482,56.098469,-29.289894,-16.134312,-11.684614,-165.06805
1070000000,-50.743752,91.790009,-102.26556,93.64373,-29.286312,-18.968613,-11.719824,-167.81371
1071093750,-50.698879,99.407913,-105.80635,-125.65204,-29.281374,-21.791088,-11.756225,-170.56441
1072187500,-50.86274,105.75583,-100.17055,-130.68303,-29.281921,-24.708548,-11.79186,-173.3351
1073281250,-51.145912,114.35614,-102.62624,-159.608,-29.282463,-27.568993,-11.828396,-176.1106
1074375000,-51.76466,121.64271,-86.570091,27.688417,-29.267673,-30.405005,-11.86617,-178.8965
1075468750,-52.324905,130.29631,-89.08316,-3.4908183,-29.268635,-33.285843,-11.903691,178.282
1076562500,-53.023319,139.84341,-89.755028,106.3736,-29.262367,-36.157646,-11.940251,175.45592
1077656250,-53.854111,149.63214,-107.09802,-110.33372,-29.255383,-38.943802,-11.975222,172.63039
1078750000,-55.213295,158.76192,-102.385,-113.34081,-29.262438,-41.841152,-12.009048,169.7739
1079843750,-56.55022,167.88055,-100.72179,149.60651,-29.249353,-44.659874,-12.040138,166.90775
1080937500,-57.928791,177.68826,-93.803162,-99.538841,-29.249786,-47.539223,-12.072758,164.05902
1082031250,-60.244991,-173.47789,-85.897163,-103.55692,-29.240005,-50.366398,-12.097897,161.20238
1083125000,-62.666519,-161.14635,-90.92569,-171.59344,-29.233061,-53.197067,-12.127762,158.33157
1084218750,-67.087311,-145.2412,-91.861443,54.330212,-29.230072,-56.09676,-12.156583,155.47314
1085312500,-75.501083,-126.76864,-98.660767,-166.02811,-29.228157,-58.958889,-12.186174,152.60509
1086406250,-76.182144,49.737545,-96.027222,100.48438,-29.214775,-61.863544,-12.212281,149.72278
1087500000,-67.113533,61.067829,-91.089226,103.27359,-29.211229,-64.697975,-12.240741,146.85043
1088593750,-62.621693,71.947395,-104.25732,-143.26385,-29.211979,-67.539497,-12.268365,143.95311
1089687500,-59.3797,85.400154,-91.211617,-88.32756,-29.20282,-70.407364,-12.295034,141.02356
1090781250,-56.760582,94.921005,-97.548164,4.6406064,-29.202404,-73.255669,-12.32335,138.0889
1091875000,-54.866329,108.00581,-87.770744,61.745594,-29.207466,-76.046661,-12.353215,135.12254
1092968750,-52.967884,118.10385,-98.1063,75.040947,-29.211767,-78.934624,-12.374358,132.12427
1094062500,-51.286877,128.56029,-96.920311,-103.81425,-29.204191,-81.737862,-12.397268,129.11673
1095156250,-49.665234,138.17572,-89.709351,154.50938,-29.206526,-84.707253,-12.412485,126.06449
1096250000,-48.403446,147.45215,-98.383492,71.571732,-29.208557,-87.4842,-12.423368,123.00487
1097343750,-47.182697,157.31656,-91.993645,98.988983,-29.194719,-90.364693,-12.427268,119.92759
1098437500,-46.002983,167.38168,-92.091179,-3.5558639,-29.200237,-93.256882,-12.425314,116.83547
1099531250,-44.887341,175.50061,-86.974785,37.429295,-29.205708,-96.127708,-12.411771,113.75667
1100625000,-43.951847,-175.41876,-100.77639,50.125141,-29.19269,-98.999321,-12.391835,110.71165
1101718750,-43.028637,-166.90784,-87.337128,19.525259,-29.199492,-101.77761,-12.363391,107.69231
1102812500,-42.208984,-158.52924,-91.497734,-40.286774,-29.196238,-104.65934,-12.329365,104.71301
1103906250,-41.420898,-150.57111,-93.28183,136.9366,-29.197245,-107.52869,-12.290142,101.80168
1105000000,-40.713314,-142.77501,-90.849373,-174.13075,-29.170473,-110.3317,-12.246115,98.971695
1106093750,-40.063175,-134.76317,-98.709175,-171.04503,-29.188442,-113.19528,-12.203154,96.1651
1107187500,-39.523613,-127.37963,-89.672768,106.47644,-29.185186,-116.0286,-12.153848,93.472778
1108281250,-38.953205,-119.588,-90.016762,3.3630984,-29.191328,-118.90807,-12.109507,90.838684
1109375000,-38.516014,-112.1906,-96.832573,-106.45033,-29.193546,-121.71315,-12.06972,88.252281
1110468750,-38.100094,-104.80774,-97.967049,-178.65785,-29.182068,-124.56941,-12.036723,85.761024
1111562500,-37.679714,-97.392792,-91.294571,-135.21303,-29.20006,-127.35492,-12.010125,83.303955
1112656250,-37.347801,-90.494377,-105.12946,57.53323,-29.195021,-130.19214,-11.991304,80.877907
1113750000,-37.059807,-83.353508,-95.763344,-119.11435,-29.197533,-133.02896,-11.982644,78.500412
1114843750,-36.837307,-76.166779,-93.302826,-177.23753,-29.192703,-135.91335,-11.984776,76.131355
1115937500,-36.645287,-69.350067,-90.584518,155.52402,-29.197855,-138.70111,-11.997697,73.752922
1117031250,-36.534267,-62.367393,-93.783005,146.45956,-29.189171,-141.58089,-12.019102,71.352287
1118125000,-36.419662,-55.493713,-99.659843,-84.800133,-29.187021,-144.35168,-12.053886,68.913544
1119218750,-36.354622,-48.577232,-94.108894,71.155693,-29.189161,-147.20659,-12.094698,66.453537
1120312500,-36.316193,-41.870823,-100.33221,24.452192,-29.182295,-150.03517,-12.142912,63.904724
1121406250,-36.361694,-35.255665,-90.550354,115.34245,-29.169113,-152.80054,-12.198751,61.293087
1122500000,-36.489662,-28.432209,-91.863945,63.762154,-29.16597,-155.70302,-12.25851,58.6078
1123593750,-36.572735,-21.581982,-109.38119,-12.1057,-29.156296,-158.54877,-12.317735,55.822968
1124687500,-36.743763,-14.88552,-90.579193,48.057117,-29.154119,-161.38681,-12.37649,52.95052
1125781250,-36.99715,-8.3415051,-94.900444,116.69713,-29.15835,-164.21474,-12.432061,50.005917
1126875000,-37.281895,-1.6815156,-91.344849,-116.18257,-29.144308,-167.17874,-12.478488,46.970673
1127968750,-37.558685,4.9549432,-103.20229,-121.17223,-29.13339,-169.88693,-12.518619,43.859764
1129062500,-37.957977,11.75521,-88.226967,147.83739,-29.139013,-172.79317,-12.546789,40.705048
1130156250,-38.381561,18.646101,-92.772797,134.99185,-29.13306,-175.67419,-12.563137,37.502186
1131250000,-38.820873,25.430347,-88.454926,44.213268,-29.131557,-178.52014,-12.565228,34.290981
1132343750,-39.323593,32.151993,-89.83696,-9.6082573,-29.126543,178.61887,-12.552577,31.071791
1133437500,-39.923935,39.365589,-91.381805,124.029,-29.133629,175.78075,-12.526223,27.857571
1134531250,-40.529053,46.799431,-92.561302,-58.844524,-29.137547,172.93652,-12.48704,24.698008
1135625000,-41.282993,54.082615,-101.61999,-87.675636,-29.130095,170.07228,-12.438543,21.589617
1136718750,-42.011082,62.03236,-93.925507,76.767296,-29.148783,167.16437,-12.378369,18.549532
1137812500,-42.76532,70.005608,-85.030785,13.928033,-29.151596,164.38544,-12.309111,15.603436
1138906250,-43.778648,79.438164,-104.75127,-99.950066,-29.147055,161.4743,-12.239662,12.727217
1140000000,-44.633717,88.548004,-90.801003,7.2229815,-29.145523,158.66507,-12.166052,9.960166
1141093750,-45.378613,98.961609,-92.522438,-45.015739,-29.150755,155.80479,-12.092824,7.2790122
1142187500,-46.37664,110.4481,-101.14354,-157.20207,-29.15519,152.98178,-12.021936,4.671032
1143281250,-47.09005,122.35297,-100.1595,-171.21066,-29.152441,150.15311,-11.953391,2.1571014
1144375000,-47.780415,136.38942,-92.303459,-73.09584,-29.158449,147.31514,-11.891609,-0.30161381
1145468750,-48.122696,151.11906,-94.591019,91.899368,-29.16062,144.52344,-11.837022,-2.6767859
1146562500,-48.375393,166.18355,-89.535355,119.09923,-29.159557,141.69275,-11.791211,-5.0042801
1147656250,-48.059849,-179.93474,-94.457329,152.40572,-29.148546,138.90988,-11.753922,-7.3022842
1148750000,-47.769806,-167.44106,-88.008537,-140.34564,-29.157059,136.01595,-11.728799,-9.5748577
1149843750,-47.243584,-155.4574,-92.380234,78.6745,-29.150307,133.24811,-11.709886,-11.83538
1150937500,-46.534199,-145.58728,-90.189873,45.762684,-29.146992,130.4398,-11.701806,-14.087928
1152031250,-46.001472,-136.05428,-89.235466,-61.574429,-29.14996,127.56998,-11.702088,-16.351492
1153125000,-45.330467,-127.64417,-96.39045,106.52948,-29.154791,124.78274,-11.711242,-18.641178
1154218750,-44.684715,-120.55156,-93.729225,-131.20613,-29.145393,121.98817,-11.728794,-20.976255
1155312500,-44.137222,-113.66299,-94.541954,-176.68526,-29.154213,119.20046,-11.754175,-23.350534
1156406250,-43.633984,-107.06654,-92.803299,-116.94082,-29.138344,116.27036,-11.779962,-25.775181
1157500000,-43.204613,-101.14095,-92.135315,-179.1443,-29.13846,113.53838,-11.80832,-28.258492
1158593750,-42.672726,-95.493393,-101.55847,55.302574,-29.141384,110.63036,-11.842229,-30.819693
1159687500,-42.285355,-89.533936,-105.99699,-149.0715,-29.134054,107.82746,-11.876223,-33.408752
1160781250,-41.91489,-84.806534,-89.601624,144.27432,-29.127605,104.95792,-11.906832,-36.070091
1161875000,-41.641537,-79.757782,-88.483551,-22.652935,-29.124393,102.16072,-11.935004,-38.790676
1162968750,-41.369411,-74.435356,-91.017883,-19.004271,-29.130013,99.348366,-11.956288,-41.544548
1164062500,-41.176521,-69.482452,-95.645737,86.449135,-29.116434,96.457253,-11.971855,-44.341072
1165156250,-40.939293,-64.757019,-95.296577,-126.19772,-29.104271,93.639038,-11.981915,-47.164921
1166250000,-40.874165,-59.624279,-101.04009,-30.768616,-29.104912,90.809364,-11.980064,-49.99052
1167343750,-40.791264,-54.98616,-92.929665,-42.182175,-29.104185,87.964378,-11.9708,-52.821327
1168437500,-40.837048,-50.16003,-92.667313,-140.43806,-29.103302,85.067162,-11.956873,-55.63168
1169531250,-40.868137,-45.012894,-97.269714,-147.57498,-29.101812,82.277679,-11.931086,-58.424408
1170625000,-41.000511,-40.306675,-94.727119,42.669884,-29.099596,79.387596,-11.901881,-61.148998
1171718750,-41.220066,-35.349117,-89.015343,-127.35138,-29.103865,76.564667,-11.86722,-63.84671
1172812500,-41.54406,-30.482159,-94.14669,-52.118633,-29.104469,73.762955,-11.83002,-66.482368
1173906250,-41.938587,-25.414902,-93.101067,-75.586304,-29.115732,70.948868,-11.790439,-69.040497
1175000000,-42.397415,-20.290335,-100.87054,171.83174,-29.107584,68.058205,-11.752987,-71.556351
1176093750,-43.065475,-15.622293,-90.260429,65.734489,-29.110613,65.268967,-11.71529,-74.009338
1177187500,-43.826832,-10.876813,-86.388435,97.200211,-29.115335,62.451008,-11.683656,-76.409203
1178281250,-44.838547,-5.9009657,-87.127289,161.99635,-29.110329,59.588375,-11.654441,-78.756119
1179375000,-46.126434,-1.3276721,-89.75132,39.72998,-29.111095,56.793667,-11.632812,-81.075401
1180468750,-47.661617,3.143487,-97.630547,-76.700813,-29.105009,53.969036,-11.615644,-83.340019
1181562500,-49.799236,6.2252884,-90.90892,6.4548903,-29.111681,51.179508,-11.610796,-85.602943
1182656250,-52.895931,8.528039,-99.660774,-118.86053,-29.109295,48.350502,-11.613587,-87.860191
1183750000,-58.10535,5.0805788,-98.194962,29.316351,-29.096663,45.553638,-11.621747,-90.115685
1184843750,-67.288857,-46.288883,-87.711853,119.7989,-29.090616,42.750992,-11.639905,-92.382347
1185937500,-59.157238,-124.32022,-90.610275,168.43498,-29.090704,39.902966,-11.664076,-94.677368
1187031250,-52.864822,-130.1848,-103.7225,-156.78566,-29.089285,37.07579,-11.69417,-96.993309
1188125000,-49.253582,-127.584,-91.283783,79.081635,-29.084127,34.273056,-11.730918,-99.380035
1189218750,-46.658642,-124.57873,-93.887451,-74.595932,-29.071281,31.431461,-11.77064,-101.80284
1190312500,-44.566528,-120.36459,-89.237694,44.568184,-29.070997,28.612242,-11.813925,-104.26354
1191406250,-42.973476,-116.0554,-88.01268,52.477654,-29.068224,25.789436,-11.860392,-106.7869
1192500000,-41.622417,-111.48889,-91.755814,170.20468,-29.067253,23.003492,-11.904146,-109.38313
1193593750,-40.385944,-106.86443,-94.918922,-43.037563,-29.06374,20.150276,-11.945179,-112.03511
1194687500,-39.387043,-101.7255,-92.190788,145.92085,-29.059349,17.289904,-11.983705,-114.73035
1195781250,-38.516228,-96.935791,-98.640572,104.45706,-29.054045,14.441276,-12.017013,-117.47805
1196875000,-37.77774,-92.312996,-93.434547,141.21725,-29.056528,11.602288,-12.044797,-120.25124
1197968750,-37.046608,-87.43557,-94.065399,90.021126,-29.058138,8.736063,-12.064273,-123.06988
1199062500,-36.504272,-82.608955,-90.710304,-147.10329,-29.063347,5.8964591,-12.078139,-125.89756
1200156250,-35.941078,-78.179031,-92.307022,52.175766,-29.055843,3.12393,-12.083138,-128.74545
1201250000,-35.503887,-73.170364,-86.436699,-19.215868,-29.057243,0.19116901,-12.077033,-131.56911
1202343750,-35.116741,-68.623596,-99.908424,103.14259,-29.056271,-2.5592086,-12.067334,-134.38857
1203437500,-34.776314,-63.777405,-94.010223,72.494507,-29.052908,-5.434474,-12.04589,-137.16235
1204531250,-34.462986,-59.434216,-95.166916,29.417612,-29.052435,-8.295023,-12.01957,-139.9175
1205625000,-34.213421,-54.876881,-91.535583,-1.3450909,-29.045465,-11.099756,-11.985796,-142.6259
1206718750,-34.019272,-50.50634,-92.522705,-43.265934,-29.045431,-13.944654,-11.949565,-145.27664
1207812500,-33.874683,-46.183201,-101.37453,104.72752,-29.034685,-16.79563,-11.911386,-147.86598
1208906250,-33.752499,-41.9673,-95.778481,-21.981939,-29.042543,-19.663809,-11.86489,-150.40083
1210000000,-33.661697,-37.671978,-94.089439,-8.1855202,-29.044481,-22.44803,-11.821218,-152.85222
1211093750,-33.613312,-33.76157,-94.076263,-106.76866,-29.048405,-25.222809,-11.777424,-155.2495
1212187500,-33.575249,-29.892412,-91.730957,27.957788,-29.051424,-28.08357,-11.736156,-157.58775
1213281250,-33.584835,-25.889277,-93.148659,-25.936131,-29.041138,-30.876997,-11.698236,-159.85144
1214375000,-33.61816,-22.167294,-88.283043,-7.7052536,-29.050144,-33.705875,-11.662839,-162.06442
1215468750,-33.701344,-18.586422,-88.018959,65.372009,-29.056765,-36.515617,-11.635405,-164.22746
1216562500,-33.797005,-14.967566,-93.690903,-0.41303015,-29.051262,-39.292534,-11.613151,-166.34094
1217656250,-33.90937,-11.587701,-92.094307,-166.91502,-29.050175,-42.084484,-11.599035,-168.41194
1218750000,-34.023052,-8.2946587,-92.263786,62.531189,-29.052105,-44.960449,-11.592462,-170.4211
1219843750,-34.182953,-5.2722716,-94.160561,-136.31902,-29.049437,-47.760612,-11.596464,-172.45232
1220937500,-34.363483,-2.1296504,-98.417023,165.42612,-29.048677,-50.516232,-11.609374,-174.4388
