!CSV A.01.01
!Agilent Technologies,N5222A,MY51421451,A.09.90.02
!Agilent N5222A: A.09.90.02
!Date: Wednesday, January 15, 2014 17:12:26
!Source: Standard

BEGIN CH1_DATA
Freq(Hz),S11(DB),S11(DEG),S12(DB),S12(DEG),S21(DB),S21(DEG),S22(DB),S22(DEG)
4000000000,-32.626064,-161.09607,-0.86775404,130.485,-0.88342428,130.67245,-31.934793,-120.008
4000312500,-32.604385,-161.75476,-0.85569209,130.51556,-0.86198795,130.54414,-31.832077,-120.48234
4000625000,-32.561802,-162.12558,-0.85887295,130.3354,-0.86126983,130.3932,-31.834671,-120.3602
4000937500,-32.555443,-162.5327,-0.85874325,130.17854,-0.85810715,130.21916,-31.808241,-120.24832
4001250000,-32.521255,-162.33989,-0.86065465,130.00926,-0.86070484,130.06425,-31.809448,-120.10116
4001562500,-32.50148,-163.15201,-0.85958999,129.85655,-0.8566196,129.90984,-31.783176,-120.21103
4001875000,-32.513733,-162.83064,-0.85950321,129.72986,-0.85860699,129.76498,-31.778019,-120.42699
4002187500,-32.579712,-162.37575,-0.8594476,129.54907,-0.85968149,129.59108,-31.767878,-120.35064
4002500000,-32.530071,-161.99733,-0.86244851,129.41791,-0.85990709,129.41322,-31.824814,-120.31794
4002812500,-32.506866,-161.83237,-0.86044669,129.259,-0.85878885,129.27612,-31.843735,-120.21453
4003125000,-32.521969,-161.9471,-0.86087465,129.0799,-0.86065209,129.11621,-31.831825,-120.24686
4003437500,-32.513058,-161.9915,-0.86137104,128.92754,-0.86139852,128.95201,-31.841362,-120.08068
4003750000,-32.550865,-162.6082,-0.86250299,128.77417,-0.85919052,128.79391,-31.859098,-119.99846
4004062500,-32.611591,-163.35161,-0.86298501,128.62398,-0.85900444,128.64288,-31.883316,-119.83926
4004375000,-32.619247,-163.97128,-0.86265546,128.44981,-0.85989308,128.46791,-31.84033,-119.42419
4004687500,-32.753918,-164.24953,-0.86349863,128.28154,-0.86361158,128.33069,-31.832392,-119.41434
4005000000,-32.776958,-164.95694,-0.86409748,128.119,-0.86010367,128.18256,-31.803858,-119.58899
4005312500,-32.735378,-164.58034,-0.86011207,127.96589,-0.85656363,128.00056,-31.757006,-119.52962
4005625000,-32.719208,-164.74876,-0.86275083,127.79823,-0.86060297,127.87724,-31.829273,-119.85603
4005937500,-32.772472,-164.85106,-0.85748619,127.63647,-0.85816222,127.71144,-31.823797,-120.12035
4006250000,-32.699467,-164.22092,-0.86028528,127.47272,-0.85781443,127.56188,-31.821825,-120.14352
4006562500,-32.663921,-165.11095,-0.85884064,127.31851,-0.85624903,127.40041,-31.824728,-120.51083
4006875000,-32.690544,-165.34737,-0.85957229,127.14391,-0.86036688,127.24581,-31.790476,-120.80579
4007187500,-32.621876,-165.88193,-0.85887337,127.01059,-0.85959715,127.09052,-31.780163,-121.04448
4007500000,-32.644272,-166.07544,-0.86111253,126.86439,-0.85783195,126.90736,-31.738482,-121.0375
4007812500,-32.634315,-166.52132,-0.86014467,126.70158,-0.85980487,126.75072,-31.702959,-121.32166
4008125000,-32.565456,-166.54454,-0.86089641,126.5379,-0.86024582,126.59286,-31.702682,-121.30124
4008437500,-32.615501,-166.82813,-0.85858643,126.39955,-0.86015284,126.42083,-31.734722,-120.73139
4008750000,-32.610725,-167.183,-0.86137229,126.23292,-0.85762143,126.28438,-31.713276,-120.69624
4009062500,-32.634632,-167.50711,-0.86104375,126.09215,-0.85765338,126.09715,-31.802092,-120.28267
4009375000,-32.608902,-167.80489,-0.85936439,125.89886,-0.85916197,125.93574,-31.780886,-120.3899
4009687500,-32.664185,-167.7563,-0.85947686,125.75171,-0.8587662,125.79255,-31.78937,-120.68032
4010000000,-32.627617,-167.89687,-0.85837793,125.58905,-0.85878378,125.62881,-31.754782,-120.71252
4010312500,-32.644791,-168.13173,-0.85705477,125.42197,-0.86268026,125.46144,-31.84339,-121.36082
4010625000,-32.628143,-168.45219,-0.86054873,125.27625,-0.8625924,125.2997,-31.802261,-121.18565
4010937500,-32.614632,-168.38417,-0.85633808,125.11913,-0.86252719,125.14498,-31.787737,-121.57484
4011250000,-32.609665,-168.47313,-0.85844189,124.97179,-0.86172611,124.99473,-31.777582,-121.5828
4011562500,-32.626686,-169.19177,-0.85922039,124.81526,-0.85865593,124.84932,-31.802483,-121.46191
4011875000,-32.652287,-169.60841,-0.85883927,124.65389,-0.86351699,124.67543,-31.843729,-121.50436
4012187500,-32.605953,-170.04175,-0.85710669,124.4845,-0.86117339,124.52272,-31.858597,-121.8211
4012500000,-32.665245,-170.29622,-0.85625076,124.32967,-0.86113656,124.37049,-31.798565,-121.62424
4012812500,-32.564148,-170.92145,-0.86042953,124.15956,-0.86249429,124.20624,-31.787762,-121.53607
4013125000,-32.637806,-170.6597,-0.86334437,124.01929,-0.85968018,124.05643,-31.733849,-121.24876
4013437500,-32.646122,-170.32675,-0.86068803,123.8542,-0.8593536,123.91978,-31.737621,-120.53022
4013750000,-32.691692,-170.35606,-0.859088,123.7035,-0.86018479,123.73804,-31.712601,-120.41472
4014062500,-32.666737,-170.82368,-0.8579827,123.53921,-0.8587653,123.59496,-31.655888,-120.32418
4014375000,-32.6717,-170.82095,-0.86402136,123.411,-0.86188191,123.43917,-31.715288,-120.42242
4014687500,-32.778797,-171.40854,-0.86052525,123.23308,-0.86103892,123.27251,-31.78648,-121.19556
4015000000,-32.799702,-171.50908,-0.86324173,123.09879,-0.86218327,123.10571,-31.833149,-121.71513
4015312500,-32.93259,-171.81364,-0.86109841,122.90596,-0.86229479,122.96117,-31.835842,-121.75893
4015625000,-32.920647,-172.34775,-0.86251563,122.76883,-0.86532581,122.78034,-31.905296,-122.22697
4015937500,-32.91518,-172.11807,-0.86304963,122.62263,-0.85835439,122.62307,-31.930529,-122.24726
4016250000,-32.899036,-172.64493,-0.85948288,122.43768,-0.86222517,122.46915,-31.902512,-121.69801
4016562500,-32.837784,-172.85829,-0.86045188,122.27973,-0.86223561,122.3191,-31.919586,-121.59519
4016875000,-32.736134,-173.54292,-0.86090314,122.13478,-0.86217129,122.14227,-31.94631,-121.45007
4017187500,-32.759769,-174.07567,-0.85896909,121.9673,-0.86289424,121.99004,-31.922174,-121.40308
4017500000,-32.714878,-174.39365,-0.86006409,121.79539,-0.86387581,121.84403,-31.950718,-121.40974
4017812500,-32.806786,-174.9142,-0.86246747,121.64903,-0.85917544,121.68693,-32.030617,-121.52763
4018125000,-32.781311,-175.31749,-0.86360848,121.49926,-0.85938984,121.51225,-32.042885,-121.34696
4018437500,-32.851978,-175.24246,-0.86132365,121.3382,-0.85816324,121.3588,-32.079262,-121.03859
4018750000,-32.865768,-175.94508,-0.86248678,121.16328,-0.85844284,121.21276,-31.968136,-120.92096
4019062500,-32.835861,-175.87204,-0.86321056,121.00863,-0.85556787,121.0383,-31.950222,-121.16209
4019375000,-32.766796,-175.91501,-0.86207134,120.84641,-0.85684717,120.87946,-31.818514,-121.62038
4019687500,-32.778763,-175.87245,-0.86186033,120.68333,-0.85793531,120.71742,-31.726572,-122.38022
4020000000,-32.649124,-176.19511,-0.85842073,120.519,-0.85940742,120.56149,-31.690798,-123.51337
4020312500,-32.715302,-175.96756,-0.8620587,120.35574,-0.86000133,120.40352,-31.602633,-123.9834
4020625000,-32.669685,-176.11446,-0.85972404,120.20232,-0.86002713,120.2529,-31.581392,-123.87443
4020937500,-32.714989,-176.07294,-0.85783237,120.03345,-0.86173457,120.08975,-31.594307,-123.37009
4021250000,-32.714951,-176.7475,-0.85916311,119.88392,-0.85959905,119.94929,-31.681095,-122.93687
4021562500,-32.759434,-177.08208,-0.85933131,119.7027,-0.86524558,119.80794,-31.664101,-122.4262
4021875000,-32.776424,-177.46892,-0.86294341,119.56339,-0.86219221,119.63882,-31.639481,-121.80364
4022187500,-32.756413,-177.72456,-0.86184502,119.41846,-0.86417574,119.4922,-31.690161,-121.63625
4022500000,-32.806938,-178.15623,-0.86183363,119.25749,-0.86260086,119.31902,-31.693832,-121.9688
4022812500,-32.844753,-178.46957,-0.86285138,119.08354,-0.85845953,119.16267,-31.797213,-121.85189
4023125000,-32.864231,-178.44722,-0.86576468,118.94341,-0.86313301,119.00066,-31.791191,-122.29095
4023437500,-32.883354,-178.87987,-0.86323923,118.78416,-0.86059499,118.83106,-31.806648,-122.3721
4023750000,-32.896187,-179.20113,-0.86434364,118.64054,-0.86368257,118.65508,-31.788332,-122.74854
4024062500,-32.883465,-179.63788,-0.86245328,118.47968,-0.86176932,118.50826,-31.846903,-122.66603
4024375000,-32.790535,-179.53067,-0.86366177,118.31313,-0.86345756,118.35162,-31.843946,-123.11179
4024687500,-32.812004,-179.57817,-0.8629269,118.17666,-0.86704576,118.19366,-31.843708,-122.56876
4025000000,-32.790989,179.79599,-0.85965431,118.02716,-0.86201996,118.0281,-31.843306,-122.52224
4025312500,-32.769749,179.79431,-0.86066395,117.83552,-0.86562198,117.87383,-31.806232,-122.43085
4025625000,-32.810356,179.48956,-0.85972482,117.70235,-0.86179107,117.70213,-31.824205,-122.55157
4025937500,-32.765194,179.22542,-0.86056411,117.52903,-0.86608726,117.53429,-31.802502,-122.80717
4026250000,-32.728878,178.4084,-0.85727781,117.36172,-0.86327183,117.37392,-31.790558,-122.28275
4026562500,-32.746937,178.27255,-0.86206698,117.20893,-0.8611362,117.22042,-31.787426,-122.20583
4026875000,-32.693615,177.61136,-0.86272687,117.06647,-0.86306781,117.05847,-31.82135,-122.6356
4027187500,-32.725052,177.42712,-0.86056137,116.88081,-0.86067438,116.89516,-31.88553,-122.91078
4027500000,-32.706856,177.32681,-0.86138171,116.72904,-0.86131084,116.75838,-31.972311,-123.14517
4027812500,-32.729759,177.00491,-0.86008883,116.56308,-0.86378235,116.61286,-32.006279,-123.97498
4028125000,-32.655643,176.80547,-0.85967469,116.40534,-0.86209869,116.46199,-32.058918,-123.70915
4028437500,-32.751362,176.43085,-0.86016399,116.2588,-0.86217356,116.28871,-32.065952,-123.86169
4028750000,-32.781128,176.40839,-0.86227924,116.09228,-0.86425602,116.13937,-32.071743,-123.99613
4029062500,-32.836884,176.08444,-0.85970408,115.94752,-0.85937536,115.98373,-32.045132,-123.85349
4029375000,-32.821037,175.95807,-0.85900068,115.77673,-0.86267537,115.81434,-31.980932,-123.78774
4029687500,-32.865395,176.11807,-0.85926569,115.63124,-0.85988241,115.67455,-31.917656,-123.85189
4030000000,-32.865963,175.52768,-0.86410129,115.48103,-0.85743713,115.49573,-31.964386,-123.57951
4030312500,-32.874786,175.26421,-0.86276871,115.32779,-0.86229038,115.33082,-31.961655,-123.58057
4030625000,-32.853111,175.27704,-0.86186856,115.14959,-0.86322296,115.17638,-31.987564,-123.64492
4030937500,-32.79718,174.69128,-0.86261129,114.9745,-0.86330616,115.01834,-32.036278,-123.22119
4031250000,-32.807903,174.54137,-0.86131507,114.825,-0.86355603,114.86961,-32.006748,-123.20287
4031562500,-32.828098,174.08607,-0.86373359,114.66065,-0.86188596,114.70608,-32.004604,-123.56898
4031875000,-32.849678,173.74405,-0.86274302,114.49895,-0.86196697,114.56194,-32.053226,-123.9666
4032187500,-32.876232,173.46088,-0.8625989,114.35192,-0.86154336,114.40146,-32.017426,-124.32283
4032500000,-32.848789,173.04849,-0.86290193,114.18049,-0.86244309,114.24881,-32.046444,-124.33994
4032812500,-32.917366,172.48279,-0.86303955,114.02204,-0.8634786,114.0603,-32.028492,-124.28014
4033125000,-32.967045,172.08525,-0.86298913,113.89764,-0.86220175,113.9247,-31.977705,-124.09984
4033437500,-33.027027,172.96008,-0.86141121,113.72363,-0.8621822,113.78792,-31.995529,-124.60409
4033750000,-33.04903,172.2408,-0.8601352,113.57777,-0.86329049,113.61478,-31.944794,-124.55408
4034062500,-33.105148,172.34222,-0.8629384,113.43042,-0.86351883,113.4359,-31.922018,-124.74161
4034375000,-33.102371,172.47862,-0.86139822,113.25352,-0.85920691,113.28734,-31.885052,-124.51319
4034687500,-33.151546,172.52606,-0.86042333,113.09132,-0.86279941,113.12798,-31.852385,-124.1973
4035000000,-33.016365,171.68619,-0.86267453,112.93636,-0.85932958,112.95499,-31.897076,-124.24928
4035312500,-32.988205,171.33624,-0.86218029,112.80141,-0.86188382,112.79076,-31.942526,-124.20732
4035625000,-32.946854,171.5585,-0.86151046,112.63664,-0.85761034,112.64756,-31.974903,-123.99406
4035937500,-32.965191,170.8382,-0.86321062,112.44945,-0.85904467,112.4866,-31.969448,-123.96296
4036250000,-32.970985,170.34389,-0.86288518,112.3074,-0.8619408,112.33532,-31.938267,-123.80919
4036562500,-32.960552,169.89825,-0.86530215,112.14673,-0.8625502,112.20335,-31.969072,-124.04901
4036875000,-32.966595,169.18881,-0.8636834,111.97557,-0.86172557,112.03403,-31.938103,-124.21464
4037187500,-32.979153,168.74342,-0.86307245,111.81554,-0.86194891,111.86867,-31.908619,-124.31182
4037500000,-33.01984,168.32393,-0.86343908,111.63683,-0.86462086,111.70779,-31.86006,-124.71333
4037812500,-32.996624,167.7877,-0.86141729,111.4767,-0.86375993,111.54082,-31.837387,-124.59516
4038125000,-33.018173,167.31541,-0.86729133,111.34106,-0.86483526,111.39336,-31.854456,-124.4618
4038437500,-33.0452,167.41527,-0.86334425,111.2081,-0.86136174,111.20679,-31.856791,-124.73786
4038750000,-33.053825,167.4984,-0.86787868,111.03587,-0.86535269,111.07552,-31.863789,-124.27323
4039062500,-33.177288,166.96391,-0.86640054,110.88377,-0.86291718,110.88717,-31.92428,-124.51572
4039375000,-33.059669,166.44716,-0.86675858,110.72091,-0.86483204,110.74762,-31.901096,-125.00462
4039687500,-33.048409,166.34038,-0.8664782,110.55992,-0.86178404,110.58881,-31.946819,-124.58466
4040000000,-33.09211,166.20076,-0.86496395,110.39703,-0.8626886,110.42467,-31.957439,-125.15288
4040312500,-33.108364,166.02267,-0.86427736,110.23751,-0.86319995,110.2934,-31.975155,-124.81661
4040625000,-33.117744,165.24153,-0.86513293,110.08746,-0.86291981,110.12041,-32.002045,-125.05495
4040937500,-33.08437,165.18611,-0.86389011,109.92606,-0.86063892,109.96135,-32.044395,-124.89437
4041250000,-33.05788,164.4902,-0.86701024,109.75499,-0.8649196,109.7998,-32.03701,-124.74747
4041562500,-33.036663,164.94383,-0.86480391,109.62466,-0.86579144,109.63181,-32.056213,-124.34167
4041875000,-33.040928,164.62889,-0.86428481,109.45969,-0.86780804,109.4783,-32.100094,-124.28818
4042187500,-33.049042,164.49875,-0.86317873,109.31075,-0.86255825,109.31883,-32.063854,-123.69713
4042500000,-32.987965,164.18755,-0.8648023,109.1445,-0.86433721,109.17532,-32.083851,-123.92007
4042812500,-33.031361,164.53969,-0.86506695,108.97442,-0.87072909,109.01142,-32.035198,-124.044
4043125000,-33.053223,164.46494,-0.86489791,108.83056,-0.86721146,108.87634,-32.013031,-124.24867
4043437500,-33.112553,164.19948,-0.86296332,108.63211,-0.8651107,108.70477,-31.974989,-124.62441
4043750000,-33.17244,164.12215,-0.86424726,108.48734,-0.86770588,108.58227,-32.02578,-125.09018
4044062500,-33.108593,163.43178,-0.8668679,108.31162,-0.86712754,108.39781,-31.993914,-125.32102
4044375000,-33.132732,163.06242,-0.8668077,108.1674,-0.86543483,108.25613,-31.959003,-124.71188
4044687500,-33.163342,162.70412,-0.86432642,108.00975,-0.86579984,108.07301,-31.960434,-124.61088
4045000000,-33.191982,162.57185,-0.86566818,107.85268,-0.86617982,107.92297,-31.941231,-124.62118
4045312500,-33.139061,162.40132,-0.86276311,107.71289,-0.86044532,107.74768,-31.948103,-124.25435
4045625000,-33.18906,161.88426,-0.86308146,107.5535,-0.86710966,107.61253,-31.925808,-124.41171
4045937500,-33.107861,161.47101,-0.86172736,107.38275,-0.8631928,107.42944,-31.954782,-124.15216
4046250000,-33.063786,161.55521,-0.86104381,107.2298,-0.86422116,107.27221,-31.930153,-124.15578
4046562500,-33.070625,160.76469,-0.86421132,107.0876,-0.86475199,107.12254,-31.948397,-124.85388
4046875000,-32.959209,160.26241,-0.86347759,106.91871,-0.8657397,106.95081,-31.974781,-124.40007
4047187500,-33.055027,159.81104,-0.86266208,106.76719,-0.86745679,106.81169,-31.942556,-124.24299
4047500000,-33.005848,159.17183,-0.8644098,106.59981,-0.86309588,106.6349,-32.002697,-124.17356
4047812500,-33.020107,158.57535,-0.86423552,106.42574,-0.86656761,106.48984,-31.988411,-124.26935
4048125000,-33.061092,158.36697,-0.86447412,106.29095,-0.86577845,106.32539,-32.041042,-123.82439
4048437500,-33.043709,157.69679,-0.86300534,106.10973,-0.86466986,106.17004,-32.026257,-123.61596
4048750000,-33.127934,157.89595,-0.86375558,105.95483,-0.86421406,106.02299,-32.059994,-124.15406
4049062500,-33.126957,157.45114,-0.86182088,105.77827,-0.86586899,105.85338,-32.075123,-124.29868
4049375000,-33.186489,157.73366,-0.86587006,105.63514,-0.86326927,105.7171,-32.060989,-124.75628
4049687500,-33.205051,157.86955,-0.86503708,105.48154,-0.86342007,105.53349,-31.996958,-124.76575
4050000000,-33.304901,157.97542,-0.86401403,105.31588,-0.86159861,105.39889,-32.116493,-125.15725
4050312500,-33.225403,157.82185,-0.86376709,105.16686,-0.86285985,105.21395,-32.062679,-125.53015
4050625000,-33.232819,157.20003,-0.86709642,105.02342,-0.86313319,105.07995,-32.032944,-125.12528
4050937500,-33.152245,156.9478,-0.86704987,104.87322,-0.86214334,104.91419,-32.08149,-125.14897
4051250000,-33.143764,156.7883,-0.86591423,104.71348,-0.86354011,104.75803,-32.099457,-125.22502
4051562500,-33.1306,155.78587,-0.86761028,104.57397,-0.86439049,104.56502,-32.143646,-125.1533
4051875000,-33.080502,155.7769,-0.86570287,104.40698,-0.86049712,104.43298,-32.184078,-125.17365
4052187500,-33.105961,155.6492,-0.86658162,104.24719,-0.85953951,104.26637,-32.228703,-126.00206
4052500000,-33.139912,155.17047,-0.86339009,104.07905,-0.85954052,104.09581,-32.252449,-125.95787
4052812500,-33.091496,154.82751,-0.86237675,103.90305,-0.86095482,103.92275,-32.321632,-125.87435
4053125000,-33.154335,154.80016,-0.86374724,103.73499,-0.86478102,103.79472,-32.250156,-126.04488
4053437500,-33.187576,154.32559,-0.86190325,103.56099,-0.85989052,103.63386,-32.267483,-125.94678
4053750000,-33.225723,154.27692,-0.86275172,103.40131,-0.86475128,103.48004,-32.208363,-125.74648
4054062500,-33.273579,154.3492,-0.863451,103.26525,-0.86378169,103.32865,-32.226479,-125.38614
4054375000,-33.355904,154.31946,-0.8613373,103.09821,-0.86468804,103.19166,-32.213642,-124.72466
4054687500,-33.386681,154.16763,-0.86050987,102.95737,-0.86628979,103.00799,-32.159573,-124.23147
4055000000,-33.456188,153.71457,-0.86464113,102.7898,-0.86296105,102.83743,-32.19199,-124.57748
4055312500,-33.371277,153.13187,-0.86173892,102.64156,-0.86698091,102.68467,-32.16288,-124.5594
4055625000,-33.317963,152.76556,-0.8678956,102.48705,-0.86037862,102.5183,-32.23196,-124.74998
4055937500,-33.297798,152.27596,-0.86327827,102.33121,-0.86295313,102.38405,-32.26392,-124.27074
4056250000,-33.291325,152.14612,-0.86354125,102.15341,-0.86195171,102.20355,-32.235023,-124.29047
4056562500,-33.3237,151.31422,-0.86395025,101.99944,-0.86281854,102.05032,-32.227512,-124.33537
4056875000,-33.28701,151.19043,-0.86635095,101.81646,-0.86129689,101.88846,-32.200222,-124.48895
4057187500,-33.275028,151.14035,-0.86613798,101.68184,-0.86366755,101.73933,-32.166031,-124.595
4057500000,-33.232105,150.97858,-0.86568767,101.53159,-0.86303478,101.55634,-32.13847,-124.77147
4057812500,-33.277405,150.77609,-0.86486924,101.36154,-0.8604998,101.42358,-32.140591,-124.81459
4058125000,-33.270485,150.49373,-0.86630452,101.19722,-0.86383402,101.23328,-32.105408,-125.35707
4058437500,-33.300514,150.20831,-0.86450624,101.05726,-0.86117983,101.10759,-32.09549,-125.1784
4058750000,-33.358421,149.76202,-0.86689812,100.88565,-0.86679006,100.94413,-32.016319,-125.63913
4059062500,-33.348328,149.18494,-0.86777526,100.73106,-0.86718333,100.79849,-32.056873,-125.51253
4059375000,-33.37434,148.98386,-0.8675645,100.56929,-0.86649996,100.65731,-32.052891,-125.01463
4059687500,-33.406891,148.66342,-0.86711323,100.43999,-0.86600775,100.47701,-32.092384,-125.29709
4060000000,-33.433556,148.00554,-0.86587864,100.28164,-0.86574209,100.32387,-32.112816,-124.94852
4060312500,-33.459911,148.14044,-0.86809093,100.112,-0.86322141,100.15568,-32.227749,-125.26604
4060625000,-33.44215,148.2632,-0.86401635,99.945869,-0.86286914,100.01154,-32.203606,-125.19522
4060937500,-33.450981,147.4241,-0.86135888,99.794716,-0.86726952,99.85981,-32.292919,-125.19326
4061250000,-33.535275,147.67726,-0.86512154,99.640137,-0.86563551,99.701973,-32.26778,-125.5267
4061562500,-33.517609,147.41759,-0.86290354,99.444351,-0.8668189,99.53466,-32.221077,-125.22314
4061875000,-33.581501,147.42303,-0.86291438,99.328163,-0.86286384,99.380615,-32.187576,-125.23514
4062187500,-33.674957,146.81413,-0.86304134,99.161369,-0.8662976,99.194069,-32.136292,-125.69842
