!CSV A.01.01
!Agilent Technologies,N5222A,MY51421451,A.09.90.02
!Agilent N5222A: A.09.90.02
!Date: Friday, July 17, 2015 16:29:35
!Source: Standard

BEGIN CH4_DATA
Freq(Hz),S33(DB),S33(DEG),S34(DB),S34(DEG),S43(DB),S43(DEG),S44(DB),S44(DEG)
1000000000,-34.551025,24.623297,-0.21410613,92.180954,-0.22081044,92.157227,-32.567188,-43.385414
1001484375,-34.212952,28.260855,-0.21937078,91.789902,-0.2197879,91.752831,-32.575047,-44.525894
1002968750,-34.314381,27.245626,-0.21919945,91.387337,-0.22207792,91.373253,-32.442795,-44.338593
1004453125,-34.435204,25.514853,-0.22139533,90.987129,-0.22201131,90.973885,-32.775074,-44.675339
1005937500,-34.344952,26.748983,-0.22013544,90.579178,-0.22466198,90.566284,-32.686104,-44.35854
1007421875,-34.296925,25.628065,-0.22074744,90.179436,-0.21954148,90.181717,-32.70583,-44.26899
1008906250,-34.28738,26.152441,-0.22039773,89.789154,-0.22175793,89.796188,-32.497604,-48.30204
1010390625,-34.518566,25.551357,-0.22219209,89.392242,-0.21574767,89.374619,-32.670166,-48.550285
1011875000,-34.331871,25.075644,-0.21963701,88.998413,-0.21852042,88.993668,-32.687847,-48.183193
1013359375,-34.315865,25.98074,-0.22147821,88.585014,-0.22173111,88.582466,-32.605602,-48.79549
1014843750,-34.47879,25.668226,-0.22394325,88.227486,-0.22486627,88.184563,-32.722855,-49.748646
1016328125,-34.591068,24.597954,-0.22014603,87.802467,-0.22188966,87.808304,-32.611549,-49.78746
1017812500,-34.611378,24.921532,-0.21956363,87.439865,-0.22115017,87.390984,-32.807552,-49.965664
1019296875,-34.355427,23.661728,-0.21832216,87.014221,-0.22398974,87.022675,-32.805622,-50.318481
1020781250,-34.185741,23.898525,-0.21945195,86.629608,-0.22329353,86.612541,-32.752243,-51.966305
1022265625,-34.402386,24.307421,-0.22142063,86.240295,-0.21990848,86.205925,-32.820866,-52.405575
1023750000,-34.422417,23.977549,-0.22328067,85.837219,-0.21877436,85.799805,-32.799149,-53.054977
1025234375,-34.758144,22.818415,-0.22268036,85.437325,-0.2203646,85.428848,-32.927673,-52.995537
1026718750,-34.504646,23.658918,-0.22104207,85.050812,-0.22006363,85.024345,-32.850452,-53.847115
1028203125,-34.685768,22.898714,-0.22092199,84.631157,-0.22342072,84.65641,-32.877502,-54.241524
1029687500,-34.602715,23.400339,-0.22123356,84.249702,-0.22065155,84.244583,-32.81945,-55.591087
1031171875,-34.77039,22.84547,-0.22477214,83.844109,-0.22227094,83.837509,-32.887791,-56.041042
1032656250,-34.728832,22.436388,-0.22248395,83.477493,-0.22521523,83.444626,-32.963196,-56.278435
1034140625,-34.707214,22.284571,-0.22360252,83.048302,-0.22615698,83.050133,-32.789204,-57.454731
1035625000,-34.626762,22.744398,-0.22675152,82.669655,-0.22209613,82.631523,-32.772491,-57.457436
1037109375,-34.645428,22.144924,-0.2209962,82.26358,-0.22405504,82.23864,-32.899239,-58.066067
1038593750,-34.820313,21.715582,-0.22398409,81.863243,-0.22387443,81.855469,-32.959709,-59.010048
1040078125,-34.884117,20.196947,-0.21980393,81.455574,-0.22201417,81.483704,-33.018208,-58.977989
1041562500,-34.800762,22.356506,-0.225563,81.075157,-0.22352861,81.04995,-32.996887,-60.304226
1043046875,-34.885559,20.903236,-0.22498031,80.675079,-0.22365002,80.681122,-32.964169,-61.606941
1044531250,-34.910233,22.928377,-0.22492124,80.285889,-0.22009774,80.274048,-32.984226,-61.461178
1046015625,-34.804016,21.608866,-0.22361319,79.87262,-0.22663468,79.865311,-33.008141,-61.359184
1047500000,-35.12072,22.00872,-0.22519563,79.480614,-0.22451936,79.47509,-32.73267,-62.793453
1048984375,-34.909889,22.108055,-0.22470842,79.110168,-0.22713031,79.105324,-33.05006,-63.594875
1050468750,-34.781338,23.130493,-0.22476506,78.707222,-0.22389603,78.675606,-33.196091,-63.869884
1051953125,-35.17918,21.222908,-0.22488314,78.287048,-0.22302623,78.29171,-33.204445,-64.084152
1053437500,-34.612583,21.251144,-0.22377622,77.88987,-0.22506541,77.889023,-33.054531,-63.07996
1054921875,-34.992462,21.013544,-0.22738563,77.514175,-0.22662662,77.501511,-33.151066,-65.685234
1056406250,-35.239666,21.754385,-0.22443616,77.105415,-0.22730376,77.105682,-33.290363,-65.45137
1057890625,-35.035313,21.478352,-0.22403662,76.715073,-0.22608341,76.706238,-33.188225,-67.043144
1059375000,-35.25161,21.042124,-0.22402626,76.307396,-0.22507045,76.317627,-33.086472,-67.509918
1060859375,-35.251461,21.235149,-0.22681965,75.906479,-0.22668394,75.923355,-33.118423,-68.060585
1062343750,-35.088005,20.050844,-0.22440924,75.492706,-0.22451338,75.549744,-33.174316,-67.683739
1063828125,-34.958862,21.18644,-0.22452119,75.138214,-0.22645183,75.121071,-33.165676,-69.696648
1065312500,-35.263596,19.174694,-0.2236999,74.713905,-0.22433841,74.717674,-33.425209,-69.434471
1066796875,-35.142361,20.479538,-0.22902983,74.349777,-0.22079532,74.34272,-33.29229,-71.229889
1068281250,-35.529835,20.291157,-0.2257708,73.950729,-0.22753835,73.924713,-33.198517,-69.249153
1069765625,-35.440876,19.518278,-0.22528045,73.548439,-0.22755258,73.537819,-33.32048,-72.260139
1071250000,-35.248882,19.102215,-0.2292009,73.147545,-0.23063329,73.137451,-33.489555,-72.348686
1072734375,-35.484535,20.660955,-0.22917381,72.733551,-0.22697443,72.756836,-33.438267,-72.996292
1074218750,-35.484356,19.856201,-0.22925425,72.347687,-0.2283514,72.36557,-33.366543,-73.957832
1075703125,-35.519608,20.31304,-0.22608122,71.963936,-0.22550547,71.953606,-33.271229,-73.680908
1077187500,-35.648842,20.208138,-0.22802725,71.549522,-0.22524422,71.538422,-33.518517,-76.045868
1078671875,-35.720005,21.598642,-0.22994602,71.165886,-0.22451733,71.16983,-33.350704,-75.499702
1080156250,-35.625782,19.202684,-0.22804616,70.784836,-0.22726761,70.753983,-33.595505,-75.438034
1081640625,-35.787388,19.404556,-0.22677748,70.353622,-0.23037,70.373116,-33.760658,-76.607498
1083125000,-35.740585,20.719482,-0.228819,69.982979,-0.22568485,69.967529,-33.436031,-76.976578
1084609375,-35.710133,20.073912,-0.22765057,69.574768,-0.22648475,69.576263,-33.500359,-78.972809
1086093750,-35.971832,17.957323,-0.23130441,69.180115,-0.22742119,69.184235,-33.540833,-78.626465
1087578125,-35.630714,20.265091,-0.22754098,68.785088,-0.22842932,68.758911,-33.677406,-79.54409
1089062500,-35.890186,20.740854,-0.22789013,68.404472,-0.23033334,68.376724,-33.79623,-79.515663
1090546875,-36.008865,20.114431,-0.22965407,67.966949,-0.22743878,67.993721,-33.732983,-80.743256
1092031250,-35.857742,17.942558,-0.22907124,67.589111,-0.22978403,67.600945,-33.737606,-80.52681
1093515625,-36.128265,22.146362,-0.22669615,67.223907,-0.22695293,67.195869,-33.785137,-81.42897
1095000000,-36.18417,18.640989,-0.22976601,66.817062,-0.2318048,66.797615,-34.089909,-81.309967
1096484375,-36.217403,19.306942,-0.23073633,66.403252,-0.23008095,66.39917,-34.019604,-82.249916
1097968750,-36.155205,20.682138,-0.22937071,66.016289,-0.22806874,66.011543,-33.999985,-85.060089
1099453125,-36.263561,17.335304,-0.22950429,65.598808,-0.23181449,65.606003,-33.85144,-83.775909
1100937500,-36.07766,20.124607,-0.23063205,65.214172,-0.22883457,65.215927,-33.911575,-85.583488
1102421875,-36.319778,18.119108,-0.23286062,64.828659,-0.22904943,64.813995,-34.000389,-85.722977
1103906250,-36.250717,20.090908,-0.22823638,64.411858,-0.23069538,64.415596,-34.031155,-85.76619
1105390625,-36.498219,20.037392,-0.23103324,64.015038,-0.22847857,64.04409,-33.89703,-86.59214
1106875000,-36.382915,18.652216,-0.23053773,63.630287,-0.2312537,63.625526,-33.989761,-87.261353
1108359375,-36.239822,20.53315,-0.22999249,63.218536,-0.23015164,63.230232,-34.039215,-88.248848
1109843750,-36.372593,19.861952,-0.22860628,62.843513,-0.23101087,62.814934,-34.125591,-87.61068
1111328125,-36.271103,20.889286,-0.22894323,62.431927,-0.22878134,62.429649,-34.105686,-89.781853
1112812500,-36.443226,20.668289,-0.23254605,62.052551,-0.23007593,62.029423,-34.082836,-91.052849
1114296875,-36.363853,19.454975,-0.2313607,61.632767,-0.23030484,61.625198,-34.285145,-91.362282
1115781250,-36.202713,20.147615,-0.2294081,61.249584,-0.23426248,61.243561,-34.273514,-92.29422
1117265625,-36.82909,17.439156,-0.22951095,60.872463,-0.23038642,60.85405,-34.317196,-92.901039
1118750000,-36.535896,18.901478,-0.22932267,60.458675,-0.22774649,60.455692,-34.211521,-93.33493
1120234375,-36.625259,20.960884,-0.23091744,60.07637,-0.23074824,60.047485,-34.384171,-94.320122
1121718750,-36.349258,18.263628,-0.23376749,59.666237,-0.23280108,59.66151,-34.386856,-94.824814
1123203125,-36.669765,20.069471,-0.23285037,59.274075,-0.23028499,59.263031,-34.175388,-94.117935
1124687500,-36.846004,19.625301,-0.23188908,58.865589,-0.23247546,58.882141,-34.20956,-95.977165
1126171875,-36.536201,18.90041,-0.23120922,58.486397,-0.2307891,58.469589,-34.37352,-96.861961
1127656250,-37.082104,19.469007,-0.23364253,58.068024,-0.23461874,58.071327,-34.489834,-95.374519
1129140625,-36.846485,19.729992,-0.23365737,57.667294,-0.23270462,57.671223,-34.383392,-97.325699
1130625000,-36.944752,19.630322,-0.23444337,57.282547,-0.23459421,57.299797,-34.591423,-99.045876
1132109375,-36.983532,21.306934,-0.23183312,56.912617,-0.23249666,56.900188,-34.467762,-98.888855
1133593750,-36.63736,19.047159,-0.23350096,56.489452,-0.23015349,56.490582,-34.617592,-100.16798
1135078125,-36.917336,19.588785,-0.23315227,56.085438,-0.23249939,56.077965,-34.728962,-99.347908
1136562500,-36.821983,19.770334,-0.22996444,55.716198,-0.23834024,55.677448,-34.763088,-101.83375
1138046875,-37.088726,20.366398,-0.23150247,55.313469,-0.23355047,55.283485,-34.641022,-103.66394
1139531250,-36.88789,19.499205,-0.23477201,54.901363,-0.23631799,54.918713,-34.691059,-102.54758
1141015625,-36.81181,20.146498,-0.23359287,54.525452,-0.23504455,54.516289,-34.579113,-103.48289
1142500000,-36.927235,21.676451,-0.23613204,54.116894,-0.23095179,54.120632,-34.497414,-104.11467
1143984375,-37.018394,18.666437,-0.22995676,53.721222,-0.23513062,53.713188,-34.732971,-104.94133
1145468750,-37.147419,20.283678,-0.23034687,53.321667,-0.23357986,53.3316,-34.478039,-104.86301
1146953125,-36.780704,19.20306,-0.233255,52.938995,-0.23450667,52.913372,-34.65184,-107.10197
1148437500,-37.044144,19.460377,-0.23499557,52.533764,-0.23218174,52.504189,-34.6968,-106.80021
1149921875,-36.972923,18.1234,-0.2344348,52.137379,-0.23441465,52.13131,-34.671917,-108.94637
1151406250,-37.107525,19.572977,-0.23268971,51.72245,-0.23666018,51.753052,-34.881542,-108.57758
1152890625,-37.07008,19.954634,-0.23887712,51.356964,-0.23133826,51.333405,-34.944809,-108.83989
1154375000,-37.003342,20.017603,-0.23788841,50.947201,-0.23525786,50.930798,-34.79707,-110.75229
1155859375,-37.143646,19.74283,-0.23544829,50.572098,-0.23301986,50.5117,-35.008503,-111.46992
1157343750,-37.061829,20.330296,-0.23178911,50.168106,-0.23373991,50.139305,-35.074806,-110.29005
1158828125,-37.275539,20.524309,-0.23457497,49.762772,-0.2349703,49.754894,-35.044662,-111.7165
1160312500,-37.057247,20.47471,-0.23365578,49.363682,-0.23438765,49.372952,-35.157734,-114.57931
1161796875,-37.477924,19.639101,-0.23458269,48.970554,-0.23438582,48.951458,-35.25222,-113.58466
1163281250,-37.531078,21.262075,-0.2361197,48.553112,-0.2345849,48.574604,-35.063099,-112.99806
1164765625,-37.290707,21.593376,-0.23913558,48.175983,-0.23468865,48.174835,-35.317188,-114.09129
1166250000,-37.519344,20.346321,-0.23937979,47.788258,-0.23318799,47.783577,-35.153114,-114.8233
1167734375,-37.122616,21.05682,-0.23913847,47.384892,-0.23664667,47.366993,-35.012787,-115.56307
1169218750,-37.519993,21.849171,-0.23906343,46.962532,-0.23608534,46.967518,-35.07019,-115.33168
1170703125,-37.388947,21.381777,-0.23737013,46.572426,-0.23501298,46.578991,-35.124935,-116.29388
1172187500,-37.280003,19.234207,-0.23939706,46.200428,-0.23662776,46.190628,-35.068359,-117.19239
1173671875,-37.597775,20.479237,-0.23591827,45.79129,-0.23524122,45.78566,-35.544464,-119.03088
1175156250,-37.377213,22.278646,-0.23736802,45.410423,-0.2374908,45.371758,-35.495663,-118.34367
1176640625,-37.59584,19.872616,-0.24050738,44.988571,-0.23694073,45.003872,-35.324303,-121.1978
1178125000,-37.757549,23.904924,-0.23713687,44.595737,-0.23816244,44.579792,-35.25375,-119.41776
1179609375,-37.639187,20.083914,-0.24011332,44.208977,-0.23564906,44.209503,-35.690331,-122.40041
1181093750,-37.398006,24.021132,-0.23587395,43.805389,-0.23352425,43.791779,-35.512722,-120.79389
1182578125,-37.516544,22.217201,-0.23868315,43.435863,-0.23950872,43.424004,-35.399105,-123.39395
1184062500,-37.734608,23.046452,-0.23876111,43.018646,-0.23488972,43.012581,-35.602318,-124.48698
1185546875,-37.709019,24.132868,-0.2394684,42.62989,-0.23780017,42.629791,-35.63409,-125.26764
1187031250,-37.465126,22.820309,-0.23948328,42.22139,-0.23489204,42.191944,-35.454323,-125.19385
1188515625,-38.082104,22.745712,-0.23875695,41.830177,-0.23665772,41.811604,-35.533108,-125.29819
1190000000,-37.656879,23.248707,-0.2365185,41.437618,-0.23896025,41.407951,-35.631557,-127.46851
1191484375,-37.700649,23.828018,-0.23839092,41.023819,-0.23607108,41.036926,-35.683929,-128.27385
1192968750,-37.588688,23.692019,-0.24288449,40.632473,-0.23243952,40.636677,-35.847961,-127.2015
1194453125,-37.759117,23.883812,-0.24173939,40.255852,-0.24032907,40.26062,-35.806377,-128.2681
1195937500,-37.978878,23.676775,-0.23791203,39.840668,-0.23793024,39.829094,-35.900288,-128.81595
1197421875,-37.707863,24.554623,-0.23929869,39.440414,-0.23833314,39.465015,-35.744789,-133.16447
1198906250,-37.7103,23.571262,-0.2426832,39.064354,-0.24132574,39.0453,-35.539021,-131.58682
1200390625,-37.706417,22.18202,-0.23995051,38.644245,-0.23925708,38.627399,-36.088364,-131.81506
1201875000,-37.693642,23.060402,-0.24101633,38.261581,-0.23964733,38.261635,-35.727192,-134.42001
1203359375,-38.0387,24.425049,-0.24219254,37.887104,-0.24152166,37.850372,-36.175529,-134.59628
1204843750,-37.974827,22.378048,-0.23675159,37.47641,-0.2379263,37.438225,-36.030704,-135.38684
1206328125,-37.704826,23.247229,-0.23810948,37.069221,-0.23956074,37.088924,-36.000587,-137.71277
1207812500,-37.666897,23.570187,-0.24107189,36.657417,-0.24277772,36.672489,-35.856552,-136.32278
1209296875,-37.708942,23.428391,-0.24262419,36.273178,-0.24163574,36.268459,-36.169415,-137.83871
1210781250,-37.822304,26.920757,-0.24079448,35.879436,-0.23908304,35.882614,-36.319874,-140.25175
1212265625,-38.08717,24.759712,-0.24023619,35.493732,-0.24317686,35.451019,-36.530972,-138.55933
1213750000,-37.969398,25.283825,-0.24122994,35.10342,-0.2417071,35.074333,-36.391972,-138.31216
1215234375,-37.832298,26.455906,-0.24093547,34.677757,-0.24481755,34.686951,-36.282589,-140.01611
1216718750,-37.941792,25.684511,-0.24229541,34.294155,-0.24425565,34.290642,-36.42112,-139.36774
1218203125,-37.654961,26.565283,-0.24321267,33.8978,-0.24043368,33.895149,-36.135742,-141.11627
1219687500,-37.675014,26.067667,-0.24257027,33.47509,-0.23991345,33.507687,-36.411716,-144.255
1221171875,-37.855312,25.637621,-0.24114363,33.107353,-0.23973769,33.096016,-36.581795,-144.0451
1222656250,-37.968704,26.496645,-0.24084553,32.695393,-0.24047743,32.7057,-36.52774,-146.27687
1224140625,-38.07938,28.272556,-0.24335907,32.314407,-0.24355672,32.306721,-36.432537,-146.18814
1225625000,-37.852459,23.298269,-0.24313873,31.911009,-0.24252775,31.905914,-36.692589,-147.73187
1227109375,-38.136753,26.103342,-0.24336024,31.503656,-0.24339716,31.554781,-36.537361,-147.55147
1228593750,-37.807022,26.2817,-0.24022596,31.134157,-0.24291238,31.110996,-36.670708,-147.40428
1230078125,-37.99131,24.971527,-0.24347256,30.73904,-0.24201994,30.709961,-36.338722,-149.98346
1231562500,-38.095665,28.714918,-0.24086222,30.32,-0.24023671,30.322519,-36.968868,-152.1243
1233046875,-38.019924,27.614405,-0.24380288,29.921072,-0.24337792,29.919867,-36.856091,-150.7469
1234531250,-38.15406,25.381447,-0.2459823,29.544147,-0.24359806,29.533022,-36.809544,-152.71542
1236015625,-38.001415,28.25559,-0.24555056,29.147594,-0.24225587,29.114157,-36.634277,-154.84367
1237500000,-38.079571,27.92907,-0.24400946,28.758972,-0.24037643,28.733608,-36.640141,-155.63388
1238984375,-37.962933,29.064604,-0.24355502,28.348864,-0.24560855,28.338112,-37.055527,-155.65938
1240468750,-38.343552,28.832588,-0.24212529,27.938931,-0.24467304,27.95801,-37.062038,-154.90739
1241953125,-37.901928,29.011021,-0.24455711,27.565769,-0.24104954,27.553799,-36.879986,-157.46817
1243437500,-37.953796,29.629894,-0.24378535,27.137249,-0.24363352,27.134737,-37.005394,-157.41702
1244921875,-38.194729,29.734751,-0.24495079,26.778063,-0.24622762,26.760424,-36.688416,-161.42075
1246406250,-37.764729,31.047787,-0.24865636,26.374912,-0.24283741,26.35309,-36.872856,-159.31575
1247890625,-38.019794,29.71258,-0.24643403,25.982944,-0.24374191,25.983116,-36.870537,-161.09573
1249375000,-38.019695,30.213982,-0.24694112,25.567343,-0.24366109,25.582695,-36.737659,-162.22537
1250859375,-37.969975,30.301212,-0.24232288,25.180843,-0.24456504,25.191038,-37.173,-161.87459
1252343750,-38.009087,29.950109,-0.24300918,24.783165,-0.2447281,24.779009,-37.083973,-164.13637
1253828125,-37.939289,34.194283,-0.24964653,24.405891,-0.24470888,24.397068,-37.04594,-164.46455
1255312500,-37.853474,31.9863,-0.24422164,23.985336,-0.24315162,23.993336,-37.496235,-166.7348
1256796875,-37.612148,29.745495,-0.24539994,23.611477,-0.24230862,23.598076,-37.046165,-167.8866
1258281250,-37.857594,32.333527,-0.24808897,23.201139,-0.24681902,23.211863,-37.30764,-171.10037
1259765625,-37.636848,31.806105,-0.24861751,22.783195,-0.24236363,22.816029,-37.217621,-168.25734
1261250000,-38.170216,34.220554,-0.24654007,22.41161,-0.24854843,22.388865,-37.235157,-171.89925
1262734375,-38.012241,33.9408,-0.24383426,22.00544,-0.24600054,21.989941,-37.59499,-171.5405
1264218750,-37.765434,32.994373,-0.24589019,21.622051,-0.24924384,21.611589,-37.529938,-171.2177
1265703125,-37.838501,33.450344,-0.25069383,21.20759,-0.24586037,21.231493,-37.043137,-176.41472
1267187500,-37.789642,35.101532,-0.24662206,20.823862,-0.24483679,20.828953,-37.134304,-175.22467
1268671875,-38.024895,34.632793,-0.24287024,20.41223,-0.24773158,20.424685,-37.303547,-176.18886
1270156250,-37.50536,34.201893,-0.24768396,20.016624,-0.24423392,20.041395,-37.503117,-177.66609
1271640625,-37.74102,35.62233,-0.24824505,19.62467,-0.24948595,19.631294,-37.160839,-176.20731
1273125000,-37.743736,36.296886,-0.2452466,19.23373,-0.25052896,19.231869,-37.366875,-179.75694
1274609375,-37.821461,36.646435,-0.24462652,18.841406,-0.24687105,18.837559,-37.522312,179.39757
1276093750,-37.666187,34.307945,-0.25219953,18.454473,-0.24478881,18.429878,-37.201569,178.76468
1277578125,-37.693089,35.953186,-0.24952987,18.041206,-0.24654973,18.021936,-37.427895,-179.90083
1279062500,-37.807991,36.251244,-0.24739997,17.657328,-0.24620818,17.653322,-37.378201,174.59618
1280546875,-37.799961,35.756824,-0.24807784,17.254292,-0.24928927,17.250801,-37.393364,176.1837
1282031250,-37.603271,37.448612,-0.24526693,16.856281,-0.24360423,16.855156,-37.597672,175.01149
1283515625,-37.604626,37.811176,-0.24386871,16.453558,-0.25049409,16.452629,-37.481106,171.77026
1285000000,-37.792957,37.998932,-0.24669726,16.061911,-0.25038654,16.021809,-37.949501,171.89754
1286484375,-37.576569,38.626499,-0.24473786,15.662862,-0.2496057,15.647033,-37.659248,171.14687
1287968750,-37.706608,37.203747,-0.24914736,15.289403,-0.24805877,15.284496,-37.757381,166.94159
1289453125,-37.374329,38.147594,-0.24893188,14.893844,-0.24741046,14.875063,-37.509251,167.52075
1290937500,-37.691025,40.001854,-0.24964343,14.488496,-0.25019634,14.475345,-37.797287,168.86946
1292421875,-37.572742,38.889835,-0.24626066,14.090871,-0.24946636,14.070651,-37.664692,167.82808
1293906250,-37.338993,39.307411,-0.24747489,13.691021,-0.24874097,13.671912,-37.60627,165.72487
1295390625,-37.316265,38.326839,-0.24904242,13.283218,-0.24846125,13.283092,-37.466602,162.70163
1296875000,-37.394493,38.615177,-0.25242251,12.890813,-0.2460203,12.874228,-37.85519,164.66464
