!CSV A.01.01
!Agilent Technologies,N5222A,MY51421451,A.09.90.02
!Agilent N5222A: A.09.90.02
!Date: Wednesday, May 21, 2014 10:45:13
!Source: Standard

BEGIN CH4_DATA
Freq(Hz),S33(DB),S33(DEG),S34(DB),S34(DEG),S43(DB),S43(DEG),S44(DB),S44(DEG)
1000000000,-39.383789,69.034851,-0.31089905,-9.0028028,-0.30390975,-9.0240955,-39.671867,85.583435
1001484375,-39.827171,67.468224,-0.30663353,-9.5884323,-0.30996358,-9.5753536,-40.074039,81.683029
1002968750,-39.293148,66.288841,-0.30986816,-10.11787,-0.306932,-10.101007,-39.671425,85.5112
1004453125,-39.604012,66.721581,-0.30786824,-10.640636,-0.30991033,-10.649772,-39.707035,81.298073
1005937500,-39.623497,63.914711,-0.30919251,-11.210249,-0.30473432,-11.223806,-39.073826,83.634949
1007421875,-39.600784,64.71534,-0.30638883,-11.751121,-0.30820826,-11.750493,-39.081593,80.798454
1008906250,-39.058304,62.511715,-0.31109464,-12.301345,-0.30884781,-12.276015,-39.049961,77.894325
1010390625,-39.150532,63.142403,-0.3127614,-12.855829,-0.30671328,-12.847804,-39.618923,80.13356
1011875000,-39.50325,59.404964,-0.30979058,-13.376229,-0.30584753,-13.381252,-39.137905,76.257553
1013359375,-39.300961,59.500484,-0.31428924,-13.936187,-0.30618414,-13.951079,-39.017963,80.797501
1014843750,-38.679737,60.05521,-0.30790621,-14.469447,-0.31169522,-14.488374,-39.284061,75.866852
1016328125,-39.162697,57.160995,-0.31257486,-15.035356,-0.30739221,-15.027223,-38.898434,77.415627
1017812500,-38.878044,57.455826,-0.31114829,-15.599013,-0.30708331,-15.553953,-39.339085,77.274681
1019296875,-38.326347,58.283932,-0.31228194,-16.121143,-0.31354621,-16.140528,-38.997044,75.103165
1020781250,-38.651955,54.708561,-0.30947646,-16.669659,-0.3098636,-16.687105,-39.088512,75.139984
1022265625,-38.386715,54.624981,-0.31043151,-17.232964,-0.30926716,-17.231779,-39.242447,76.253441
1023750000,-38.296066,55.716488,-0.31194431,-17.747158,-0.30908084,-17.775587,-38.756725,73.647247
1025234375,-38.488457,54.142193,-0.31457093,-18.297226,-0.31039041,-18.309553,-38.913452,74.4459
1026718750,-38.194969,51.230808,-0.30964467,-18.845272,-0.31333372,-18.86577,-38.693485,73.132629
1028203125,-38.468388,51.485188,-0.30794251,-19.405056,-0.31081873,-19.383326,-39.05275,71.830292
1029687500,-38.31802,52.868217,-0.31007969,-19.961456,-0.31364,-19.96143,-38.766754,72.751587
1031171875,-38.314873,49.579437,-0.31075805,-20.502136,-0.31445161,-20.509048,-38.87738,72.097397
1032656250,-37.956089,48.241665,-0.3130348,-21.045195,-0.31377277,-21.017479,-38.471981,72.130074
1034140625,-37.979927,48.561375,-0.31464359,-21.572687,-0.31426579,-21.614794,-38.863197,72.678909
1035625000,-37.892262,45.218121,-0.31679505,-22.136095,-0.31385347,-22.121595,-38.588806,70.791924
1037109375,-38.128323,45.156879,-0.31566995,-22.643282,-0.31057316,-22.680037,-38.486046,69.007614
1038593750,-38.175903,46.371323,-0.31280944,-23.219481,-0.31620231,-23.21113,-38.433189,69.106979
1040078125,-38.014072,43.367157,-0.31343362,-23.771288,-0.31240341,-23.788021,-39.220608,67.783157
1041562500,-37.943943,44.918987,-0.31698182,-24.309828,-0.31616005,-24.338099,-38.507496,69.576302
1043046875,-37.740612,43.639385,-0.31801012,-24.859894,-0.31576517,-24.883955,-38.403885,69.89193
1044531250,-37.498901,42.640007,-0.31541383,-25.384933,-0.31420586,-25.416969,-38.37471,70.340256
1046015625,-37.855797,41.555187,-0.3195883,-25.941797,-0.31347924,-25.974194,-38.267834,66.552971
1047500000,-37.94352,39.114105,-0.3169038,-26.485678,-0.30895528,-26.496098,-38.441082,66.07679
1048984375,-37.684093,38.05743,-0.31445691,-27.048939,-0.31756014,-27.051521,-38.19173,68.24427
1050468750,-37.669094,38.462746,-0.31248257,-27.58202,-0.31539437,-27.595232,-38.602146,65.678352
1051953125,-37.567223,35.335407,-0.31758294,-28.131704,-0.31385887,-28.135872,-38.300323,64.492867
1053437500,-37.672638,36.467987,-0.31696343,-28.696375,-0.31667402,-28.690804,-38.228111,64.026329
1054921875,-37.400776,36.88266,-0.3188664,-29.231546,-0.31527051,-29.22217,-37.825531,65.039909
1056406250,-37.556828,34.437275,-0.31907204,-29.769537,-0.31690845,-29.777197,-38.108627,64.031677
1057890625,-37.584904,34.912636,-0.31841195,-30.309135,-0.31995699,-30.352419,-38.228706,63.769051
1059375000,-37.456398,34.452168,-0.31958574,-30.868992,-0.31708443,-30.889578,-38.270306,62.084938
1060859375,-37.256641,32.291142,-0.31918734,-31.412521,-0.31633466,-31.431059,-38.100979,61.823132
1062343750,-37.346699,34.7672,-0.31617576,-31.960375,-0.31805989,-31.96822,-38.066322,62.152298
1063828125,-37.236092,33.83596,-0.31823596,-32.505768,-0.31904832,-32.512512,-37.592365,61.169807
1065312500,-37.3694,31.740467,-0.32019055,-33.046227,-0.31373116,-33.078651,-37.918026,59.420216
1066796875,-37.416668,30.057648,-0.31913114,-33.610451,-0.31569481,-33.621174,-37.931431,58.20216
1068281250,-37.545731,32.504322,-0.32058194,-34.139912,-0.314816,-34.16573,-38.091705,58.177639
1069765625,-37.150452,31.39476,-0.32010469,-34.670593,-0.31807804,-34.704517,-37.830475,57.104343
1071250000,-37.309891,30.745359,-0.31821615,-35.244774,-0.31760934,-35.261467,-37.863674,57.589157
1072734375,-37.318966,28.099022,-0.31883523,-35.767853,-0.3172017,-35.796436,-38.330551,54.638798
1074218750,-37.202103,27.58452,-0.32342726,-36.326077,-0.31893516,-36.326393,-37.916992,54.65366
1075703125,-37.049953,26.961189,-0.32147306,-36.882244,-0.31969538,-36.871674,-38.004002,53.345894
1077187500,-36.786343,27.009001,-0.32143962,-37.42989,-0.31868207,-37.402767,-37.735558,54.812645
1078671875,-36.989632,26.601175,-0.31795624,-38.010216,-0.31892115,-37.975777,-38.098515,54.127827
1080156250,-37.043228,27.231634,-0.32056871,-38.515053,-0.31866717,-38.527855,-37.698235,51.286644
1081640625,-37.114887,26.279797,-0.32029089,-39.062786,-0.31825253,-39.063648,-37.428108,49.956161
1083125000,-36.888924,25.99408,-0.32112753,-39.607471,-0.32350969,-39.631165,-37.770367,49.765812
1084609375,-36.925232,23.826849,-0.3227455,-40.153328,-0.32219386,-40.16441,-37.762939,48.695042
1086093750,-36.864372,24.925308,-0.32166976,-40.709583,-0.32084662,-40.727177,-37.925728,47.816944
1087578125,-36.895771,24.408972,-0.32176724,-41.214645,-0.31927586,-41.240555,-37.700264,46.316223
1089062500,-36.61137,25.130274,-0.32288441,-41.760857,-0.31850183,-41.813862,-37.644386,46.104992
1090546875,-36.832546,22.93132,-0.32076696,-42.336216,-0.32109496,-42.354862,-37.606941,47.914337
1092031250,-36.866234,24.127333,-0.3221885,-42.881245,-0.31695011,-42.877724,-37.406918,44.551929
1093515625,-36.503948,22.745255,-0.32274383,-43.437584,-0.32187653,-43.431248,-37.726982,42.835766
1095000000,-36.444321,20.760195,-0.32383195,-43.976669,-0.32332838,-43.982861,-37.625679,41.7061
1096484375,-36.672882,22.708097,-0.32313669,-44.521103,-0.32097393,-44.520035,-37.263214,41.992973
1097968750,-36.424847,21.458141,-0.32311466,-45.057484,-0.31962246,-45.06641,-37.928253,42.157524
1099453125,-36.702183,20.124029,-0.32501757,-45.611305,-0.32301956,-45.624699,-37.226471,38.968227
1100937500,-36.587372,19.671398,-0.3227275,-46.173702,-0.32123321,-46.167992,-37.383034,39.488594
1102421875,-36.813835,19.34697,-0.32450214,-46.695602,-0.32308257,-46.715076,-37.36734,38.647251
1103906250,-36.559013,20.669792,-0.32428443,-47.263245,-0.32381192,-47.268219,-37.430336,36.614422
1105390625,-36.72575,19.984282,-0.3247951,-47.809052,-0.32442412,-47.801884,-37.383232,36.882816
1106875000,-36.175091,20.366663,-0.32318515,-48.355354,-0.32676584,-48.364132,-37.018829,34.758251
1108359375,-36.530273,18.670263,-0.33012196,-48.903927,-0.32084623,-48.898926,-37.011284,35.035625
1109843750,-36.550438,18.898737,-0.3262589,-49.454586,-0.31656229,-49.434326,-36.946766,33.234535
1111328125,-36.63858,17.121468,-0.32747585,-49.997215,-0.32411677,-49.984344,-37.219913,30.956709
1112812500,-36.633942,19.364008,-0.32627332,-50.542877,-0.32306242,-50.534351,-36.72057,33.554096
1114296875,-36.594997,17.55501,-0.32725123,-51.08704,-0.32165554,-51.083679,-36.936752,31.079451
1115781250,-36.094131,18.84651,-0.32756314,-51.622059,-0.32796308,-51.648796,-36.581295,31.024626
1117265625,-36.285702,17.110601,-0.33119416,-52.156952,-0.31978858,-52.168262,-36.408146,29.258667
1118750000,-36.664585,16.495932,-0.32559496,-52.710079,-0.32748374,-52.731804,-36.904694,26.184109
1120234375,-36.408817,16.171604,-0.32969812,-53.271797,-0.3265028,-53.261814,-36.648758,26.410816
1121718750,-36.15329,16.694735,-0.32468435,-53.808094,-0.32734329,-53.808353,-36.851429,26.746836
1123203125,-36.404518,17.100163,-0.32513127,-54.353508,-0.32659918,-54.354023,-36.807911,24.772863
1124687500,-36.245747,16.324173,-0.32741821,-54.883293,-0.3237178,-54.917389,-36.784294,24.750412
1126171875,-36.184265,15.678749,-0.3280552,-55.437778,-0.32230842,-55.458549,-36.3647,22.853607
1127656250,-36.364532,14.802939,-0.32826915,-55.986774,-0.32844329,-55.990753,-36.562599,21.621834
1129140625,-36.165623,15.46459,-0.32992467,-56.534096,-0.3250463,-56.547073,-36.557869,20.053762
1130625000,-36.05154,13.915063,-0.32594183,-57.089272,-0.32422429,-57.087025,-36.190842,22.386854
1132109375,-36.161789,16.786932,-0.33017296,-57.611233,-0.32582211,-57.645512,-36.218857,20.464819
1133593750,-36.035851,13.476892,-0.33083147,-58.155258,-0.32778206,-58.175953,-36.079102,17.631428
1135078125,-35.90456,14.918974,-0.32911074,-58.685116,-0.32729509,-58.753532,-36.231934,17.382643
1136562500,-36.034668,14.181351,-0.32945347,-59.260056,-0.32473058,-59.236946,-36.320145,16.941494
1138046875,-35.866062,14.302691,-0.3312276,-59.835304,-0.32956487,-59.820374,-35.886795,18.112093
1139531250,-36.111099,14.513481,-0.3272351,-60.357338,-0.32832319,-60.358635,-36.145218,14.711277
1141015625,-36.04335,16.076548,-0.33058491,-60.917194,-0.32963344,-60.91507,-35.862892,14.35778
1142500000,-35.804455,12.691936,-0.32994419,-61.453209,-0.32802862,-61.470165,-35.733334,13.154707
1143984375,-35.889103,10.357885,-0.33107769,-62.007496,-0.32704395,-61.981903,-35.869434,12.327793
1145468750,-36.100288,13.766153,-0.33000377,-62.544834,-0.33206382,-62.544609,-35.645039,13.53146
1146953125,-35.851513,11.107658,-0.33232054,-63.085976,-0.32900208,-63.121796,-35.882576,11.838915
1148437500,-35.794312,11.413353,-0.32843679,-63.63826,-0.33224633,-63.645248,-35.670757,10.460919
1149921875,-35.802227,10.93789,-0.33134136,-64.177116,-0.33013862,-64.185715,-35.673615,11.987783
1151406250,-35.661743,11.094404,-0.33325127,-64.717262,-0.33030629,-64.729416,-35.454159,10.843954
1152890625,-35.828224,11.79415,-0.33048874,-65.264481,-0.33232483,-65.297195,-35.820526,10.411695
1154375000,-35.891308,10.966415,-0.33096454,-65.814888,-0.32817799,-65.831772,-35.529839,9.2094717
1155859375,-35.799324,9.6500378,-0.33275789,-66.355507,-0.33180207,-66.374985,-35.331684,7.1664352
1157343750,-35.814373,7.9923816,-0.32986197,-66.896065,-0.33152491,-66.905777,-35.206059,6.1817856
1158828125,-35.839119,8.0155458,-0.33110753,-67.457985,-0.3283731,-67.469513,-35.590473,7.9492049
1160312500,-35.929256,6.3927326,-0.33162826,-68.018776,-0.32677069,-67.966949,-35.570702,4.570262
1161796875,-35.836456,8.0869064,-0.33365232,-68.528099,-0.33184147,-68.538223,-35.369972,5.4770832
1163281250,-35.573521,6.5996242,-0.33169284,-69.108986,-0.33489078,-69.120743,-35.510521,3.8507578
1164765625,-35.644188,6.986321,-0.33246669,-69.64016,-0.33181918,-69.64608,-35.359394,4.4618073
1166250000,-35.84346,5.1825275,-0.33322328,-70.164543,-0.33036858,-70.209526,-35.43343,1.1388332
1167734375,-36.014259,5.47611,-0.33600694,-70.742477,-0.33023226,-70.722504,-35.393795,2.0773482
1169218750,-35.889099,4.50349,-0.33314011,-71.262306,-0.33390954,-71.301544,-35.350567,1.4001954
1170703125,-35.880074,4.0136137,-0.33266014,-71.820045,-0.33252096,-71.820442,-35.319073,0.55395585
1172187500,-35.727909,4.3310962,-0.33660316,-72.376717,-0.33073217,-72.372757,-35.365925,-0.42448685
1173671875,-35.929749,4.3967862,-0.33451998,-72.894157,-0.33380178,-72.910706,-35.342609,-1.3297495
1175156250,-35.81601,3.7315886,-0.33375457,-73.443817,-0.33376536,-73.474495,-35.229374,-0.57670522
1176640625,-36.075958,2.197916,-0.33220571,-74.015656,-0.32968244,-73.988045,-35.508156,-1.6188742
1178125000,-35.92609,2.3561485,-0.33762306,-74.544716,-0.33508182,-74.561325,-35.741695,-2.3916552
1179609375,-35.806919,0.25286058,-0.33458382,-75.106628,-0.33516645,-75.111328,-35.524021,-1.2193874
1181093750,-35.884766,0.36139509,-0.33705127,-75.637436,-0.33359021,-75.655968,-35.263382,-4.1946011
1182578125,-36.105286,0.24463417,-0.33502263,-76.188431,-0.33338344,-76.196274,-35.522243,-3.9251406
1184062500,-36.352165,-0.40368804,-0.33401909,-76.739944,-0.33524632,-76.726021,-35.449524,-3.2222846
1185546875,-36.032658,0.38949734,-0.33614054,-77.274529,-0.33690268,-77.316414,-35.699497,-4.3310804
1187031250,-36.170238,0.27457964,-0.33869052,-77.81498,-0.33509773,-77.831078,-35.441689,-4.4305391
1188515625,-36.169067,-1.333717,-0.33808926,-78.37748,-0.33496791,-78.380226,-35.462418,-6.816988
1190000000,-35.905262,-1.9447737,-0.33616552,-78.894882,-0.33332366,-78.945747,-35.593891,-7.5670352
1191484375,-36.256451,-3.4430032,-0.33554375,-79.466576,-0.33718404,-79.470352,-35.709381,-6.3194933
1192968750,-36.342682,-2.8978682,-0.33360344,-80.026428,-0.3342987,-80.021507,-35.664669,-7.2722869
1194453125,-36.156067,-3.192368,-0.33652025,-80.576126,-0.33516774,-80.575684,-35.7547,-8.0352745
1195937500,-36.272243,-5.5969729,-0.33690265,-81.103027,-0.33618039,-81.121826,-35.678318,-7.7027879
1197421875,-36.21796,-5.4473305,-0.3383317,-81.659462,-0.33858594,-81.661552,-35.763931,-8.8720322
1198906250,-36.313522,-6.2368112,-0.33963826,-82.187843,-0.33751994,-82.218338,-35.684437,-7.9691243
1200390625,-36.293518,-5.4241967,-0.33684173,-82.743965,-0.33616111,-82.742744,-35.665497,-9.4771595
1201875000,-36.388496,-6.5811095,-0.34037414,-83.32032,-0.33674833,-83.289932,-35.76675,-12.568037
1203359375,-36.719284,-8.8990879,-0.33931786,-83.841141,-0.33782309,-83.848267,-35.837563,-13.127091
1204843750,-36.511768,-9.1139898,-0.33919585,-84.379143,-0.3374874,-84.386772,-35.945881,-11.28002
1206328125,-36.688129,-8.8336105,-0.34095237,-84.932838,-0.33609909,-84.919159,-36.118572,-11.660416
1207812500,-36.407814,-9.6828966,-0.34131235,-85.463348,-0.33717874,-85.498161,-36.038071,-13.340913
1209296875,-36.860386,-8.7524786,-0.34136578,-86.003571,-0.33538002,-86.040459,-36.18853,-13.110811
1210781250,-37.042362,-12.966948,-0.34173262,-86.57663,-0.33505419,-86.539932,-36.019421,-13.684468
1212265625,-36.737556,-12.189465,-0.33890724,-87.105743,-0.33684435,-87.116264,-36.385502,-14.06877
1213750000,-36.835442,-12.886197,-0.33935359,-87.632103,-0.33801994,-87.646286,-36.511669,-16.555964
1215234375,-37.127617,-15.378285,-0.33975971,-88.223755,-0.33760667,-88.198532,-36.167709,-14.449812
1216718750,-36.728329,-12.600866,-0.34075075,-88.735657,-0.34088194,-88.783669,-36.346275,-15.403711
1218203125,-37.196938,-15.422507,-0.34326601,-89.295029,-0.33833227,-89.298958,-36.708691,-15.979163
1219687500,-37.333424,-19.001369,-0.33927649,-89.84272,-0.33770734,-89.850624,-36.819637,-19.002064
1221171875,-37.127697,-19.193827,-0.33956984,-90.388519,-0.33768445,-90.374863,-36.786648,-17.031679
1222656250,-37.653976,-18.025425,-0.34209874,-90.930771,-0.33885458,-90.941322,-37.06913,-18.102182
1224140625,-37.115337,-18.098722,-0.33773866,-91.469826,-0.33791453,-91.491722,-37.150806,-18.923351
1225625000,-37.305305,-20.5397,-0.34171909,-92.035233,-0.33926433,-92.051102,-37.184902,-17.813934
1227109375,-37.664902,-19.818588,-0.34085554,-92.557098,-0.33936656,-92.596886,-37.185246,-19.673309
1228593750,-37.566486,-22.137268,-0.34300274,-93.119354,-0.33903804,-93.114082,-37.335247,-21.16456
1230078125,-37.706242,-21.936941,-0.34446722,-93.66021,-0.34221891,-93.674362,-37.380981,-20.09656
1231562500,-37.767727,-22.88921,-0.34250855,-94.223351,-0.33986771,-94.223938,-37.342617,-22.523041
1233046875,-37.913235,-24.726368,-0.34324932,-94.741463,-0.34114182,-94.755753,-37.30302,-25.397825
1234531250,-37.935963,-24.007166,-0.34143871,-95.287453,-0.34237042,-95.329201,-37.520275,-23.542761
1236015625,-38.126545,-24.508686,-0.34216031,-95.855904,-0.34443328,-95.85025,-37.649139,-23.89127
1237500000,-38.073612,-24.872202,-0.34141836,-96.378166,-0.33862153,-96.40654,-37.71677,-24.439554
1238984375,-38.47924,-27.102459,-0.34396517,-96.928802,-0.34202176,-96.937485,-37.89764,-23.824694
1240468750,-38.943718,-25.835419,-0.34230357,-97.482338,-0.34157446,-97.494347,-37.859638,-24.286255
1241953125,-38.531837,-27.435196,-0.34329775,-98.026749,-0.33934426,-98.057541,-38.101105,-27.686098
1243437500,-38.301079,-28.009924,-0.34517002,-98.560974,-0.34275144,-98.585098,-37.780865,-27.251043
1244921875,-38.526161,-29.172419,-0.342531,-99.129005,-0.34344956,-99.135704,-38.39571,-26.134411
1246406250,-38.918812,-32.122372,-0.34499025,-99.67205,-0.3385348,-99.671829,-38.491371,-27.05172
1247890625,-38.752003,-32.141342,-0.34478363,-100.22511,-0.33969641,-100.22648,-38.397209,-28.351601
1249375000,-39.073448,-32.998901,-0.34484342,-100.76027,-0.34226093,-100.78512,-38.269306,-30.198595
1250859375,-39.286366,-32.94603,-0.34253192,-101.30457,-0.34303993,-101.33105,-39.062569,-29.4849
1252343750,-39.105206,-34.421989,-0.34541154,-101.82971,-0.3427124,-101.85718,-38.623833,-32.533848
1253828125,-39.408039,-35.180321,-0.34453145,-102.40343,-0.34214526,-102.42176,-38.880344,-31.79899
1255312500,-39.399681,-33.866081,-0.34463799,-102.944,-0.34401149,-102.96109,-38.985535,-35.058933
1256796875,-39.219769,-34.802807,-0.34450319,-103.48361,-0.34465432,-103.5022,-39.268963,-32.197887
1258281250,-39.405937,-36.374763,-0.34410325,-104.05054,-0.34862882,-104.04916,-39.32053,-31.533979
1259765625,-39.762478,-36.924282,-0.34688893,-104.5844,-0.34616652,-104.56356,-39.056335,-35.546871
1261250000,-40.030678,-36.777897,-0.34798568,-105.12706,-0.34296465,-105.13686,-39.250816,-37.162819
1262734375,-40.102737,-37.76178,-0.34539837,-105.66783,-0.3471005,-105.69434,-39.737968,-34.764118
1264218750,-40.066086,-40.07198,-0.34601668,-106.21424,-0.34352413,-106.24293,-39.650452,-37.155621
1265703125,-40.227791,-42.736923,-0.3473525,-106.75922,-0.34660736,-106.77522,-39.675201,-40.502686
1267187500,-40.082684,-39.021992,-0.34648129,-107.29861,-0.34520772,-107.3487,-39.792965,-40.688412
1268671875,-40.723938,-43.274567,-0.34631371,-107.85135,-0.34544209,-107.88483,-39.590557,-43.760662
1270156250,-40.22641,-43.33984,-0.34758809,-108.39683,-0.34328058,-108.41815,-40.1516,-43.422653
1271640625,-40.76244,-42.741432,-0.3458696,-108.95947,-0.34746018,-108.95049,-39.951046,-42.654247
1273125000,-40.628368,-42.676098,-0.34313896,-109.52478,-0.34614837,-109.50935,-39.943718,-44.100361
1274609375,-40.473801,-43.292255,-0.34745297,-110.0291,-0.34517583,-110.06039,-40.30191,-43.515888
1276093750,-40.797325,-43.703365,-0.34889418,-110.59697,-0.34398019,-110.60055,-40.144051,-45.051872
1277578125,-41.037891,-44.292473,-0.34718922,-111.14713,-0.34528404,-111.147,-40.271938,-44.216209
1279062500,-41.15984,-46.186134,-0.35002255,-111.66236,-0.34305131,-111.70329,-40.50388,-48.000214
1280546875,-41.36021,-46.074203,-0.34951401,-112.24616,-0.3453818,-112.23849,-40.45467,-51.759544
1282031250,-41.359642,-43.073372,-0.34576392,-112.77042,-0.34636828,-112.78271,-40.480839,-50.382668
1283515625,-41.47908,-47.165634,-0.348472,-113.30991,-0.34501064,-113.33151,-40.222267,-50.519833
1285000000,-41.821018,-43.4058,-0.34772661,-113.86117,-0.34660679,-113.89712,-40.486012,-49.417137
1286484375,-41.678516,-43.259266,-0.35052162,-114.40199,-0.34618628,-114.42847,-40.77462,-53.275414
1287968750,-41.313389,-47.913227,-0.35018256,-114.96841,-0.34841377,-114.98441,-40.714165,-54.359695
1289453125,-41.457664,-44.914574,-0.34796557,-115.49761,-0.34899944,-115.51373,-40.601082,-57.262115
1290937500,-41.636944,-50.93819,-0.34799242,-116.05945,-0.34849489,-116.04845,-40.457882,-55.14492
