!CSV A.01.01
!Agilent Technologies,N5222A,MY51421451,A.09.90.02
!Agilent N5222A: A.09.90.02
!Date: Tuesday, February 11, 2014 11:34:05
!Source: Standard

BEGIN CH2_DATA
Freq(Hz),S33(DB),S33(DEG),S34(DB),S34(DEG),S43(DB),S43(DEG),S44(DB),S44(DEG)
4000000000,-31.394514,27.174299,-0.50570905,-149.94998,-0.51111913,-149.94859,-29.897696,-141.39737
4000312500,-31.432217,27.437666,-0.53894907,-151.78653,-0.4907265,-150.03801,-29.982571,-142.09526
4000625000,-31.516077,26.852938,-0.52544016,-151.32841,-0.50029993,-150.14496,-29.93088,-141.95667
4000937500,-31.520075,26.217751,-0.51987988,-150.87553,-0.50381798,-150.23389,-29.933483,-141.80592
4001250000,-31.618206,25.936584,-0.51119173,-150.53661,-0.50677913,-150.34042,-30.004824,-141.59027
4001562500,-31.585005,25.696156,-0.5086146,-150.40053,-0.50628215,-150.45032,-29.923927,-141.44902
4001875000,-31.552505,25.663059,-0.50885969,-150.45277,-0.50710136,-150.51984,-29.972603,-141.64317
4002187500,-31.529224,25.669228,-0.51249146,-150.56107,-0.50717562,-150.62215,-29.975071,-141.61327
4002500000,-31.50456,26.003881,-0.509332,-150.72113,-0.506069,-150.70428,-29.998983,-141.66083
4002812500,-31.489607,25.852882,-0.51345235,-150.89148,-0.5077759,-150.7999,-30.007479,-141.44484
4003125000,-31.49785,25.683222,-0.50987339,-150.9846,-0.5076049,-150.90559,-30.050161,-141.19955
4003437500,-31.481413,25.457521,-0.50971544,-151.08116,-0.50651187,-150.98914,-30.039068,-140.85214
4003750000,-31.489058,25.856115,-0.50800574,-151.17227,-0.50862473,-151.09068,-30.04637,-140.61639
4004062500,-31.526121,25.748375,-0.50725478,-151.26759,-0.51076061,-151.20486,-30.025394,-140.58951
4004375000,-31.53064,25.329445,-0.50711101,-151.36006,-0.50691128,-151.30551,-30.050177,-140.64232
4004687500,-31.537081,24.810068,-0.50949037,-151.44664,-0.5076564,-151.40005,-29.998224,-141.36229
4005000000,-31.573982,24.288534,-0.50886101,-151.54613,-0.50848669,-151.49062,-29.971275,-141.4635
4005312500,-31.622677,23.692785,-0.50920415,-151.64792,-0.50995851,-151.60605,-29.962252,-142.02324
4005625000,-31.67811,23.440315,-0.50734246,-151.72484,-0.5100292,-151.68526,-29.960764,-142.405
4005937500,-31.723951,23.114944,-0.51115257,-151.82779,-0.5113318,-151.76923,-29.997099,-142.77106
4006250000,-31.677895,22.987062,-0.51173896,-151.93381,-0.51174122,-151.87112,-29.995445,-142.1545
4006562500,-31.665125,23.073078,-0.50970185,-152.01241,-0.51033241,-151.98956,-29.992012,-142.09511
4006875000,-31.70525,22.8904,-0.51091045,-152.12419,-0.51121044,-152.07249,-30.038036,-141.70975
4007187500,-31.780474,22.66057,-0.51303232,-152.21317,-0.50937486,-152.16837,-30.041996,-141.91377
4007500000,-31.728796,22.851742,-0.51084071,-152.31491,-0.50846678,-152.27184,-30.006302,-141.62206
4007812500,-31.741095,22.79973,-0.51197308,-152.4198,-0.50858939,-152.3716,-30.11898,-141.85397
4008125000,-31.802029,22.860025,-0.5092442,-152.50989,-0.50634187,-152.46266,-30.116674,-141.44223
4008437500,-31.824339,22.639362,-0.50976121,-152.6062,-0.50959593,-152.54718,-30.192011,-141.54536
4008750000,-31.901611,22.612127,-0.50960618,-152.70706,-0.50719333,-152.63499,-30.182861,-141.75665
4009062500,-31.824209,22.765415,-0.50955677,-152.81725,-0.50837725,-152.7357,-30.176371,-141.22383
4009375000,-31.851221,22.554501,-0.50991893,-152.89079,-0.50672013,-152.82361,-30.181213,-141.42027
4009687500,-31.776993,22.064169,-0.50795013,-152.9937,-0.50965655,-152.93774,-30.170193,-141.57922
4010000000,-31.798855,21.622446,-0.51243156,-153.09499,-0.50879204,-153.03017,-30.095793,-141.28996
4010312500,-31.778763,21.358261,-0.51070029,-153.17018,-0.50708884,-153.13109,-30.084002,-141.18701
4010625000,-31.755781,20.303736,-0.50999576,-153.24983,-0.50810897,-153.21625,-30.133009,-141.49225
4010937500,-31.76158,19.694742,-0.50770223,-153.35223,-0.50547951,-153.31851,-30.205719,-141.43529
4011250000,-31.779663,19.052101,-0.51080555,-153.47151,-0.50779116,-153.41768,-30.219492,-140.93906
4011562500,-31.795723,18.771347,-0.51107311,-153.57323,-0.50507551,-153.51469,-30.250782,-140.59624
4011875000,-31.804537,18.720881,-0.51102668,-153.66621,-0.50844157,-153.60257,-30.294529,-140.56445
4012187500,-31.804264,19.005291,-0.51307082,-153.75529,-0.5044331,-153.70471,-30.339008,-140.56439
4012500000,-31.868067,18.909615,-0.51028585,-153.84218,-0.50521123,-153.80589,-30.348324,-140.77151
4012812500,-31.950615,18.742809,-0.51257879,-153.94923,-0.50683182,-153.881,-30.351742,-140.65723
4013125000,-31.93458,18.796474,-0.51113147,-154.0378,-0.50776625,-153.98051,-30.307976,-140.97531
4013437500,-31.981909,18.340878,-0.5124287,-154.11969,-0.50539535,-154.07326,-30.309755,-141.28447
4013750000,-31.996559,17.494097,-0.51184493,-154.21895,-0.50747108,-154.17516,-30.312641,-141.10359
4014062500,-31.916723,17.201439,-0.51143348,-154.32375,-0.50512046,-154.28709,-30.296541,-140.99257
4014375000,-31.903839,16.769871,-0.51170045,-154.43752,-0.50734603,-154.39384,-30.308126,-140.72908
4014687500,-31.895016,16.248285,-0.51287866,-154.51965,-0.50687259,-154.4738,-30.310854,-140.67638
4015000000,-31.906225,16.145592,-0.50892019,-154.62558,-0.50905484,-154.55952,-30.418015,-140.80258
4015312500,-31.82863,16.167986,-0.50883812,-154.71605,-0.51011992,-154.67047,-30.434261,-141.06557
4015625000,-31.833002,16.171724,-0.51022619,-154.7943,-0.50969416,-154.76335,-30.485025,-141.25679
4015937500,-31.861256,16.356979,-0.50917196,-154.89774,-0.5066523,-154.86145,-30.482903,-141.08958
4016250000,-31.859058,16.224731,-0.50517297,-154.99236,-0.50758106,-154.9693,-30.417942,-141.74034
4016562500,-31.895256,16.095257,-0.50827622,-155.07491,-0.50913805,-155.06302,-30.393326,-141.67487
4016875000,-31.906,16.081892,-0.5101282,-155.1853,-0.51071268,-155.16241,-30.334343,-141.51418
4017187500,-31.93285,15.771793,-0.50872701,-155.26874,-0.50731516,-155.23755,-30.279764,-141.51607
4017500000,-31.937387,15.698892,-0.5114491,-155.38904,-0.50676954,-155.34901,-30.264828,-141.19603
4017812500,-31.941881,15.442086,-0.51132053,-155.48653,-0.50736129,-155.42755,-30.240173,-141.38744
4018125000,-31.982656,15.609136,-0.50932646,-155.57823,-0.5052858,-155.52298,-30.284113,-141.10796
4018437500,-31.977377,14.756918,-0.50931484,-155.6826,-0.50826889,-155.61989,-30.334244,-141.30122
4018750000,-32.050629,14.626815,-0.51096451,-155.77396,-0.50707549,-155.71373,-30.366842,-141.24088
4019062500,-32.057003,14.415842,-0.50966346,-155.87285,-0.50806803,-155.8215,-30.339497,-141.21295
4019375000,-31.996153,13.954376,-0.5083434,-155.97903,-0.50988787,-155.93068,-30.319691,-140.91547
4019687500,-31.950108,13.429152,-0.50610721,-156.05043,-0.50895935,-155.98683,-30.301163,-140.96863
4020000000,-31.933332,12.988153,-0.51194036,-156.14606,-0.50696766,-156.11136,-30.317665,-141.09743
4020312500,-31.954933,12.24528,-0.50859898,-156.2541,-0.50683963,-156.20992,-30.296658,-141.14026
4020625000,-31.930862,11.906005,-0.50953281,-156.34865,-0.5058316,-156.29762,-30.289347,-141.0069
4020937500,-31.971842,11.541775,-0.50797904,-156.43768,-0.50673622,-156.40646,-30.391909,-140.88882
4021250000,-32.059372,11.407562,-0.50793016,-156.53319,-0.50824308,-156.49718,-30.467285,-140.85655
4021562500,-32.120758,11.265396,-0.50719851,-156.63792,-0.51179749,-156.60254,-30.544582,-140.58273
4021875000,-32.120953,11.46935,-0.5084492,-156.71884,-0.50655007,-156.7047,-30.600437,-140.45648
4022187500,-32.134613,11.461895,-0.50873518,-156.83513,-0.50881416,-156.77435,-30.634453,-140.30402
4022500000,-32.095932,11.623889,-0.50772423,-156.9066,-0.50783819,-156.88815,-30.526554,-140.71359
4022812500,-32.15358,11.3587,-0.50994903,-157.00487,-0.50934094,-156.96907,-30.477833,-140.18369
4023125000,-32.126373,11.405412,-0.51310128,-157.1279,-0.50572819,-157.06781,-30.483944,-140.39908
4023437500,-32.156651,11.294271,-0.50889283,-157.24017,-0.50803524,-157.16794,-30.39753,-140.20352
4023750000,-32.200775,10.762584,-0.51128167,-157.32176,-0.50792456,-157.25388,-30.412716,-140.41415
4024062500,-32.10413,10.433644,-0.51108372,-157.40355,-0.50919431,-157.34686,-30.389805,-140.30569
4024375000,-32.158272,10.401987,-0.50924361,-157.4917,-0.51006377,-157.44731,-30.401812,-140.68687
4024687500,-32.185226,9.868166,-0.51203513,-157.58145,-0.50738913,-157.53152,-30.435957,-140.69553
4025000000,-32.159325,9.4980097,-0.5088076,-157.65993,-0.51014084,-157.65114,-30.489141,-140.71695
4025312500,-32.127762,9.0440311,-0.51113462,-157.77354,-0.50912732,-157.7426,-30.496191,-140.60074
4025625000,-32.20195,8.3756971,-0.51233566,-157.86545,-0.50887823,-157.85014,-30.526493,-140.72659
4025937500,-32.231262,8.4905443,-0.51323372,-157.9742,-0.51042712,-157.93703,-30.555017,-140.03932
4026250000,-32.267994,7.8626118,-0.51301515,-158.09509,-0.5086925,-158.02869,-30.567787,-139.9295
4026562500,-32.334736,7.7112365,-0.51486206,-158.18997,-0.51154566,-158.11685,-30.556856,-139.87375
4026875000,-32.370087,7.8096256,-0.51317543,-158.29573,-0.51135993,-158.22507,-30.585749,-139.77373
4027187500,-32.424038,8.2939024,-0.51190597,-158.37338,-0.51039362,-158.32693,-30.592007,-139.71252
4027500000,-32.402512,8.6306629,-0.51239723,-158.47787,-0.5107097,-158.40857,-30.624935,-139.88556
4027812500,-32.444874,8.6232109,-0.51190042,-158.55597,-0.51055741,-158.50343,-30.649319,-140.19092
4028125000,-32.421204,8.3750229,-0.51143426,-158.64743,-0.51377678,-158.58717,-30.645309,-140.23462
4028437500,-32.356651,7.6966391,-0.51071846,-158.71196,-0.5113588,-158.70963,-30.543165,-140.32451
4028750000,-32.406467,7.0749335,-0.50790459,-158.85091,-0.50900805,-158.78857,-30.518187,-140.39
4029062500,-32.323307,7.1160889,-0.50777352,-158.94548,-0.50934434,-158.89793,-30.466124,-140.4388
4029375000,-32.258953,6.3642168,-0.50940025,-159.02779,-0.50989014,-158.99213,-30.415846,-139.89224
4029687500,-32.278255,6.1834202,-0.50965959,-159.13272,-0.50994051,-159.08861,-30.378458,-140.03883
4030000000,-32.295082,6.1759377,-0.50850534,-159.21574,-0.51039666,-159.16943,-30.419397,-139.15948
4030312500,-32.274158,5.5377626,-0.51067388,-159.31688,-0.51138878,-159.28592,-30.431395,-139.00891
4030625000,-32.318737,5.5580249,-0.51023871,-159.41348,-0.50656945,-159.35727,-30.415813,-138.43079
4030937500,-32.300297,5.3199501,-0.51087636,-159.51945,-0.51094806,-159.44957,-30.439619,-138.53906
4031250000,-32.328911,4.8970504,-0.51097935,-159.60931,-0.50943464,-159.55627,-30.464127,-138.69527
4031562500,-32.30088,5.1539726,-0.50963342,-159.71172,-0.51202524,-159.66216,-30.49511,-139.09277
4031875000,-32.272461,4.424696,-0.50995404,-159.81152,-0.51036114,-159.75685,-30.485088,-140.02701
4032187500,-32.29903,4.2754431,-0.5088982,-159.8958,-0.51207924,-159.85632,-30.580421,-140.50021
4032500000,-32.250359,3.9637163,-0.50802153,-159.99472,-0.51322997,-159.94409,-30.588903,-140.42429
4032812500,-32.337914,3.3244338,-0.51002777,-160.0873,-0.50775367,-160.04301,-30.634954,-140.74022
4033125000,-32.323441,2.8855793,-0.51105672,-160.18359,-0.50993222,-160.13829,-30.660007,-140.67252
4033437500,-32.410885,2.6476355,-0.50921422,-160.27843,-0.5093267,-160.25031,-30.633623,-141.05669
4033750000,-32.341236,2.0063777,-0.51032686,-160.38069,-0.50873023,-160.32309,-30.632816,-140.94543
4034062500,-32.35194,2.0950196,-0.51228189,-160.47083,-0.50947422,-160.4325,-30.652416,-140.50475
4034375000,-32.351372,1.8644406,-0.51086116,-160.57358,-0.50954217,-160.52251,-30.710653,-140.63051
4034687500,-32.459892,1.862288,-0.50986379,-160.66634,-0.5084691,-160.63115,-30.702608,-140.57625
4035000000,-32.497574,1.9915547,-0.51041764,-160.76718,-0.50921673,-160.7218,-30.677389,-140.23531
4035312500,-32.55294,1.7273351,-0.51164609,-160.86378,-0.51014161,-160.80139,-30.727072,-140.29269
4035625000,-32.639889,1.9271724,-0.51070279,-160.96783,-0.51104867,-160.91457,-30.657213,-140.0239
4035937500,-32.608315,2.1131663,-0.51393616,-161.04372,-0.51117498,-161.01144,-30.70001,-139.95642
4036250000,-32.652039,1.5936964,-0.51244885,-161.15469,-0.50733095,-161.12195,-30.672579,-139.84692
4036562500,-32.630085,1.6817423,-0.51353133,-161.25258,-0.50725752,-161.20946,-30.695274,-139.71794
4036875000,-32.604435,1.195132,-0.51237428,-161.34348,-0.51229709,-161.30475,-30.716528,-139.11359
4037187500,-32.65847,0.68343389,-0.51401746,-161.44156,-0.50812656,-161.40163,-30.685104,-139.78372
4037500000,-32.659298,-0.0058101062,-0.51071686,-161.52789,-0.5111571,-161.49078,-30.751402,-139.88307
4037812500,-32.708778,-0.30520356,-0.50957024,-161.60789,-0.50969505,-161.5941,-30.74992,-140.28586
4038125000,-32.643879,-0.54762661,-0.5085097,-161.68768,-0.50993663,-161.67963,-30.772902,-139.98166
4038437500,-32.687908,-0.90710551,-0.51145363,-161.78789,-0.50981635,-161.76636,-30.774689,-140.15778
4038750000,-32.687817,-1.2863734,-0.50900453,-161.89357,-0.51151913,-161.86926,-30.800932,-139.3268
4039062500,-32.796673,-1.0076667,-0.50901473,-161.99013,-0.51163733,-161.96928,-30.76927,-139.41234
4039375000,-32.832027,-0.83293867,-0.51296699,-162.09933,-0.50562185,-162.06979,-30.81525,-139.5061
4039687500,-32.909599,-0.5425148,-0.51024967,-162.22221,-0.51027405,-162.16202,-30.752474,-139.11809
4040000000,-32.959087,-0.71123123,-0.51148731,-162.31467,-0.50933808,-162.25259,-30.755117,-139.07004
4040312500,-32.832493,-1.0216956,-0.50972682,-162.41512,-0.50895274,-162.33623,-30.787464,-139.57196
4040625000,-32.804699,-1.097893,-0.51176053,-162.52458,-0.50946772,-162.43546,-30.806087,-139.20238
4040937500,-32.81889,-1.8075545,-0.51141483,-162.60532,-0.50818956,-162.49873,-30.788111,-139.54417
4041250000,-32.738659,-2.4613965,-0.50967294,-162.6906,-0.51059818,-162.61206,-30.860624,-139.49493
4041562500,-32.725296,-2.6408818,-0.51004672,-162.79161,-0.50873905,-162.70827,-30.80827,-139.10741
4041875000,-32.67691,-3.2460694,-0.50948238,-162.88881,-0.50847381,-162.80336,-30.846163,-139.82831
4042187500,-32.661037,-3.5080512,-0.50928217,-162.98149,-0.50834,-162.90814,-30.870485,-139.52579
4042500000,-32.677299,-4.0572305,-0.51161569,-163.07941,-0.51115078,-163.00742,-30.930113,-139.39394
4042812500,-32.680553,-4.4804201,-0.51154876,-163.16162,-0.50705516,-163.11072,-30.922857,-139.39244
4043125000,-32.719536,-4.9660878,-0.51158684,-163.27446,-0.50934452,-163.22571,-30.844036,-139.19072
4043437500,-32.665943,-4.894753,-0.50949794,-163.36586,-0.5098049,-163.32416,-30.836807,-139.13828
4043750000,-32.702728,-5.6287975,-0.50987637,-163.44505,-0.51204139,-163.4173,-30.743275,-139.02608
4044062500,-32.722317,-6.1828151,-0.50775415,-163.53639,-0.50821,-163.51129,-30.728357,-139.01312
4044375000,-32.676067,-6.3407283,-0.50946361,-163.6515,-0.51093006,-163.60353,-30.677977,-138.86201
4044687500,-32.658398,-6.4158597,-0.50867903,-163.75798,-0.51197982,-163.69499,-30.683315,-139.02727
4045000000,-32.679646,-6.3219008,-0.50944358,-163.82326,-0.51182383,-163.79831,-30.738239,-138.77962
4045312500,-32.623291,-6.2780819,-0.51067126,-163.93697,-0.51092649,-163.90253,-30.700899,-138.5737
4045625000,-32.609871,-6.1003919,-0.51149184,-164.02467,-0.51005346,-164.00117,-30.765972,-138.4369
4045937500,-32.671471,-6.2534242,-0.51086199,-164.12172,-0.51431811,-164.07063,-30.774857,-138.24518
4046250000,-32.765469,-6.6764293,-0.51251495,-164.21051,-0.51131678,-164.17049,-30.764404,-138.22246
4046562500,-32.829025,-6.6403947,-0.50879103,-164.32008,-0.50852507,-164.26155,-30.785936,-137.93004
4046875000,-32.869419,-7.2844658,-0.51009053,-164.40817,-0.50876611,-164.3699,-30.85191,-137.73138
4047187500,-32.962189,-7.4232974,-0.51151794,-164.50391,-0.51180488,-164.43263,-30.81802,-137.69125
4047500000,-32.987827,-7.837584,-0.51035309,-164.60866,-0.50838292,-164.51686,-30.896343,-137.77933
4047812500,-32.92321,-8.5905056,-0.50716954,-164.68703,-0.50966001,-164.63333,-30.923649,-137.89737
4048125000,-32.880531,-9.4695292,-0.50876713,-164.79843,-0.51022816,-164.74181,-30.963125,-138.45134
4048437500,-32.900177,-9.6467838,-0.51029342,-164.86617,-0.51079267,-164.84845,-30.950394,-138.19406
4048750000,-32.915752,-9.9178429,-0.5083558,-164.98195,-0.5116322,-164.94795,-30.987843,-138.87334
4049062500,-32.91423,-9.9199352,-0.5110268,-165.06612,-0.51147413,-165.05301,-30.988155,-138.60365
4049375000,-32.939823,-10.395062,-0.5115208,-165.1619,-0.50910455,-165.13985,-30.906233,-138.4299
4049687500,-32.898514,-9.9096193,-0.50822318,-165.27925,-0.50954008,-165.23294,-30.858189,-138.35555
4050000000,-32.850552,-9.6197205,-0.50921315,-165.37337,-0.5069176,-165.33139,-30.874474,-137.99373
4050312500,-32.910332,-9.5396566,-0.50919127,-165.45174,-0.50918484,-165.44402,-30.784954,-138.00714
4050625000,-32.862667,-9.7050018,-0.51286268,-165.56087,-0.50984073,-165.53342,-30.860407,-138.14745
4050937500,-32.830856,-10.092004,-0.51037967,-165.65714,-0.50907141,-165.62152,-30.808147,-138.17052
4051250000,-32.860291,-10.148496,-0.51222211,-165.73416,-0.51525694,-165.7029,-30.838587,-138.27229
4051562500,-32.789558,-10.719813,-0.51391917,-165.8392,-0.51192647,-165.80437,-30.848124,-138.51276
4051875000,-32.787037,-10.744442,-0.51107162,-165.92979,-0.5128836,-165.88821,-30.878839,-138.47459
4052187500,-32.843716,-11.611144,-0.51079303,-166.035,-0.5114454,-165.98341,-30.894897,-138.5101
4052500000,-32.87328,-11.456718,-0.51273996,-166.14354,-0.5114482,-166.07953,-30.990244,-138.36096
4052812500,-32.867996,-12.065751,-0.51228344,-166.23523,-0.50620657,-166.19205,-31.018534,-138.35585
4053125000,-32.888107,-12.158252,-0.51266694,-166.339,-0.509202,-166.28178,-31.059813,-138.52232
4053437500,-32.891891,-12.768201,-0.51327866,-166.42551,-0.51084739,-166.3792,-31.09197,-138.15834
4053750000,-32.883739,-13.408473,-0.5101651,-166.52899,-0.50573075,-166.47368,-31.089672,-138.59407
4054062500,-32.928719,-13.532545,-0.51345676,-166.61996,-0.51174259,-166.58272,-31.007805,-138.76707
4054375000,-32.879101,-14.378572,-0.51318163,-166.71321,-0.51157492,-166.67085,-30.998775,-138.80865
4054687500,-32.938797,-14.642904,-0.51242608,-166.81122,-0.51304352,-166.77747,-30.968752,-138.77321
4055000000,-32.913212,-14.819236,-0.51449537,-166.903,-0.51178104,-166.86818,-31.001278,-139.13603
4055312500,-32.940166,-15.012912,-0.5134719,-167.00783,-0.51147467,-166.94363,-31.037174,-138.79436
4055625000,-32.932365,-14.425846,-0.51275301,-167.09795,-0.50998354,-167.04948,-31.076288,-138.79395
4055937500,-32.895119,-15.050611,-0.51204592,-167.19527,-0.50806755,-167.14899,-31.066917,-138.44247
4056250000,-32.826561,-14.866658,-0.51292694,-167.31198,-0.50813526,-167.24692,-31.123137,-138.08846
4056562500,-32.851517,-15.343897,-0.51322526,-167.3936,-0.51001137,-167.33463,-31.116535,-138.02037
4056875000,-32.885876,-15.418039,-0.51184064,-167.49074,-0.50937438,-167.43243,-31.073359,-138.11462
4057187500,-32.884029,-15.534102,-0.51262188,-167.59024,-0.5112105,-167.53085,-31.050154,-137.79625
4057500000,-32.922836,-15.840269,-0.51284546,-167.6891,-0.50997597,-167.61574,-31.071455,-138.15125
4057812500,-32.994347,-15.819835,-0.51487803,-167.77367,-0.51188689,-167.72975,-31.091982,-137.70892
4058125000,-32.956829,-16.957256,-0.51275504,-167.88002,-0.51291025,-167.83119,-31.095877,-137.65573
4058437500,-33.010132,-16.924862,-0.50933093,-167.99547,-0.51182759,-167.92572,-31.124851,-137.52159
4058750000,-32.996147,-18.030312,-0.51214045,-168.06793,-0.50888646,-168.00061,-31.13665,-137.18805
4059062500,-33.062477,-18.504091,-0.51158679,-168.16266,-0.51255572,-168.09073,-31.107443,-136.94849
4059375000,-33.070156,-18.38052,-0.50920653,-168.27461,-0.51251912,-168.2045,-31.114017,-136.57251
4059687500,-33.108479,-17.983877,-0.51052535,-168.36084,-0.51309484,-168.29602,-31.048136,-136.5015
4060000000,-33.015385,-17.463875,-0.50992954,-168.45967,-0.5069375,-168.39911,-31.069378,-136.41574
4060312500,-32.988361,-17.274639,-0.50779313,-168.53308,-0.50669688,-168.49121,-31.032415,-136.83469
4060625000,-32.930527,-17.802275,-0.51047117,-168.63617,-0.51139104,-168.59912,-30.992308,-136.37227
4060937500,-32.913704,-17.916414,-0.51016617,-168.71388,-0.51240569,-168.69395,-31.017307,-136.39647
