!CSV A.01.01
!Agilent Technologies,N5222A,MY51421451,A.09.90.02
!Agilent N5222A: A.09.90.02
!Date: Wednesday, April 02, 2014 18:44:34
!Source: Standard

BEGIN CH1_DATA
Freq(Hz),S11(DB),S11(DEG),S12(DB),S12(DEG),S21(DB),S21(DEG),S22(DB),S22(DEG)
1000000000,-6.2130656,145.0244,-9.6909513,128.28506,-10.89074,124.81699,-6.4289289,148.85388
1000546875,-6.2141566,144.97005,-9.6909323,128.1575,-10.892045,124.71436,-6.4145589,148.78403
1001093750,-6.208415,144.93057,-9.6956501,128.05296,-10.901001,124.63324,-6.4144168,148.745
1001640625,-6.200479,144.864,-9.7011871,127.94855,-10.903162,124.49837,-6.4092503,148.6779
1002187500,-6.1944742,144.83267,-9.6977587,127.88266,-10.904976,124.43825,-6.3978338,148.65268
1002734375,-6.1911812,144.75768,-9.7040186,127.7955,-10.912201,124.29807,-6.3936682,148.60988
1003281250,-6.1862192,144.71266,-9.7029409,127.68578,-10.914459,124.20992,-6.383841,148.52611
1003828125,-6.181673,144.66141,-9.7061205,127.58272,-10.918517,124.08772,-6.3771062,148.47212
1004375000,-6.1723676,144.59901,-9.7079544,127.45795,-10.922439,123.96444,-6.3706417,148.40793
1004921875,-6.16994,144.52896,-9.7076807,127.37205,-10.927423,123.85241,-6.3614144,148.35745
1005468750,-6.1594315,144.48404,-9.7096653,127.27417,-10.930941,123.75477,-6.3583398,148.29079
1006015625,-6.1511006,144.38747,-9.7159214,127.21187,-10.933515,123.62038,-6.3539619,148.26476
1006562500,-6.1455154,144.35895,-9.718049,127.0994,-10.936705,123.57013,-6.3477745,148.21164
1007109375,-6.1428409,144.30124,-9.7198687,126.97264,-10.942326,123.47488,-6.3417935,148.15691
1007656250,-6.1353416,144.25304,-9.7242994,126.86276,-10.945804,123.38252,-6.3352313,148.11812
1008203125,-6.1279707,144.16913,-9.7205286,126.78308,-10.947377,123.24644,-6.3236442,148.06197
1008750000,-6.1203609,144.13651,-9.7264557,126.72578,-10.946142,123.16574,-6.3155074,148.03156
1009296875,-6.1160092,144.0988,-9.7274628,126.61823,-10.952825,123.07054,-6.3088307,147.94791
1009843750,-6.1097012,144.0249,-9.7300596,126.50382,-10.956629,122.93708,-6.3042436,147.87955
1010390625,-6.1070395,144.01013,-9.7339096,126.41713,-10.961264,122.88162,-6.2935247,147.83481
1010937500,-6.1008673,143.94475,-9.7340899,126.34709,-10.964898,122.75313,-6.2893844,147.79985
1011484375,-6.0980816,143.8884,-9.7356396,126.25236,-10.969534,122.65682,-6.2792301,147.7459
1012031250,-6.0956693,143.83463,-9.7353525,126.13649,-10.976991,122.53252,-6.2729936,147.68903
1012578125,-6.0838318,143.75554,-9.7409525,126.0229,-10.97271,122.41911,-6.2650847,147.61951
1013125000,-6.0777111,143.69559,-9.7408056,125.91581,-10.978865,122.29835,-6.2601871,147.58717
1013671875,-6.072751,143.64673,-9.7415028,125.81463,-10.982899,122.25674,-6.2520909,147.52138
1014218750,-6.0643773,143.56068,-9.7412252,125.7422,-10.985075,122.09789,-6.2473998,147.48801
1014765625,-6.0604863,143.53052,-9.7384291,125.62808,-10.992154,122.02913,-6.2360053,147.39731
1015312500,-6.0527749,143.49074,-9.7450752,125.50539,-10.994164,121.95081,-6.2314863,147.3584
1015859375,-6.0508065,143.43051,-9.7497053,125.39625,-10.999949,121.84563,-6.2239513,147.30397
1016406250,-6.0435724,143.37494,-9.7509232,125.33832,-11.003108,121.6992,-6.2179689,147.26416
1016953125,-6.0348454,143.32759,-9.7521877,125.26276,-11.005087,121.62081,-6.2128997,147.21042
1017500000,-6.0301189,143.26109,-9.75105,125.15472,-11.009367,121.50785,-6.2033997,147.16832
1018046875,-6.0229616,143.22064,-9.7532406,125.05151,-11.013733,121.40604,-6.196034,147.08806
1018593750,-6.0137615,143.14531,-9.7550716,124.96625,-11.0183,121.28206,-6.1927886,147.04205
1019140625,-6.01085,143.08127,-9.7568445,124.85895,-11.019881,121.16463,-6.1845851,146.9953
1019687500,-6.0034108,143.00513,-9.7605362,124.74937,-11.023725,121.02522,-6.1803322,146.92415
1020234375,-6.0010877,142.96243,-9.7633448,124.67764,-11.030215,120.94238,-6.1728778,146.88515
1020781250,-5.9939203,142.9124,-9.7616901,124.5678,-11.033166,120.85446,-6.1632466,146.84239
1021328125,-5.9884825,142.85948,-9.7656698,124.45621,-11.033021,120.77183,-6.1590781,146.76552
1021875000,-5.9767623,142.80624,-9.7634363,124.37946,-11.033144,120.68868,-6.1529484,146.70541
1022421875,-5.9727464,142.73167,-9.7717848,124.28674,-11.039474,120.56898,-6.1479607,146.66182
1022968750,-5.9701357,142.69176,-9.7696095,124.1681,-11.043212,120.46918,-6.1381626,146.60847
1023515625,-5.9706197,142.62842,-9.7747679,124.06928,-11.04737,120.3228,-6.129952,146.53886
1024062500,-5.9660163,142.60017,-9.7731857,123.96895,-11.056405,120.2571,-6.1216617,146.50829
1024609375,-5.9566164,142.55826,-9.7777538,123.90142,-11.055536,120.16923,-6.1158152,146.44508
1025156250,-5.9493089,142.5094,-9.7756281,123.81519,-11.054938,120.08945,-6.1090121,146.40131
1025703125,-5.9427934,142.42969,-9.7790747,123.69733,-11.062302,119.95004,-6.1023331,146.32935
1026250000,-5.9392929,142.37779,-9.7809124,123.5864,-11.065986,119.84805,-6.0983472,146.28625
1026796875,-5.9330697,142.30309,-9.7817364,123.48635,-11.072453,119.75668,-6.0909638,146.21536
1027343750,-5.9229684,142.24155,-9.7809925,123.37637,-11.072103,119.61668,-6.0825834,146.16679
1027890625,-5.9187555,142.18086,-9.7838192,123.29092,-11.0722,119.53525,-6.0788727,146.10963
1028437500,-5.9147263,142.11206,-9.7878904,123.17811,-11.079895,119.41049,-6.0708714,146.04601
1028984375,-5.9125218,142.03,-9.7940102,123.09352,-11.084352,119.26013,-6.066515,146.00897
1029531250,-5.9042916,141.99303,-9.7925062,122.99512,-11.083672,119.21112,-6.0595737,145.95575
1030078125,-5.9001403,141.91389,-9.7964268,122.90032,-11.089819,119.07331,-6.0532322,145.89668
1030625000,-5.8900876,141.88521,-9.7950296,122.82553,-11.090546,118.98775,-6.0458646,145.84239
1031171875,-5.8860583,141.82578,-9.7939396,122.71957,-11.094255,118.86861,-6.0382233,145.79578
1031718750,-5.8786788,141.77763,-9.7932167,122.61668,-11.099428,118.77988,-6.0291181,145.72823
1032265625,-5.8721833,141.72807,-9.7983751,122.54996,-11.098698,118.6866,-6.0243335,145.70961
1032812500,-5.8682246,141.70134,-9.8001356,122.43818,-11.103362,118.64027,-6.0161834,145.6409
1033359375,-5.8648386,141.64108,-9.7990179,122.34763,-11.111432,118.51572,-6.0109963,145.59187
1033906250,-5.8569865,141.52872,-9.8019447,122.25046,-11.114815,118.39002,-6.0042534,145.54997
1034453125,-5.8490987,141.50284,-9.8055258,122.14994,-11.114435,118.30684,-6.0006323,145.46788
1035000000,-5.842906,141.42859,-9.804491,122.0266,-11.118209,118.17623,-5.9931345,145.3846
1035546875,-5.82898,141.36488,-9.8045712,121.9256,-11.115408,118.05939,-5.9862742,145.31252
1036093750,-5.8346362,141.3197,-9.8053617,121.8158,-11.127433,117.96652,-5.978581,145.28081
1036640625,-5.8290443,141.25656,-9.8098946,121.76286,-11.127255,117.8383,-5.9727254,145.22002
1037187500,-5.8249788,141.21609,-9.8075504,121.66452,-11.132019,117.76427,-5.9635377,145.18185
1037734375,-5.8191786,141.17175,-9.8066654,121.56714,-11.136375,117.66337,-5.9584036,145.12677
1038281250,-5.8113475,141.11514,-9.8044815,121.42359,-11.136616,117.58057,-5.9472127,145.03508
1038828125,-5.8029003,141.03059,-9.8118629,121.33406,-11.135108,117.47333,-5.9466081,144.96877
1039375000,-5.8019242,140.95103,-9.8178158,121.25594,-11.140844,117.35644,-5.9433413,144.93272
1039921875,-5.7962894,140.88406,-9.8195658,121.16384,-11.148857,117.23531,-5.9378891,144.87791
1040468750,-5.789577,140.85704,-9.8165073,121.06964,-11.148431,117.13735,-5.9268694,144.82225
1041015625,-5.7793226,140.78648,-9.816102,120.97048,-11.150843,117.0111,-5.9207745,144.76122
1041562500,-5.7779164,140.73109,-9.8177586,120.85151,-11.157763,116.93265,-5.915215,144.70531
1042109375,-5.774869,140.6713,-9.8198795,120.74291,-11.157516,116.84644,-5.9085298,144.64371
1042656250,-5.7722116,140.6264,-9.8211002,120.6648,-11.166214,116.72388,-5.9037795,144.59125
1043203125,-5.7642274,140.53975,-9.822299,120.57282,-11.167887,116.59342,-5.8987703,144.53818
1043750000,-5.7567697,140.48152,-9.8275633,120.50129,-11.168089,116.52209,-5.8929815,144.49217
1044296875,-5.7496233,140.42108,-9.8237801,120.38463,-11.170858,116.42946,-5.8829641,144.4407
1044843750,-5.7490449,140.3822,-9.828455,120.2931,-11.180497,116.3348,-5.8825026,144.37924
1045390625,-5.7404375,140.32187,-9.8273668,120.19197,-11.180766,116.20896,-5.8729873,144.33719
1045937500,-5.7337584,140.27806,-9.8338499,120.1132,-11.184809,116.13338,-5.8697772,144.27512
1046484375,-5.7261863,140.21538,-9.8313437,120.01622,-11.186873,116.0191,-5.8629174,144.20978
1047031250,-5.7194743,140.17789,-9.8328876,119.94595,-11.190807,115.92193,-5.8562679,144.17563
1047578125,-5.7109661,140.12161,-9.8326674,119.86747,-11.193787,115.83382,-5.8490438,144.11226
1048125000,-5.7124467,140.03343,-9.8394623,119.72601,-11.197776,115.70505,-5.8433471,144.03378
1048671875,-5.7068939,139.96472,-9.8378172,119.62241,-11.201189,115.57404,-5.8370533,143.97362
1049218750,-5.704525,139.90582,-9.8409767,119.50402,-11.202765,115.46813,-5.834199,143.91223
1049765625,-5.698988,139.83159,-9.8386221,119.42667,-11.207372,115.3623,-5.8286328,143.87392
1050312500,-5.6893187,139.80482,-9.8386545,119.32432,-11.207592,115.33135,-5.8212147,143.80281
1050859375,-5.6854873,139.72824,-9.8446178,119.24031,-11.214066,115.19836,-5.8156381,143.77464
1051406250,-5.6804338,139.66188,-9.8440647,119.15092,-11.217355,115.10107,-5.8108125,143.71848
1051953125,-5.6763268,139.60648,-9.8468866,119.04068,-11.222065,115.00281,-5.8063402,143.64359
1052500000,-5.6645975,139.5481,-9.8506289,118.95573,-11.221083,114.90046,-5.802012,143.59743
1053046875,-5.6645904,139.50264,-9.8485909,118.84081,-11.229959,114.7991,-5.7958508,143.51979
1053593750,-5.6562643,139.44147,-9.852025,118.72605,-11.228669,114.71027,-5.7914729,143.44183
1054140625,-5.6509423,139.37114,-9.8505592,118.64289,-11.231302,114.58276,-5.7821989,143.38872
1054687500,-5.6429358,139.32002,-9.8527689,118.57098,-11.234756,114.46759,-5.7784886,143.36003
1055234375,-5.6400318,139.2765,-9.855917,118.47111,-11.236953,114.37365,-5.7728424,143.28699
1055781250,-5.63202,139.20335,-9.8590813,118.34641,-11.237987,114.27922,-5.7665596,143.22745
1056328125,-5.6300316,139.16002,-9.8555565,118.26918,-11.243335,114.19936,-5.7589784,143.18756
1056875000,-5.6304293,139.11906,-9.8611507,118.16823,-11.253831,114.09553,-5.7536469,143.15121
1057421875,-5.621882,139.06151,-9.862134,118.09248,-11.252702,113.98811,-5.7460523,143.08382
1057968750,-5.6178713,138.95764,-9.8608217,117.99419,-11.25918,113.84313,-5.7392626,143.00888
1058515625,-5.6146922,138.87425,-9.8624659,117.89642,-11.260927,113.71828,-5.735045,142.95128
1059062500,-5.6120381,138.83946,-9.8664026,117.78893,-11.267556,113.64878,-5.7305217,142.86575
1059609375,-5.6037817,138.78976,-9.8677397,117.68426,-11.268104,113.55598,-5.7285848,142.8134
1060156250,-5.59096,138.73692,-9.8669977,117.644,-11.262432,113.45836,-5.7216778,142.76335
1060703125,-5.5864663,138.63821,-9.8678579,117.54311,-11.268949,113.28212,-5.7152743,142.71158
1061250000,-5.5833335,138.59541,-9.8691187,117.42393,-11.273255,113.23845,-5.7108121,142.64252
1061796875,-5.5840964,138.50432,-9.8728514,117.33052,-11.278815,113.12785,-5.7042398,142.60048
1062343750,-5.5753679,138.46754,-9.8725157,117.20097,-11.277407,113.02284,-5.6956582,142.53125
1062890625,-5.5677867,138.4239,-9.8703766,117.13822,-11.279669,112.91534,-5.6885295,142.48196
1063437500,-5.5645442,138.37997,-9.8746548,117.06395,-11.28335,112.82243,-5.6841526,142.41484
1063984375,-5.5616784,138.32658,-9.8767128,116.96605,-11.289586,112.72272,-5.6808033,142.35968
1064531250,-5.5531101,138.2944,-9.8746214,116.88847,-11.29425,112.62582,-5.6749158,142.31215
1065078125,-5.5566597,138.24698,-9.8759851,116.76248,-11.303005,112.54324,-5.6683669,142.23845
1065625000,-5.5457754,138.16788,-9.8822136,116.66327,-11.297627,112.43008,-5.6626549,142.19846
1066171875,-5.5445266,138.08833,-9.8821535,116.55537,-11.306963,112.33053,-5.6587014,142.12868
1066718750,-5.5359612,138.03578,-9.8853216,116.45049,-11.307497,112.25352,-5.652823,142.07637
1067265625,-5.5302863,137.94875,-9.8881207,116.35462,-11.311294,112.11617,-5.6506243,142.02696
1067812500,-5.5313187,137.88629,-9.8889656,116.23985,-11.317219,112.02119,-5.6444712,141.94437
1068359375,-5.5235696,137.80627,-9.8878126,116.14548,-11.316401,111.88206,-5.6359463,141.88454
1068906250,-5.5171323,137.78317,-9.883769,116.09643,-11.318386,111.82034,-5.6289811,141.83542
1069453125,-5.50562,137.71228,-9.8840218,115.99792,-11.31387,111.71062,-5.6235285,141.7619
1070000000,-5.5046215,137.66922,-9.8849964,115.93119,-11.325813,111.62576,-5.61865,141.70485
1070546875,-5.4954739,137.6313,-9.8867207,115.82512,-11.322696,111.53345,-5.6137486,141.65034
1071093750,-5.4908395,137.53781,-9.8848629,115.70808,-11.328886,111.39336,-5.6080689,141.59555
1071640625,-5.484704,137.50987,-9.8867455,115.63244,-11.330101,111.33245,-5.6017675,141.52657
1072187500,-5.4824195,137.43683,-9.8878641,115.51966,-11.337386,111.20062,-5.5949645,141.46111
1072734375,-5.478054,137.37901,-9.8905878,115.42778,-11.34039,111.1105,-5.58955,141.3931
1073281250,-5.469914,137.31619,-9.889411,115.34293,-11.339816,111.01984,-5.5853066,141.33635
1073828125,-5.4685979,137.26709,-9.8933382,115.25753,-11.343518,110.92245,-5.5818734,141.2851
1074375000,-5.4598145,137.20549,-9.892746,115.15296,-11.345586,110.81567,-5.5727711,141.23137
1074921875,-5.4587884,137.15292,-9.8968458,115.04715,-11.353666,110.7335,-5.5720763,141.16733
1075468750,-5.4548345,137.09792,-9.8999281,114.96809,-11.356345,110.62842,-5.5664411,141.11591
1076015625,-5.4482288,137.04196,-9.9005575,114.85668,-11.355466,110.50922,-5.5626068,141.03885
1076562500,-5.4423785,136.95206,-9.8995256,114.77267,-11.355707,110.41795,-5.5514483,140.98793
1077109375,-5.4386997,136.8811,-9.8999691,114.66561,-11.362038,110.29328,-5.5457983,140.92377
1077656250,-5.4332652,136.82047,-9.8992863,114.56883,-11.365967,110.18491,-5.5413218,140.86105
1078203125,-5.4339495,136.77179,-9.901619,114.49526,-11.371157,110.08772,-5.5388341,140.79036
1078750000,-5.4284368,136.73505,-9.9012794,114.41184,-11.374313,109.98904,-5.5291929,140.72281
1079296875,-5.4213958,136.6721,-9.8997765,114.32312,-11.382683,109.88822,-5.5242367,140.6758
1079843750,-5.4133687,136.63306,-9.9014215,114.21262,-11.383882,109.77223,-5.5213094,140.60284
1080390625,-5.4095106,136.53653,-9.9025421,114.10971,-11.385177,109.64468,-5.5154548,140.54515
1080937500,-5.4045038,136.50119,-9.9051571,114.01892,-11.384394,109.57047,-5.5102901,140.46112
1081484375,-5.4037971,136.42006,-9.9079046,113.92863,-11.388704,109.44704,-5.5042338,140.39911
1082031250,-5.3968768,136.35825,-9.9083929,113.83738,-11.391654,109.34887,-5.500422,140.35167
1082578125,-5.3925409,136.30243,-9.9091864,113.71736,-11.396188,109.28306,-5.4965644,140.28731
1083125000,-5.3893394,136.23035,-9.9104986,113.61714,-11.397742,109.17548,-5.4900684,140.2549
1083671875,-5.3822556,136.16968,-9.9091549,113.54596,-11.399532,109.09606,-5.4848247,140.19305
1084218750,-5.3702273,136.12323,-9.9069033,113.44363,-11.396255,108.99181,-5.4783058,140.11548
1084765625,-5.3658619,136.09062,-9.9023647,113.36388,-11.397754,108.90361,-5.4677086,140.06018
1085312500,-5.3621035,136.01907,-9.9071989,113.27989,-11.404947,108.76472,-5.466382,139.9904
1085859375,-5.354939,135.93262,-9.9105568,113.20006,-11.407746,108.62025,-5.4612126,139.91959
1086406250,-5.3548679,135.8743,-9.9125614,113.09911,-11.413496,108.52415,-5.4565859,139.85573
1086953125,-5.3494377,135.82571,-9.914176,112.99708,-11.414905,108.4272,-5.4508686,139.8054
1087500000,-5.3479285,135.75441,-9.9165049,112.91113,-11.417239,108.35802,-5.4435501,139.7455
1088046875,-5.3415899,135.69965,-9.9192696,112.81864,-11.423078,108.25828,-5.4418292,139.69255
1088593750,-5.3352432,135.62491,-9.9209566,112.67056,-11.423226,108.16313,-5.4341788,139.62242
1089140625,-5.3325872,135.57254,-9.9192934,112.59968,-11.432621,108.0496,-5.4303842,139.5681
1089687500,-5.3247313,135.5088,-9.9220715,112.50784,-11.435027,107.9552,-5.4262905,139.50597
1090234375,-5.3167858,135.45299,-9.917284,112.41351,-11.429875,107.84079,-5.418076,139.43829
1090781250,-5.316752,135.36763,-9.9178257,112.33675,-11.436443,107.7088,-5.4138212,139.36636
1091328125,-5.3110714,135.32875,-9.9177856,112.25401,-11.436782,107.62439,-5.4070702,139.30013
1091875000,-5.3072882,135.30566,-9.9154997,112.15803,-11.44289,107.58296,-5.3992181,139.22928
1092421875,-5.3026538,135.22205,-9.9177265,112.04842,-11.444241,107.42937,-5.395762,139.14868
1092968750,-5.2952881,135.16766,-9.9170284,111.95574,-11.447702,107.35512,-5.3891397,139.08588
1093515625,-5.2934265,135.08224,-9.9187765,111.8541,-11.448293,107.23038,-5.3847585,139.02614
1094062500,-5.2880554,135.00862,-9.9227753,111.74916,-11.452915,107.12537,-5.3807716,138.94966
1094609375,-5.2768154,134.96156,-9.918561,111.65162,-11.450392,107.0219,-5.3731565,138.89142
1095156250,-5.2740102,134.87593,-9.917942,111.55055,-11.45209,106.89693,-5.3680115,138.82843
1095703125,-5.2733798,134.83669,-9.9243946,111.50104,-11.456337,106.80716,-5.3616142,138.81302
1096250000,-5.2686062,134.76523,-9.9270592,111.41914,-11.462018,106.69597,-5.3582416,138.76451
1096796875,-5.2634411,134.74234,-9.9294205,111.32058,-11.463245,106.64823,-5.3544202,138.68636
1097343750,-5.2545257,134.67183,-9.9248209,111.23375,-11.463643,106.53828,-5.3449044,138.62395
1097890625,-5.2507539,134.58575,-9.9217834,111.10042,-11.46689,106.43098,-5.3399363,138.55492
1098437500,-5.2414818,134.5378,-9.9273071,111.0171,-11.468479,106.32104,-5.3382511,138.48332
1098984375,-5.2398314,134.49124,-9.9282198,110.90032,-11.474499,106.24261,-5.3349338,138.40828
1099531250,-5.2356367,134.42065,-9.9351091,110.82092,-11.477141,106.12059,-5.3309031,138.35527
1100078125,-5.235002,134.37845,-9.930048,110.73226,-11.48179,106.0439,-5.3215704,138.30374
1100625000,-5.2310033,134.32631,-9.9324636,110.59051,-11.483873,105.97565,-5.3171701,138.21248
1101171875,-5.2259989,134.26355,-9.9305782,110.52357,-11.487239,105.83411,-5.3101826,138.13725
1101718750,-5.2184978,134.20992,-9.930521,110.43353,-11.487611,105.75133,-5.3076849,138.06628
1102265625,-5.215517,134.10475,-9.9316425,110.36431,-11.496039,105.6076,-5.3013139,138.01343
1102812500,-5.208149,134.05731,-9.9263191,110.2672,-11.49546,105.51495,-5.2911243,137.94818
1103359375,-5.2019582,133.9966,-9.9257107,110.18134,-11.492064,105.4122,-5.2858734,137.90504
1103906250,-5.1983376,133.92581,-9.9289799,110.09014,-11.498442,105.30858,-5.2796373,137.83432
1104453125,-5.1952281,133.8755,-9.9316587,110.00549,-11.502109,105.20322,-5.2800741,137.78371
1105000000,-5.1927485,133.81355,-9.9335871,109.86894,-11.509909,105.09546,-5.2748327,137.6792
1105546875,-5.1904364,133.74284,-9.9344282,109.7869,-11.51236,104.98528,-5.2689095,137.62712
1106093750,-5.1850691,133.70299,-9.9357061,109.6833,-11.50977,104.89109,-5.2634797,137.57265
1106640625,-5.1814137,133.61423,-9.938983,109.58899,-11.510787,104.81797,-5.2584124,137.52563
1107187500,-5.1759377,133.53786,-9.9369593,109.50104,-11.513394,104.67544,-5.2529583,137.45718
1107734375,-5.169425,133.50513,-9.9366436,109.38635,-11.514474,104.59938,-5.2473521,137.3694
1108281250,-5.1633987,133.43965,-9.9389668,109.31004,-11.516222,104.46526,-5.2440305,137.30164
1108828125,-5.1599317,133.37903,-9.9382915,109.21487,-11.519437,104.38432,-5.2390084,137.24654
1109375000,-5.1555805,133.29829,-9.9385481,109.10937,-11.52612,104.26942,-5.2349272,137.16142
1109921875,-5.1557159,133.23083,-9.9363146,109.03883,-11.532959,104.17282,-5.2277117,137.11703
1110468750,-5.1541662,133.18018,-9.9388981,108.92832,-11.536816,104.06654,-5.2240644,137.04184
1111015625,-5.144784,133.15317,-9.9375162,108.83019,-11.533515,103.99575,-5.2146077,136.99063
1111562500,-5.1413455,133.08778,-9.9381275,108.759,-11.539664,103.91256,-5.2100472,136.93405
1112109375,-5.1319695,132.98392,-9.9361353,108.63651,-11.533473,103.74861,-5.2018566,136.85901
1112656250,-5.1321263,132.93999,-9.9418049,108.53972,-11.543465,103.67608,-5.1999426,136.78812
