!CSV A.01.01
!Agilent Technologies,N5222A,MY51421451,A.09.90.02
!Agilent N5222A: A.09.90.02
!Date: Friday, April 04, 2014 10:46:39
!Source: Standard

BEGIN CH1_DATA
Freq(Hz),S11(DB),S11(DEG),S12(DB),S12(DEG),S21(DB),S21(DEG),S22(DB),S22(DEG)
4000000000,-35.457623,-70.015396,-0.44990104,-42.121853,-0.46157268,-42.01424,-49.039566,130.52373
4000312500,-35.305447,-69.692841,-0.44024453,-42.133877,-0.44343096,-42.154953,-51.722141,136.40321
4000625000,-35.295658,-67.9207,-0.44733638,-42.349392,-0.45067477,-42.321579,-49.889561,128.30022
4000937500,-35.235172,-66.293922,-0.44423831,-42.556194,-0.45386788,-42.499001,-48.156479,122.70908
4001250000,-35.216042,-64.854744,-0.44556892,-42.750256,-0.45779526,-42.686825,-46.647652,120.13886
4001562500,-35.067158,-63.347633,-0.44853169,-42.9445,-0.45925069,-42.860577,-46.063217,118.80836
4001875000,-35.02486,-62.561066,-0.44916525,-43.113091,-0.45846695,-43.024647,-45.607857,115.29273
4002187500,-34.943295,-61.564121,-0.44930282,-43.29533,-0.46054122,-43.194454,-45.170128,112.52722
4002500000,-34.936066,-60.834965,-0.45046887,-43.463413,-0.46134016,-43.383499,-45.189747,111.18331
4002812500,-34.805977,-59.817787,-0.44762218,-43.625725,-0.4598335,-43.555016,-44.836525,109.18076
4003125000,-34.771999,-58.474747,-0.45024166,-43.793674,-0.45883486,-43.728748,-44.253063,109.568
4003437500,-34.686607,-57.244877,-0.44923279,-43.980625,-0.46043611,-43.882099,-43.711132,108.63615
4003750000,-34.567184,-56.342735,-0.44910803,-44.127995,-0.45754343,-44.101639,-43.108913,107.57782
4004062500,-34.497219,-55.348122,-0.45117053,-44.302948,-0.45756119,-44.25853,-42.464764,107.52703
4004375000,-34.385933,-54.672188,-0.44582361,-44.482117,-0.45827267,-44.442055,-41.889179,106.42503
4004687500,-34.201527,-54.163181,-0.44677693,-44.650196,-0.45747167,-44.588768,-41.685776,103.18995
4005000000,-34.030411,-53.524349,-0.4472957,-44.823421,-0.45787993,-44.773552,-41.342991,102.81067
4005312500,-33.867352,-53.288803,-0.44627318,-45.006264,-0.46354291,-44.906628,-41.183395,102.27583
4005625000,-33.794418,-53.200237,-0.44322228,-45.169788,-0.4596563,-45.078407,-40.87785,99.973969
4005937500,-33.700855,-52.357449,-0.44628954,-45.365932,-0.45944968,-45.255905,-40.50021,98.590889
4006250000,-33.685226,-51.483871,-0.44636789,-45.529491,-0.45644185,-45.436302,-39.950497,97.344391
4006562500,-33.630699,-50.84024,-0.44851807,-45.716496,-0.45620802,-45.594479,-39.570766,97.230515
4006875000,-33.674545,-50.123981,-0.44829974,-45.872437,-0.45792967,-45.791012,-39.064644,95.94986
4007187500,-33.633987,-49.343662,-0.44658181,-46.036442,-0.4577004,-45.95903,-38.728291,96.285721
4007500000,-33.570976,-48.52256,-0.44763932,-46.201004,-0.45880324,-46.125019,-38.395168,95.363701
4007812500,-33.463356,-47.303093,-0.45071563,-46.384739,-0.45646876,-46.321766,-38.315174,96.175941
4008125000,-33.433193,-46.984646,-0.44866702,-46.54623,-0.45972323,-46.490566,-38.165028,95.477135
4008437500,-33.386597,-46.00032,-0.44677699,-46.745613,-0.46186265,-46.66674,-38.100372,94.778137
4008750000,-33.27953,-45.150555,-0.44815332,-46.909378,-0.46109527,-46.83564,-37.887478,93.888084
4009062500,-33.156124,-44.526138,-0.44946277,-47.071205,-0.45984307,-47.017139,-37.663452,93.973366
4009375000,-33.002361,-44.280441,-0.45066127,-47.245415,-0.45920545,-47.21917,-37.216877,93.948021
4009687500,-32.923431,-43.766968,-0.44666207,-47.422058,-0.46037218,-47.347721,-36.883831,93.611069
4010000000,-32.800083,-43.884567,-0.4479346,-47.600296,-0.45848852,-47.520836,-36.451176,93.293076
4010312500,-32.732422,-43.09465,-0.45150414,-47.773602,-0.45752865,-47.685272,-36.238708,92.504562
4010625000,-32.660946,-42.620609,-0.44943741,-47.93219,-0.46114403,-47.857246,-36.070553,91.906754
4010937500,-32.567936,-42.39872,-0.44921085,-48.122997,-0.45821196,-48.027111,-35.955235,91.425987
4011250000,-32.491169,-41.914696,-0.44922623,-48.285427,-0.46300375,-48.198002,-35.996891,91.17643
4011562500,-32.394936,-42.036003,-0.44939834,-48.461212,-0.45807227,-48.385376,-35.830902,90.51432
4011875000,-32.267677,-41.610802,-0.44977087,-48.617729,-0.4607977,-48.54068,-35.792877,90.106461
4012187500,-32.204735,-40.771076,-0.45007494,-48.782692,-0.4603706,-48.708012,-35.526531,89.446632
4012500000,-32.084099,-39.945343,-0.45270965,-48.972897,-0.45718738,-48.889156,-35.296188,88.653328
4012812500,-31.914124,-39.189327,-0.45043531,-49.156315,-0.45892781,-49.077831,-35.133137,87.09066
4013125000,-31.815201,-38.420544,-0.45100185,-49.3181,-0.46265915,-49.224705,-34.919571,87.047928
4013437500,-31.719917,-38.202526,-0.4513602,-49.490871,-0.45912689,-49.40789,-34.764111,86.025208
4013750000,-31.594898,-38.049698,-0.44725111,-49.670795,-0.45916829,-49.589565,-34.670906,84.927437
4014062500,-31.503956,-37.905712,-0.44984502,-49.827618,-0.45916307,-49.734512,-34.681862,84.909004
4014375000,-31.448114,-37.964127,-0.44686821,-49.989632,-0.45995307,-49.923672,-34.621666,83.989258
4014687500,-31.334929,-37.669628,-0.44759253,-50.170891,-0.46374512,-50.092255,-34.571499,84.501205
4015000000,-31.315895,-37.603584,-0.44927177,-50.332359,-0.46073928,-50.292519,-34.423241,84.402962
4015312500,-31.295389,-37.702011,-0.4500269,-50.528133,-0.46133217,-50.435844,-34.114628,84.692795
4015625000,-31.254988,-37.638607,-0.44929019,-50.678207,-0.46345547,-50.613388,-33.97998,84.749168
4015937500,-31.124302,-37.158268,-0.45152003,-50.861725,-0.4622342,-50.775249,-33.709934,84.33033
4016250000,-31.125038,-37.254017,-0.45050409,-51.041061,-0.46226078,-50.976692,-33.433304,84.653717
4016562500,-31.007793,-36.708736,-0.45477468,-51.22229,-0.45758599,-51.108173,-33.33791,84.685677
4016875000,-30.905338,-36.386242,-0.45263016,-51.388493,-0.46124247,-51.289818,-33.086327,84.526398
4017187500,-30.834608,-35.963989,-0.45190617,-51.548687,-0.46097878,-51.475246,-32.937321,84.598213
4017500000,-30.77351,-35.405251,-0.45311636,-51.749462,-0.46034092,-51.637501,-32.808434,84.377678
4017812500,-30.74069,-35.267193,-0.45092991,-51.919815,-0.45943025,-51.811607,-32.663364,83.894745
4018125000,-30.700518,-34.562305,-0.45149171,-52.07317,-0.46273664,-51.968224,-32.650295,83.293266
4018437500,-30.703247,-34.615936,-0.45108536,-52.251549,-0.45897743,-52.162682,-32.570816,83.215218
4018750000,-30.708776,-34.37661,-0.45216399,-52.419117,-0.46294895,-52.335793,-32.591377,82.845161
4019062500,-30.689472,-34.039032,-0.45160991,-52.591328,-0.46257445,-52.538094,-32.537781,82.771828
4019375000,-30.658276,-33.644234,-0.45514324,-52.724022,-0.46354499,-52.691036,-32.474884,82.836792
4019687500,-30.61396,-33.961708,-0.45150557,-52.918785,-0.46636149,-52.846661,-32.368725,83.040451
4020000000,-30.497349,-33.756546,-0.45247224,-53.099785,-0.46358383,-53.021996,-32.332966,83.186699
4020312500,-30.482513,-33.335724,-0.45590973,-53.294388,-0.46173534,-53.198586,-32.225826,83.17775
4020625000,-30.406454,-33.406555,-0.45116806,-53.460384,-0.4610793,-53.362034,-32.091469,82.884735
4020937500,-30.374195,-33.431572,-0.4504579,-53.637543,-0.46296445,-53.539841,-32.106354,82.139122
4021250000,-30.299469,-33.526577,-0.45125115,-53.790646,-0.46163344,-53.712669,-32.063442,81.410744
4021562500,-30.280659,-33.556973,-0.45213759,-53.964848,-0.46036643,-53.88028,-32.057045,80.741905
4021875000,-30.275816,-33.321815,-0.45189607,-54.115807,-0.46492538,-54.048862,-32.028008,80.227119
4022187500,-30.235308,-33.153984,-0.44977152,-54.304924,-0.46148306,-54.263325,-31.917692,79.695557
4022500000,-30.188625,-33.082962,-0.44968358,-54.461937,-0.46800134,-54.43026,-31.787363,79.592827
4022812500,-30.128416,-33.042946,-0.44857168,-54.64592,-0.46223441,-54.552261,-31.669672,79.760872
4023125000,-30.098143,-32.841011,-0.45060486,-54.811256,-0.46143535,-54.746304,-31.557516,79.930908
4023437500,-30.106089,-32.603882,-0.45100141,-54.98856,-0.46431336,-54.910229,-31.473448,79.834633
4023750000,-30.018852,-32.820679,-0.44763309,-55.164593,-0.461759,-55.079739,-31.37781,79.686668
4024062500,-29.964325,-32.872364,-0.45091367,-55.33857,-0.46455395,-55.219681,-31.390221,79.418892
4024375000,-29.928148,-32.872917,-0.44821972,-55.513908,-0.46307436,-55.40974,-31.331625,79.323555
4024687500,-29.857206,-33.040619,-0.45096067,-55.689178,-0.46371666,-55.592674,-31.286943,78.727242
4025000000,-29.882521,-33.200111,-0.45039654,-55.882977,-0.46225876,-55.745022,-31.197628,78.690315
4025312500,-29.864042,-32.94532,-0.45017257,-56.067184,-0.46240473,-55.916569,-31.227034,78.552979
4025625000,-29.90185,-32.989037,-0.44659644,-56.23082,-0.45990628,-56.090435,-31.194468,78.684883
4025937500,-29.885717,-32.704697,-0.44938397,-56.371784,-0.46346584,-56.280544,-31.226351,78.998085
4026250000,-29.947786,-32.575417,-0.4539243,-56.551308,-0.46140695,-56.454575,-31.230949,79.035706
4026562500,-29.983271,-32.54958,-0.45125198,-56.731339,-0.46222275,-56.634529,-31.153698,78.641739
4026875000,-29.964848,-32.215508,-0.44895759,-56.891308,-0.46116817,-56.813969,-31.082872,78.666725
4027187500,-29.894718,-31.651571,-0.45527312,-57.054432,-0.46440583,-56.970551,-30.97691,78.44474
4027500000,-29.825048,-31.660669,-0.45287773,-57.235302,-0.46071103,-57.126286,-30.902143,77.625626
4027812500,-29.816927,-31.598129,-0.45171094,-57.387783,-0.45991644,-57.291443,-30.826418,77.088264
4028125000,-29.767076,-31.569876,-0.45435062,-57.576069,-0.46042064,-57.469971,-30.781681,76.754601
4028437500,-29.785992,-32.098194,-0.45276982,-57.745964,-0.4634181,-57.639668,-30.814606,76.069778
4028750000,-29.818468,-32.603271,-0.45492199,-57.904427,-0.4596864,-57.803864,-30.836636,76.106041
4029062500,-29.835783,-32.978054,-0.44956025,-58.087845,-0.46135581,-58.004814,-30.805792,75.381889
4029375000,-29.8983,-32.887852,-0.44995913,-58.237293,-0.45783338,-58.166248,-30.84934,75.437317
4029687500,-29.870707,-32.940498,-0.45388514,-58.413048,-0.46170419,-58.357697,-30.824928,75.415047
4030000000,-29.821091,-32.078609,-0.45166525,-58.594105,-0.46324277,-58.499889,-30.744921,75.476768
4030312500,-29.753553,-31.813211,-0.45241567,-58.776722,-0.46404007,-58.691002,-30.663666,75.730537
4030625000,-29.71159,-31.775505,-0.4530504,-58.932804,-0.46174514,-58.865086,-30.606581,75.762718
4030937500,-29.632772,-31.395304,-0.45500916,-59.107502,-0.45795652,-59.055435,-30.579727,75.981911
4031250000,-29.615067,-31.565304,-0.45216873,-59.291111,-0.46136802,-59.199032,-30.546814,75.852554
4031562500,-29.648411,-31.787001,-0.45197687,-59.466099,-0.46134162,-59.3773,-30.576578,75.380508
4031875000,-29.657787,-32.004639,-0.45071992,-59.628719,-0.46470436,-59.514736,-30.578186,75.339783
4032187500,-29.664,-32.099667,-0.44907585,-59.811962,-0.46249828,-59.702656,-30.621016,75.149033
4032500000,-29.662844,-32.047611,-0.45017686,-59.972961,-0.46401286,-59.879894,-30.633253,74.849174
4032812500,-29.661179,-32.282261,-0.44939935,-60.134224,-0.46321607,-60.06353,-30.683689,75.081841
4033125000,-29.62937,-32.506508,-0.45113584,-60.319588,-0.46306732,-60.22636,-30.698097,74.535309
4033437500,-29.652912,-32.492233,-0.45425424,-60.483601,-0.46218804,-60.387573,-30.722685,74.776581
4033750000,-29.616137,-32.556946,-0.45376036,-60.641636,-0.46450508,-60.56509,-30.734343,74.43792
4034062500,-29.655191,-32.586319,-0.45288655,-60.853802,-0.46376976,-60.745174,-30.671303,74.231575
4034375000,-29.69747,-32.622692,-0.4523862,-61.013725,-0.46104184,-60.89967,-30.64991,73.964851
4034687500,-29.721405,-32.362179,-0.45137605,-61.156345,-0.46246609,-61.098148,-30.611021,73.461121
4035000000,-29.791727,-32.152397,-0.45080638,-61.340427,-0.46173054,-61.306557,-30.572758,73.043594
4035312500,-29.793289,-32.135281,-0.44969404,-61.514412,-0.45965308,-61.441799,-30.60507,72.823547
4035625000,-29.775345,-32.153244,-0.45163578,-61.684383,-0.45895255,-61.629616,-30.590994,72.411087
4035937500,-29.760479,-32.367561,-0.45245284,-61.86121,-0.46143284,-61.7952,-30.627884,72.589691
4036250000,-29.734835,-32.747391,-0.45196685,-62.038357,-0.46246314,-61.955013,-30.62281,72.565598
4036562500,-29.715553,-33.338654,-0.45120823,-62.204151,-0.46314529,-62.111092,-30.649967,72.834
4036875000,-29.739241,-33.556702,-0.44850588,-62.371487,-0.4644424,-62.312767,-30.667238,72.572693
4037187500,-29.696066,-33.596592,-0.45274857,-62.55394,-0.46493125,-62.472031,-30.678249,72.306313
4037500000,-29.828371,-33.482689,-0.45290211,-62.716274,-0.4616881,-62.619686,-30.578953,72.35704
4037812500,-29.892878,-32.942818,-0.45027304,-62.900764,-0.46410114,-62.805523,-30.560598,71.555054
4038125000,-29.964621,-32.452145,-0.4524304,-63.066162,-0.45675954,-62.991386,-30.534767,71.591446
4038437500,-30.014933,-32.535088,-0.44903794,-63.233406,-0.4602215,-63.164627,-30.544567,71.042427
4038750000,-29.991381,-32.334675,-0.44850734,-63.410301,-0.46382049,-63.341366,-30.590635,70.762779
4039062500,-29.988386,-32.55724,-0.45132804,-63.582989,-0.4654175,-63.506348,-30.605856,70.637131
4039375000,-29.989811,-32.278404,-0.45210224,-63.739334,-0.46538961,-63.673141,-30.672424,70.653122
4039687500,-29.978727,-32.452217,-0.45087624,-63.916698,-0.46771583,-63.872616,-30.757959,70.573166
4040000000,-29.993975,-32.65419,-0.44942316,-64.078484,-0.46822631,-64.017601,-30.778713,70.433273
4040312500,-30.046446,-32.71867,-0.45106673,-64.251617,-0.46329114,-64.195808,-30.799389,70.421394
4040625000,-30.073801,-32.832619,-0.45114291,-64.448952,-0.46134302,-64.348747,-30.779705,70.57428
4040937500,-30.145796,-33.077053,-0.45099247,-64.621246,-0.46409607,-64.528999,-30.841253,70.379745
4041250000,-30.162483,-32.99707,-0.45310766,-64.798325,-0.45633292,-64.683273,-30.829531,70.795464
4041562500,-30.267719,-33.394741,-0.45311722,-64.967598,-0.45895952,-64.869614,-30.854713,70.505402
4041875000,-30.234636,-33.344124,-0.44996196,-65.137611,-0.46090329,-65.048973,-30.85144,69.655785
4042187500,-30.300451,-33.641102,-0.45146281,-65.317764,-0.46186668,-65.213387,-30.876368,68.99707
4042500000,-30.321024,-33.612347,-0.4528566,-65.483017,-0.4640972,-65.373688,-30.926268,68.417206
4042812500,-30.317463,-33.932163,-0.45174944,-65.647057,-0.461954,-65.565796,-31.001041,67.969292
4043125000,-30.362995,-34.189735,-0.45363769,-65.823074,-0.46516517,-65.71096,-31.077555,67.889709
4043437500,-30.388815,-34.736622,-0.45006639,-66.000763,-0.46393037,-65.878441,-31.100182,67.903458
4043750000,-30.424137,-35.207947,-0.4525649,-66.144806,-0.46316138,-66.059258,-31.121536,68.091927
4044062500,-30.44916,-35.599533,-0.45006251,-66.331474,-0.4624505,-66.245354,-31.116007,67.49411
4044375000,-30.500319,-35.800659,-0.45103154,-66.516853,-0.46200746,-66.411156,-31.208714,68.116325
4044687500,-30.57099,-36.193222,-0.45112735,-66.684425,-0.46599749,-66.572289,-31.194757,68.477493
4045000000,-30.677999,-35.749947,-0.45059115,-66.838959,-0.46461174,-66.753586,-31.196003,68.712265
4045312500,-30.736629,-35.570084,-0.44832018,-67.019638,-0.4646441,-66.909058,-31.179234,68.885681
4045625000,-30.811108,-35.672794,-0.44768962,-67.211044,-0.46472564,-67.102943,-31.193094,68.623215
4045937500,-30.829,-35.472347,-0.4490515,-67.369621,-0.46655899,-67.255753,-31.25617,68.846748
4046250000,-30.757294,-35.50351,-0.44879982,-67.5336,-0.46377644,-67.417366,-31.250664,68.299492
4046562500,-30.789629,-35.655563,-0.44738346,-67.70887,-0.46480674,-67.592682,-31.349215,67.391548
4046875000,-30.7691,-35.499359,-0.45059174,-67.866119,-0.46598992,-67.775146,-31.448965,66.500885
4047187500,-30.784594,-35.7057,-0.45087233,-68.042595,-0.46363366,-67.956177,-31.523479,65.891212
4047500000,-30.789469,-35.665813,-0.44962031,-68.228226,-0.46444619,-68.11438,-31.692308,65.29261
4047812500,-30.851068,-35.705639,-0.44964725,-68.399261,-0.46336433,-68.290146,-31.720387,65.235809
4048125000,-30.919334,-36.016537,-0.4499718,-68.569107,-0.46433362,-68.477341,-31.693317,64.63517
4048437500,-30.936121,-36.107716,-0.45307609,-68.72747,-0.46312433,-68.611588,-31.755375,64.783791
4048750000,-30.986969,-36.333809,-0.45051783,-68.924156,-0.46243346,-68.808838,-31.744034,64.670876
4049062500,-31.053825,-36.589481,-0.45028079,-69.086876,-0.46018925,-68.97583,-31.736084,64.581779
4049375000,-31.091499,-36.460804,-0.44977409,-69.249146,-0.46533698,-69.144089,-31.653288,64.950844
4049687500,-31.127623,-36.511543,-0.44936067,-69.433952,-0.46378073,-69.340645,-31.606676,65.203583
4050000000,-31.193336,-36.462906,-0.44951838,-69.600685,-0.46211398,-69.507164,-31.553024,65.609062
4050312500,-31.191921,-36.385254,-0.4540692,-69.76609,-0.46467125,-69.683212,-31.591537,65.375481
4050625000,-31.235977,-36.773384,-0.45013314,-69.930237,-0.46541786,-69.832962,-31.587551,65.23069
4050937500,-31.294415,-36.963146,-0.4483231,-70.098122,-0.46251097,-70.031754,-31.683287,64.655373
4051250000,-31.325518,-37.39328,-0.44985023,-70.273209,-0.46196854,-70.194733,-31.778595,63.702374
4051562500,-31.361702,-37.505547,-0.45432469,-70.462906,-0.46518672,-70.360916,-31.936909,63.549271
4051875000,-31.424284,-37.400158,-0.44814819,-70.623505,-0.46183431,-70.522171,-32.045998,63.227573
4052187500,-31.533737,-37.530312,-0.45083541,-70.796951,-0.46412376,-70.721397,-31.974146,62.886898
4052500000,-31.60092,-37.900333,-0.45331803,-70.971649,-0.46234325,-70.903893,-32.006245,62.373753
4052812500,-31.615755,-37.631676,-0.45174956,-71.154572,-0.46239033,-71.048531,-31.976818,62.330708
4053125000,-31.681049,-37.58839,-0.45457274,-71.329781,-0.45990315,-71.222298,-31.937338,62.405712
4053437500,-31.705492,-37.998978,-0.45175585,-71.499359,-0.46057311,-71.387566,-32.222614,63.13913
4053750000,-31.770676,-38.375874,-0.45075938,-71.676315,-0.46200678,-71.563858,-32.187874,62.689602
4054062500,-31.758499,-38.824551,-0.45297572,-71.834236,-0.45937273,-71.7174,-32.161572,62.308273
4054375000,-31.872374,-39.653938,-0.45154086,-72.00869,-0.45979008,-71.916016,-32.204456,62.118305
4054687500,-31.885773,-39.763771,-0.45005089,-72.183578,-0.45933452,-72.076042,-32.236431,61.114738
4055000000,-31.951609,-39.942753,-0.45010611,-72.346329,-0.45831901,-72.245148,-32.229229,60.871056
4055312500,-31.932114,-40.164223,-0.45202518,-72.492279,-0.46137774,-72.401711,-32.244717,60.857151
4055625000,-31.927502,-40.255394,-0.45183441,-72.711823,-0.45931944,-72.561378,-32.327843,59.973297
4055937500,-31.871122,-40.522644,-0.44782922,-72.869232,-0.46238962,-72.74659,-32.306801,59.206314
4056250000,-31.910477,-40.305271,-0.45164523,-73.023186,-0.46277362,-72.909386,-32.369186,58.857994
4056562500,-31.924545,-40.54604,-0.45203474,-73.225121,-0.45860785,-73.06768,-32.4832,58.664509
4056875000,-31.998026,-40.336288,-0.44962317,-73.403938,-0.46215796,-73.263573,-32.710468,58.961281
4057187500,-32.071167,-40.656979,-0.45271173,-73.556648,-0.4582856,-73.446854,-32.869598,58.246952
4057500000,-32.103138,-41.033764,-0.45275795,-73.725052,-0.45992187,-73.598114,-32.97031,58.043892
4057812500,-32.148777,-40.836777,-0.45592862,-73.901192,-0.46100655,-73.802055,-33.077728,57.7873
4058125000,-32.24316,-41.195942,-0.45405105,-74.080734,-0.45987645,-73.952751,-33.059029,58.0019
4058437500,-32.342285,-41.051727,-0.45267034,-74.234772,-0.45841807,-74.146454,-33.175114,58.111832
4058750000,-32.348877,-41.192646,-0.4534626,-74.418007,-0.46273124,-74.324181,-33.100967,57.929657
4059062500,-32.450081,-41.192097,-0.45097706,-74.562332,-0.45812216,-74.49894,-33.144451,57.773827
4059375000,-32.517979,-41.198158,-0.45318958,-74.754272,-0.46141681,-74.658043,-33.160038,57.675438
4059687500,-32.473866,-41.431549,-0.45206326,-74.937752,-0.46120599,-74.830551,-33.092785,57.454132
4060000000,-32.525089,-41.789272,-0.45384625,-75.102203,-0.45873126,-74.985245,-33.09771,57.582211
4060312500,-32.59724,-41.724194,-0.45368364,-75.295074,-0.46234593,-75.174591,-33.027008,57.235134
4060625000,-32.621559,-41.954647,-0.45269218,-75.442024,-0.46032876,-75.339928,-33.009575,57.113667
4060937500,-32.620647,-42.169701,-0.45241976,-75.62915,-0.46141854,-75.52446,-33.001202,56.901833
4061250000,-32.70454,-42.45216,-0.45196244,-75.784973,-0.46297073,-75.67411,-33.048866,56.518215
