!CSV A.01.01
!Agilent Technologies,N5222A,MY51421451,A.09.90.02
!Agilent N5222A: A.09.90.02
!Date: Wednesday, April 02, 2014 18:13:39
!Source: Standard

BEGIN CH1_DATA
Freq(Hz),S11(DB),S11(DEG),S12(DB),S12(DEG),S21(DB),S21(DEG),S22(DB),S22(DEG)
4000000000,-28.408537,58.889515,-0.24495359,-82.387871,-0.2518523,-82.187431,-28.216284,-50.189636
4000312500,-28.658918,62.49929,-0.23603436,-82.338074,-0.23436248,-82.260551,-28.264332,-54.410126
4000625000,-28.561947,61.299679,-0.23653592,-82.460533,-0.2368647,-82.362091,-28.250805,-53.268311
4000937500,-28.482662,60.078079,-0.23958978,-82.601578,-0.2422583,-82.459984,-28.261183,-52.303207
4001250000,-28.40996,58.768635,-0.24040765,-82.732735,-0.24401917,-82.583878,-28.274199,-51.388039
4001562500,-28.369211,58.356804,-0.24235885,-82.815239,-0.24956508,-82.64669,-28.248409,-51.136047
4001875000,-28.352861,58.151836,-0.2418935,-82.941238,-0.24999136,-82.745651,-28.279598,-51.375275
4002187500,-28.304636,58.214317,-0.24293984,-83.019226,-0.25121054,-82.863327,-28.231232,-51.873768
4002500000,-28.310783,58.380611,-0.24448693,-83.099388,-0.25213099,-82.923897,-28.254787,-52.381229
4002812500,-28.292673,58.612236,-0.2412816,-83.181892,-0.25038752,-83.012512,-28.254147,-52.931721
4003125000,-28.270628,58.543819,-0.2416846,-83.269638,-0.24942423,-83.100769,-28.222351,-53.177639
4003437500,-28.25919,58.373653,-0.24200059,-83.357719,-0.24936122,-83.209335,-28.280539,-53.085651
4003750000,-28.26853,58.141937,-0.24101384,-83.454918,-0.24829561,-83.322647,-28.269758,-52.927158
4004062500,-28.212505,58.027103,-0.24237244,-83.534531,-0.25047642,-83.413994,-28.300518,-53.178421
4004375000,-28.216776,58.158405,-0.2423313,-83.646912,-0.25002152,-83.501579,-28.285597,-53.096256
4004687500,-28.241499,58.395927,-0.24027474,-83.712364,-0.2528843,-83.593193,-28.27948,-53.422031
4005000000,-28.257357,58.56105,-0.23819323,-83.811668,-0.25216797,-83.672684,-28.221447,-53.469921
4005312500,-28.271242,58.692116,-0.23806131,-83.916573,-0.24811865,-83.762337,-28.236675,-53.574471
4005625000,-28.280533,59.046139,-0.23813142,-83.999069,-0.25129804,-83.823875,-28.172356,-54.040344
4005937500,-28.270761,59.159119,-0.23604801,-84.09304,-0.25151008,-83.928391,-28.149052,-54.239002
4006250000,-28.240358,59.254086,-0.2408949,-84.17543,-0.25103578,-84.003494,-28.129536,-54.265697
4006562500,-28.151529,59.332691,-0.2416697,-84.268059,-0.24949366,-84.090889,-28.120699,-54.179302
4006875000,-28.124977,59.271938,-0.24098422,-84.340363,-0.24691942,-84.214157,-28.061857,-54.184948
4007187500,-28.079369,58.924854,-0.24145845,-84.446815,-0.24706738,-84.296066,-28.046999,-54.27142
4007500000,-28.030483,59.093288,-0.23984757,-84.52079,-0.2471099,-84.379913,-28.044949,-54.028008
4007812500,-27.998539,59.050415,-0.24148984,-84.636047,-0.25067332,-84.475494,-28.072243,-54.494099
4008125000,-27.979364,58.645706,-0.24176353,-84.705231,-0.2521303,-84.577972,-28.085569,-55.236195
4008437500,-27.940531,58.572559,-0.24176779,-84.819557,-0.25570896,-84.661667,-28.111553,-55.551334
4008750000,-27.892166,58.598072,-0.24081355,-84.912102,-0.25289196,-84.749138,-28.107758,-55.897957
4009062500,-27.913525,58.29496,-0.24124166,-84.996101,-0.25369015,-84.861732,-28.108744,-55.82098
4009375000,-27.928499,58.58926,-0.24182864,-85.090446,-0.25346822,-84.942909,-28.087006,-55.544586
4009687500,-27.88187,58.365601,-0.2426409,-85.184586,-0.25112474,-85.045654,-28.06773,-55.393383
4010000000,-27.869213,58.656723,-0.24031393,-85.284576,-0.25174892,-85.121658,-28.046198,-55.171585
4010312500,-27.911005,58.664993,-0.24198705,-85.385239,-0.25296727,-85.197517,-28.059273,-55.179451
4010625000,-27.861748,58.92728,-0.24279489,-85.470604,-0.24668273,-85.270622,-28.033379,-55.478409
4010937500,-27.863314,58.965851,-0.24161865,-85.544319,-0.25092736,-85.3536,-28.014137,-55.795258
4011250000,-27.88093,58.945122,-0.24130894,-85.637497,-0.25115058,-85.489471,-28.000586,-56.332817
4011562500,-27.873579,58.993301,-0.24052109,-85.720871,-0.24911611,-85.547935,-28.014362,-56.877987
4011875000,-27.902704,58.786064,-0.23821737,-85.799072,-0.25020346,-85.652702,-27.985735,-57.046158
4012187500,-27.885004,58.725071,-0.24211857,-85.903839,-0.24582735,-85.728714,-27.994049,-57.192085
4012500000,-27.873373,58.424026,-0.2423628,-86.010109,-0.25067949,-85.825607,-27.914721,-57.273232
4012812500,-27.890478,57.874523,-0.24671915,-86.11718,-0.24966712,-85.916901,-27.871326,-57.247364
4013125000,-27.86289,57.963383,-0.24012195,-86.187859,-0.25017279,-86.008499,-27.81064,-57.239201
4013437500,-27.855827,57.748695,-0.24409293,-86.269928,-0.24909787,-86.0839,-27.806948,-57.649952
4013750000,-27.843582,57.68222,-0.24493586,-86.370781,-0.24729417,-86.192581,-27.74781,-58.239124
4014062500,-27.835987,57.858498,-0.24099126,-86.456146,-0.2488863,-86.262016,-27.745169,-58.585709
4014375000,-27.845367,57.868183,-0.23878083,-86.542648,-0.25217021,-86.364738,-27.718281,-59.022255
4014687500,-27.847162,58.088615,-0.24079803,-86.621048,-0.25221953,-86.451172,-27.723385,-59.445328
4015000000,-27.845879,57.982166,-0.23993798,-86.722885,-0.25163788,-86.543922,-27.730125,-59.333813
4015312500,-27.846794,58.024883,-0.24221613,-86.794304,-0.25545648,-86.654228,-27.757853,-59.04023
4015625000,-27.843288,58.359699,-0.24169776,-86.89904,-0.25107703,-86.723488,-27.745089,-58.649948
4015937500,-27.832907,58.329029,-0.24534503,-86.994278,-0.24878682,-86.824394,-27.713825,-58.485073
4016250000,-27.844942,58.12252,-0.24445589,-87.095779,-0.25217032,-86.922104,-27.738037,-58.222458
4016562500,-27.867975,58.235451,-0.24686658,-87.170143,-0.25086313,-87.009346,-27.741287,-57.821808
4016875000,-27.836136,58.096935,-0.24664004,-87.277145,-0.24896304,-87.090935,-27.744719,-57.859142
4017187500,-27.835409,57.620434,-0.24572422,-87.364586,-0.25146577,-87.21376,-27.720556,-57.715927
4017500000,-27.805174,57.491364,-0.24323536,-87.469566,-0.24618477,-87.287903,-27.703108,-57.571548
4017812500,-27.790791,57.172485,-0.24615724,-87.550079,-0.25064179,-87.371727,-27.691587,-57.640751
4018125000,-27.731943,57.24725,-0.24550188,-87.634758,-0.25031942,-87.475945,-27.655771,-58.286644
4018437500,-27.690203,57.087997,-0.24229474,-87.722488,-0.25101066,-87.569794,-27.689304,-58.806557
4018750000,-27.62888,57.052933,-0.24520332,-87.809196,-0.2511664,-87.671753,-27.694128,-59.048203
4019062500,-27.584785,57.195271,-0.24357164,-87.890556,-0.25272012,-87.764542,-27.692371,-59.630421
4019375000,-27.599508,57.22971,-0.24270438,-87.996063,-0.25475815,-87.840424,-27.739473,-59.532784
4019687500,-27.572416,57.037453,-0.24625196,-88.077599,-0.2502251,-87.912613,-27.713814,-59.518616
4020000000,-27.565601,57.080933,-0.24466683,-88.182587,-0.2518577,-88.001633,-27.740063,-59.54887
4020312500,-27.556913,56.767742,-0.24507909,-88.275192,-0.25260422,-88.112259,-27.745995,-59.706043
4020625000,-27.579227,56.936859,-0.24829091,-88.369331,-0.25380892,-88.170357,-27.74865,-59.929985
4020937500,-27.578283,56.672653,-0.24385111,-88.443108,-0.25053069,-88.284821,-27.703648,-60.209927
4021250000,-27.561525,56.782833,-0.24160604,-88.534668,-0.25311866,-88.372307,-27.619854,-60.733402
4021562500,-27.526598,56.664478,-0.24639773,-88.621033,-0.25186983,-88.465561,-27.576313,-60.967464
4021875000,-27.524673,56.769062,-0.24290529,-88.716797,-0.25344941,-88.547661,-27.552706,-61.196918
4022187500,-27.522589,56.64608,-0.24453248,-88.798996,-0.25833011,-88.652306,-27.518812,-61.747303
4022500000,-27.531532,56.882236,-0.24175644,-88.872276,-0.25402379,-88.735306,-27.532232,-61.12175
4022812500,-27.509859,56.521423,-0.24392374,-88.982422,-0.25400591,-88.833519,-27.516947,-60.964458
4023125000,-27.517761,56.709354,-0.23934655,-89.082817,-0.25026003,-88.916794,-27.536533,-60.800789
4023437500,-27.503456,56.639339,-0.23934148,-89.168999,-0.2523486,-89.016495,-27.536579,-60.826401
4023750000,-27.520313,56.667374,-0.2421744,-89.264778,-0.25141677,-89.079735,-27.527159,-60.872574
4024062500,-27.504036,56.811451,-0.24258475,-89.364517,-0.25049266,-89.169975,-27.525196,-61.029625
4024375000,-27.543686,56.476124,-0.24354717,-89.461754,-0.25630394,-89.27462,-27.493776,-61.152264
4024687500,-27.527836,56.488571,-0.23940393,-89.575821,-0.254592,-89.364143,-27.489704,-61.263252
4025000000,-27.491358,56.481678,-0.24436538,-89.644936,-0.25099283,-89.446037,-27.502052,-61.537189
4025312500,-27.489231,56.345325,-0.24383457,-89.732277,-0.2537908,-89.538658,-27.511183,-61.778965
4025625000,-27.47386,56.551823,-0.24297395,-89.820053,-0.25199875,-89.627029,-27.522247,-62.207634
4025937500,-27.391174,56.687103,-0.2415207,-89.909676,-0.25223476,-89.722961,-27.580782,-62.380405
4026250000,-27.354698,56.40789,-0.24255601,-89.985764,-0.25356925,-89.822929,-27.607487,-62.782001
4026562500,-27.267471,56.333012,-0.2423849,-90.091713,-0.25332099,-89.89653,-27.599398,-62.834824
4026875000,-27.294033,56.145271,-0.24527454,-90.16655,-0.25297886,-90.01239,-27.587803,-62.880901
4027187500,-27.289469,55.943073,-0.24393705,-90.264343,-0.25361818,-90.075188,-27.565945,-62.451946
4027500000,-27.296194,55.679497,-0.24448742,-90.348083,-0.24872047,-90.181221,-27.480247,-62.417801
4027812500,-27.32877,55.214203,-0.24541126,-90.444229,-0.25036764,-90.28598,-27.397223,-62.541317
4028125000,-27.334995,55.396412,-0.24574181,-90.551865,-0.24751736,-90.356682,-27.37562,-62.548607
4028437500,-27.346491,55.88924,-0.24307834,-90.618782,-0.2481049,-90.447372,-27.326008,-62.889084
4028750000,-27.295597,56.346218,-0.24239467,-90.718704,-0.24732141,-90.532722,-27.310583,-63.345695
4029062500,-27.304928,56.402718,-0.24414837,-90.787498,-0.25180161,-90.635727,-27.288763,-63.73563
4029375000,-27.257206,56.553604,-0.24349736,-90.890747,-0.25278947,-90.713837,-27.294659,-64.026115
4029687500,-27.219257,56.317204,-0.24494319,-90.977386,-0.25229251,-90.818558,-27.311853,-64.118401
4030000000,-27.251961,55.915459,-0.24611521,-91.075569,-0.25123823,-90.917854,-27.280056,-63.882523
4030312500,-27.249317,55.373566,-0.24262832,-91.162262,-0.25248912,-90.995392,-27.354784,-63.522987
4030625000,-27.237177,55.072689,-0.24165444,-91.249367,-0.25240573,-91.090141,-27.356693,-63.294518
4030937500,-27.278313,54.81966,-0.24189527,-91.34053,-0.25102228,-91.17247,-27.367884,-63.481213
4031250000,-27.26593,54.708488,-0.24467479,-91.431297,-0.25136006,-91.30056,-27.369375,-63.351482
4031562500,-27.257215,54.846451,-0.240365,-91.52755,-0.25048396,-91.373711,-27.353531,-63.702335
4031875000,-27.25186,54.930389,-0.24079396,-91.607437,-0.25058272,-91.456367,-27.389542,-63.843697
4032187500,-27.265244,54.844494,-0.23996484,-91.727386,-0.25276253,-91.549553,-27.360142,-64.267723
4032500000,-27.264603,55.069195,-0.2413734,-91.818947,-0.24684712,-91.616943,-27.351006,-64.501152
4032812500,-27.253325,55.018097,-0.24059896,-91.903603,-0.25226516,-91.704674,-27.32626,-64.845451
4033125000,-27.254875,54.713928,-0.24361335,-91.980888,-0.25175047,-91.793961,-27.353239,-65.021454
4033437500,-27.276463,54.78743,-0.24375306,-92.071556,-0.25406834,-91.873146,-27.343632,-65.166214
4033750000,-27.291716,54.803654,-0.24295487,-92.145836,-0.25301138,-91.996231,-27.354013,-65.487823
4034062500,-27.262583,54.653942,-0.2466777,-92.260612,-0.25263578,-92.058861,-27.344454,-65.500542
4034375000,-27.253853,54.185623,-0.24469002,-92.339249,-0.25071222,-92.171524,-27.327507,-65.30191
4034687500,-27.198174,54.277702,-0.2436984,-92.435257,-0.24969189,-92.262787,-27.283491,-65.289215
4035000000,-27.18796,54.068771,-0.24514559,-92.527733,-0.24960178,-92.363617,-27.246042,-65.269203
4035312500,-27.183271,54.088688,-0.24515957,-92.608543,-0.24811439,-92.453545,-27.214205,-65.669762
4035625000,-27.144537,53.720848,-0.24265769,-92.699387,-0.24903907,-92.571785,-27.211651,-65.514984
4035937500,-27.197674,53.716637,-0.2451209,-92.780167,-0.25623542,-92.648628,-27.225676,-65.938652
4036250000,-27.233526,53.77179,-0.24430464,-92.890793,-0.25119799,-92.723846,-27.237593,-66.010155
4036562500,-27.282063,53.798038,-0.24321875,-92.983788,-0.25164425,-92.804436,-27.252054,-65.946571
4036875000,-27.304148,53.838848,-0.24299218,-93.066109,-0.25219163,-92.889885,-27.285414,-66.171021
4037187500,-27.275244,53.911953,-0.2418609,-93.161201,-0.25119388,-92.992966,-27.262156,-66.115593
4037500000,-27.226204,54.052101,-0.24551702,-93.245621,-0.25094581,-93.082573,-27.255737,-66.123718
4037812500,-27.161518,53.760242,-0.24443449,-93.352654,-0.25162792,-93.179237,-27.192383,-65.926872
4038125000,-27.10215,53.511173,-0.24453285,-93.445465,-0.25006238,-93.273193,-27.157722,-66.138962
4038437500,-27.070261,53.322018,-0.24646586,-93.517662,-0.25029901,-93.358734,-27.169239,-66.10746
4038750000,-27.063456,53.044312,-0.24606755,-93.62674,-0.25167698,-93.466316,-27.141439,-66.255386
4039062500,-27.052107,52.826496,-0.24409711,-93.704788,-0.2542994,-93.545845,-27.122641,-66.650978
4039375000,-27.07325,52.482471,-0.24534382,-93.767204,-0.25444737,-93.621071,-27.141754,-66.831558
4039687500,-27.069004,52.682838,-0.24235527,-93.861984,-0.25409007,-93.712944,-27.137693,-67.21283
4040000000,-27.078596,52.494007,-0.24438651,-93.961342,-0.25669518,-93.816925,-27.149738,-67.296173
4040312500,-27.062988,52.591335,-0.24752586,-94.048454,-0.25157064,-93.88308,-27.167381,-67.534798
4040625000,-27.055782,52.324791,-0.24389172,-94.152817,-0.24893034,-93.970963,-27.183699,-67.612259
4040937500,-27.01473,52.402256,-0.2425378,-94.251511,-0.2495326,-94.063644,-27.205849,-67.662941
4041250000,-27.016176,52.325108,-0.24156825,-94.356606,-0.25083074,-94.163551,-27.191864,-67.644112
4041562500,-27.0182,52.211292,-0.24448766,-94.451958,-0.25153786,-94.25061,-27.164303,-67.446846
4041875000,-26.981148,52.421131,-0.24574502,-94.535576,-0.25129667,-94.337242,-27.120235,-67.775955
4042187500,-27.005722,52.393707,-0.24612886,-94.624298,-0.25140196,-94.431236,-27.069855,-67.78791
4042500000,-26.974701,52.361076,-0.24268436,-94.708282,-0.25214592,-94.54155,-27.051245,-68.21624
4042812500,-26.990788,52.309174,-0.24531756,-94.808884,-0.2565957,-94.593369,-27.000988,-68.451218
4043125000,-26.989359,52.384052,-0.24329247,-94.88324,-0.25515044,-94.708992,-26.984833,-68.8974
4043437500,-27.03311,52.516891,-0.24482565,-94.980934,-0.2552405,-94.793724,-26.980829,-68.957199
4043750000,-27.059046,52.50285,-0.24300906,-95.077911,-0.25614607,-94.894211,-27.031918,-69.012154
4044062500,-27.06295,52.432297,-0.24256407,-95.163437,-0.25290379,-94.975533,-27.012884,-68.906281
4044375000,-27.06377,52.515049,-0.24592793,-95.251587,-0.25581995,-95.085808,-27.037354,-69.061058
4044687500,-27.045065,52.430668,-0.24259877,-95.33857,-0.24934351,-95.179626,-27.084497,-68.808044
4045000000,-26.987881,52.562778,-0.24371898,-95.441772,-0.25455326,-95.238884,-27.104481,-69.058296
4045312500,-26.930723,52.503662,-0.24347262,-95.536156,-0.25242704,-95.349915,-27.150526,-68.821838
4045625000,-26.898388,52.325016,-0.24197203,-95.617722,-0.2553567,-95.446228,-27.172146,-68.714935
4045937500,-26.899036,52.110363,-0.24217416,-95.714226,-0.25093216,-95.509064,-27.174524,-68.994972
4046250000,-26.94795,51.784927,-0.24296044,-95.797234,-0.25886282,-95.606789,-27.118958,-69.061607
4046562500,-26.951067,51.580467,-0.24181812,-95.87088,-0.25269392,-95.708344,-27.080818,-69.352974
4046875000,-26.968981,51.505394,-0.24490115,-95.967857,-0.25375795,-95.798164,-26.993046,-69.971123
4047187500,-26.965082,51.166103,-0.24373373,-96.073914,-0.25310031,-95.883217,-26.990564,-70.45237
4047500000,-26.985836,50.923561,-0.24459721,-96.153091,-0.25586057,-95.998833,-26.946938,-70.605568
4047812500,-26.957642,51.134468,-0.24321251,-96.233749,-0.25362512,-96.056473,-26.911762,-70.715164
4048125000,-26.963091,50.750343,-0.24613413,-96.331917,-0.25099578,-96.168701,-26.878206,-70.764488
4048437500,-26.930834,50.868931,-0.24742424,-96.429977,-0.25165281,-96.261612,-26.939087,-70.762894
4048750000,-26.918524,50.768703,-0.24227245,-96.532379,-0.25414085,-96.323341,-26.881184,-70.848877
4049062500,-26.917444,50.951721,-0.24362804,-96.583595,-0.25464964,-96.420006,-26.905993,-70.657204
4049375000,-26.932278,50.695797,-0.2401751,-96.705284,-0.25713849,-96.532448,-26.928926,-70.143761
4049687500,-26.914858,50.742397,-0.24287413,-96.792526,-0.25718915,-96.625778,-26.980221,-70.320564
4050000000,-26.912083,50.628002,-0.24314055,-96.878517,-0.25732428,-96.706421,-26.971331,-69.640266
4050312500,-26.90345,50.672112,-0.24504007,-96.949692,-0.25324312,-96.785301,-26.993488,-69.824501
4050625000,-26.887213,50.491962,-0.24021968,-97.061699,-0.25768605,-96.933708,-26.967926,-69.759308
4050937500,-26.912256,50.701214,-0.24171853,-97.142738,-0.25350764,-96.985725,-26.905331,-70.105766
4051250000,-26.902002,50.517159,-0.24730574,-97.242897,-0.25711462,-97.07785,-26.904818,-70.542198
4051562500,-26.875538,50.429588,-0.24599072,-97.339394,-0.25131875,-97.170258,-26.872784,-71.028877
4051875000,-26.896393,50.417244,-0.24703258,-97.409775,-0.2510367,-97.265137,-26.853748,-71.317352
4052187500,-26.864635,50.303638,-0.24541242,-97.529686,-0.24967931,-97.359856,-26.85981,-71.066017
4052500000,-26.837023,50.361919,-0.24776807,-97.622238,-0.25243723,-97.429054,-26.816465,-70.951851
4052812500,-26.830191,50.165051,-0.24603178,-97.71386,-0.25312525,-97.528305,-26.824327,-70.908997
4053125000,-26.820934,49.855427,-0.24874742,-97.794319,-0.25122774,-97.639603,-26.792751,-70.853745
4053437500,-26.812561,49.910248,-0.24830604,-97.889771,-0.25573331,-97.697815,-26.91074,-71.715996
4053750000,-26.821608,50.07552,-0.24477142,-97.98365,-0.25103596,-97.794495,-26.89176,-71.437653
4054062500,-26.830296,50.211056,-0.24349222,-98.072456,-0.25119081,-97.881058,-26.870123,-71.448837
4054375000,-26.844522,50.342766,-0.24471407,-98.167427,-0.25453973,-97.986824,-26.859768,-71.368912
4054687500,-26.850203,50.626068,-0.24488974,-98.249519,-0.25105906,-98.094086,-26.806602,-71.561638
4055000000,-26.866035,50.310951,-0.24267836,-98.326263,-0.24917176,-98.160873,-26.757305,-71.433022
4055312500,-26.8941,50.174095,-0.24501616,-98.429451,-0.25484926,-98.258034,-26.736433,-71.478172
4055625000,-26.884945,50.053135,-0.2439239,-98.527504,-0.25198531,-98.312103,-26.689877,-71.763313
4055937500,-26.896935,49.861561,-0.24281365,-98.597733,-0.24888644,-98.393806,-26.650736,-71.602959
4056250000,-26.908941,49.644596,-0.24540046,-98.698219,-0.25110698,-98.50872,-26.617847,-71.840538
4056562500,-26.880159,49.583271,-0.24608783,-98.78717,-0.25359726,-98.596886,-26.643871,-72.409393
4056875000,-26.88279,49.404095,-0.24672453,-98.889313,-0.25217956,-98.711441,-26.650812,-72.830605
4057187500,-26.847214,49.441643,-0.24546404,-98.973671,-0.25341663,-98.795586,-26.636333,-73.233757
4057500000,-26.840107,49.321278,-0.24791685,-99.055588,-0.25502113,-98.868874,-26.676233,-73.738861
4057812500,-26.842354,49.170124,-0.24972054,-99.158493,-0.25276884,-98.966797,-26.647854,-74.034637
4058125000,-26.784733,49.325779,-0.24517497,-99.233551,-0.25149935,-99.070183,-26.6684,-74.044983
4058437500,-26.763447,49.40387,-0.24925643,-99.326309,-0.25199586,-99.174622,-26.673683,-74.30249
4058750000,-26.753117,49.108315,-0.24606933,-99.440605,-0.2532323,-99.261673,-26.699306,-74.384827
4059062500,-26.702297,49.020897,-0.24733038,-99.510895,-0.25011235,-99.360085,-26.719456,-74.352058
4059375000,-26.691305,49.100918,-0.24815516,-99.611176,-0.25328946,-99.428238,-26.706858,-74.396065
4059687500,-26.672304,49.14175,-0.24857895,-99.709473,-0.25297353,-99.53228,-26.685827,-74.173119
4060000000,-26.672028,49.132824,-0.2460575,-99.786469,-0.25311124,-99.614204,-26.723104,-74.020821
4060312500,-26.687332,48.99007,-0.24846946,-99.873756,-0.25182593,-99.691689,-26.697643,-73.954689
4060625000,-26.667303,48.982513,-0.24557112,-99.971329,-0.25260225,-99.788803,-26.708763,-73.696289
4060937500,-26.653049,48.824669,-0.24604236,-100.06696,-0.25406316,-99.880157,-26.685328,-73.768646
4061250000,-26.657938,48.983273,-0.24996655,-100.14947,-0.2531161,-99.977753,-26.659197,-73.809967
