!CSV A.01.01
!Agilent Technologies,N5222A,MY51421451,A.09.90.02
!Agilent N5222A: A.09.90.02
!Date: Wednesday, May 21, 2014 11:25:21
!Source: Standard

BEGIN CH4_DATA
Freq(Hz),S33(DB),S33(DEG),S34(DB),S34(DEG),S43(DB),S43(DEG),S44(DB),S44(DEG)
4000000000,-30.360186,16.491594,-0.51302034,-74.991425,-0.52080995,-75.081146,-32.054859,6.8633013
4000312500,-30.539978,17.982325,-0.54834008,-76.937248,-0.50338376,-75.29821,-32.317982,4.3577633
4000625000,-30.542814,17.206068,-0.53508192,-76.620773,-0.5083369,-75.497009,-32.209557,3.1436458
4000937500,-30.549807,17.096487,-0.52597791,-76.273666,-0.51560408,-75.715576,-32.136089,3.0040488
4001250000,-30.554008,16.562038,-0.52034837,-76.020645,-0.51640588,-75.908257,-32.074764,2.8438592
4001562500,-30.495329,16.575306,-0.51722878,-75.976402,-0.51642132,-76.10463,-32.071716,2.6560862
4001875000,-30.41782,16.803823,-0.51747006,-76.119576,-0.51935124,-76.301498,-32.116364,2.2829828
4002187500,-30.384199,16.67403,-0.51866776,-76.359039,-0.51704639,-76.506668,-32.072849,2.5203302
4002500000,-30.342245,16.44009,-0.52023178,-76.631569,-0.51493496,-76.719856,-32.082405,2.2394316
4002812500,-30.345642,16.675297,-0.51825994,-76.897881,-0.51736736,-76.921074,-32.122261,1.9987798
4003125000,-30.322075,16.654749,-0.51806527,-77.080063,-0.51655,-77.125694,-31.983236,1.6313413
4003437500,-30.386965,16.771347,-0.51997048,-77.283226,-0.5185889,-77.335716,-32.025505,1.4228015
4003750000,-30.381247,17.048677,-0.51940489,-77.474251,-0.51769149,-77.546562,-31.900612,1.3424711
4004062500,-30.446693,17.375601,-0.51798135,-77.684738,-0.51779562,-77.737137,-31.890854,1.5244563
4004375000,-30.392349,17.565197,-0.51990253,-77.888802,-0.51845348,-77.947723,-31.945271,0.81385183
4004687500,-30.427397,17.25872,-0.51872224,-78.113266,-0.51597303,-78.154137,-31.993465,0.53533185
4005000000,-30.393869,17.131985,-0.51730859,-78.312042,-0.51645428,-78.335709,-32.113796,-0.44505909
4005312500,-30.364351,16.883228,-0.51795137,-78.516373,-0.51655173,-78.545479,-32.214233,-1.4629406
4005625000,-30.349274,16.98213,-0.51946425,-78.719009,-0.51940513,-78.726768,-32.246109,-1.8077735
4005937500,-30.37221,16.565187,-0.51716137,-78.933617,-0.5168801,-78.928627,-32.223675,-2.6670563
4006250000,-30.449383,16.631382,-0.51766586,-79.137581,-0.51597083,-79.133545,-32.157017,-3.1402533
4006562500,-30.474615,16.76211,-0.52064371,-79.332626,-0.51794118,-79.339401,-32.140305,-3.2196083
4006875000,-30.511822,17.001068,-0.51973075,-79.548218,-0.51451027,-79.571434,-32.075283,-3.5466087
4007187500,-30.495905,17.216955,-0.51997972,-79.718445,-0.51578534,-79.76194,-32.036663,-4.1487355
4007500000,-30.46051,17.111906,-0.51954275,-79.922234,-0.51473027,-79.969116,-31.967735,-4.6891575
4007812500,-30.458717,16.872271,-0.5225578,-80.128937,-0.51648033,-80.178032,-31.942631,-5.2753096
4008125000,-30.459108,16.765144,-0.52379966,-80.34404,-0.51691425,-80.402634,-31.913824,-5.772697
4008437500,-30.470802,15.877258,-0.52481133,-80.547676,-0.51827461,-80.594543,-31.914307,-6.1813183
4008750000,-30.467731,15.664839,-0.52209425,-80.753235,-0.51533794,-80.769478,-31.874226,-6.2711263
4009062500,-30.446611,15.827596,-0.52108645,-80.975815,-0.51732236,-80.961594,-32.020588,-6.3144522
4009375000,-30.500456,15.961777,-0.51971239,-81.158363,-0.51854169,-81.174187,-32.076103,-6.5413685
4009687500,-30.543232,15.765555,-0.52257556,-81.354454,-0.51770258,-81.371292,-32.089977,-6.5294003
4010000000,-30.549149,15.879494,-0.51957321,-81.541985,-0.51364833,-81.579285,-32.080372,-6.3552337
4010312500,-30.56024,15.515664,-0.51777947,-81.765305,-0.51683825,-81.778206,-32.158295,-6.3404636
4010625000,-30.622993,15.727686,-0.51860321,-81.956299,-0.51446575,-81.992165,-32.111202,-7.3230181
4010937500,-30.586554,16.391001,-0.52030188,-82.141716,-0.51662004,-82.199036,-32.086437,-8.1334419
4011250000,-30.603636,16.85693,-0.52036595,-82.358368,-0.51439202,-82.409927,-32.128704,-8.6859102
4011562500,-30.593472,17.010386,-0.51890451,-82.558258,-0.51637143,-82.620224,-32.079006,-9.6049042
4011875000,-30.605848,16.838612,-0.52050626,-82.752975,-0.51546228,-82.837746,-32.075947,-9.8062735
4012187500,-30.570726,17.242319,-0.52113116,-82.958908,-0.51836145,-83.019531,-32.075665,-10.405632
4012500000,-30.565722,16.894648,-0.51713973,-83.172714,-0.51711607,-83.217964,-32.016811,-10.999351
4012812500,-30.56377,16.665543,-0.51903081,-83.365639,-0.51624262,-83.446999,-32.02026,-10.77509
4013125000,-30.542116,16.446156,-0.51828438,-83.567238,-0.51474804,-83.621811,-31.942108,-10.987984
4013437500,-30.523298,16.372501,-0.51991105,-83.764847,-0.5173412,-83.848999,-31.977533,-11.303522
4013750000,-30.492779,16.419411,-0.52263421,-83.977272,-0.51597881,-84.03627,-31.999249,-11.785831
4014062500,-30.494297,16.350685,-0.52340561,-84.189468,-0.51537448,-84.222305,-32.065094,-12.036851
4014375000,-30.520758,16.100891,-0.51833689,-84.402016,-0.51619458,-84.43663,-32.061947,-12.365254
4014687500,-30.523308,16.123379,-0.52070642,-84.610352,-0.51770318,-84.616524,-32.08852,-12.959062
4015000000,-30.564182,16.031609,-0.51842874,-84.807671,-0.51865572,-84.852219,-32.085049,-13.532454
4015312500,-30.608683,16.354431,-0.516617,-85.006569,-0.51638937,-85.041969,-32.055725,-13.795576
4015625000,-30.602322,16.467686,-0.51576543,-85.200729,-0.51591742,-85.245499,-32.001816,-14.477116
4015937500,-30.646179,16.793247,-0.51648539,-85.395798,-0.5213775,-85.449318,-32.097572,-14.668134
4016250000,-30.704802,16.889551,-0.51564181,-85.603622,-0.52273905,-85.664322,-32.052109,-15.242604
4016562500,-30.675207,16.723003,-0.51736438,-85.80294,-0.5201354,-85.851601,-32.06926,-15.573384
4016875000,-30.672218,16.527565,-0.5158807,-86.020088,-0.51979679,-86.048607,-32.004139,-15.910463
4017187500,-30.689892,16.37623,-0.51668113,-86.195999,-0.51889849,-86.248108,-32.071583,-16.223635
4017500000,-30.677729,15.799743,-0.51979458,-86.397003,-0.51689214,-86.449814,-32.019558,-16.583607
4017812500,-30.685911,15.755064,-0.51858735,-86.616226,-0.51615232,-86.667847,-32.008518,-17.034239
4018125000,-30.694269,15.539023,-0.51945263,-86.822418,-0.51937509,-86.858673,-31.9748,-17.500191
4018437500,-30.636028,15.491129,-0.51884234,-87.015968,-0.51940876,-87.072868,-31.962643,-18.115717
4018750000,-30.604067,15.596313,-0.52055329,-87.226097,-0.51852149,-87.248032,-31.931351,-18.66633
4019062500,-30.617445,15.342404,-0.52064842,-87.418976,-0.51978999,-87.45105,-31.958565,-18.77029
4019375000,-30.623451,15.573325,-0.52244937,-87.624786,-0.51816404,-87.656456,-31.991817,-19.852249
4019687500,-30.657009,15.455588,-0.52298695,-87.833664,-0.52099699,-87.876312,-31.956438,-19.677906
4020000000,-30.710821,15.447258,-0.52139395,-88.030411,-0.5207451,-88.072357,-31.98707,-19.842314
4020312500,-30.715023,15.078874,-0.52525151,-88.238968,-0.51804477,-88.250031,-32.020359,-20.831917
4020625000,-30.750633,15.075527,-0.52577871,-88.43103,-0.51814353,-88.486374,-31.981108,-20.954975
4020937500,-30.76083,15.110947,-0.5251165,-88.65126,-0.51704502,-88.675095,-32.079006,-21.272715
4021250000,-30.76445,15.30142,-0.52264661,-88.846581,-0.51352048,-88.895401,-32.057411,-21.517452
4021562500,-30.7155,15.479616,-0.52145284,-89.040306,-0.51258254,-89.083656,-32.0625,-21.866354
4021875000,-30.726595,15.674509,-0.52293932,-89.243317,-0.51668918,-89.286194,-32.051342,-22.369368
4022187500,-30.746811,15.859877,-0.52169937,-89.450409,-0.51485121,-89.491722,-32.01614,-23.017822
4022500000,-30.678915,15.664489,-0.52304298,-89.63414,-0.51917613,-89.687469,-32.047905,-22.658018
4022812500,-30.651459,15.878332,-0.52576232,-89.858383,-0.51718313,-89.896446,-31.930664,-23.012285
4023125000,-30.619623,15.634083,-0.52127117,-90.052879,-0.52017576,-90.110641,-31.86208,-23.033823
4023437500,-30.595259,15.834947,-0.5217185,-90.27507,-0.51898789,-90.290848,-31.870764,-23.576948
4023750000,-30.58531,15.670578,-0.5237515,-90.467392,-0.5202015,-90.505753,-31.833878,-23.793701
4024062500,-30.615728,15.816644,-0.5223515,-90.677589,-0.52399039,-90.712471,-31.858416,-24.635303
4024375000,-30.602177,15.873631,-0.52250284,-90.862633,-0.51797009,-90.908211,-31.872377,-25.477365
4024687500,-30.60627,15.925027,-0.52455133,-91.069252,-0.51741314,-91.119324,-31.896362,-25.689177
4025000000,-30.557501,15.75706,-0.52303815,-91.266792,-0.51662576,-91.340622,-32.054779,-26.40749
4025312500,-30.615633,15.743926,-0.51829445,-91.474342,-0.5176928,-91.522507,-32.046471,-26.476501
4025625000,-30.555897,15.762626,-0.52008146,-91.674126,-0.51755953,-91.744698,-32.081806,-27.07176
4025937500,-30.552162,15.558706,-0.52087474,-91.871117,-0.51900578,-91.95681,-32.119259,-26.926941
4026250000,-30.569155,15.717208,-0.52028036,-92.070168,-0.51587367,-92.131714,-32.146507,-27.388237
4026562500,-30.545263,15.558044,-0.51960856,-92.275879,-0.51986128,-92.348274,-32.129917,-27.833084
4026875000,-30.664301,15.390701,-0.52046108,-92.480461,-0.51928127,-92.565659,-32.083885,-28.341284
4027187500,-30.600996,15.848479,-0.52069646,-92.690445,-0.51899558,-92.745193,-32.032356,-28.776571
4027500000,-30.621565,15.821835,-0.51983184,-92.901482,-0.51866961,-92.962151,-32.022049,-28.923014
4027812500,-30.647116,16.05151,-0.52256113,-93.075302,-0.51738894,-93.154503,-32.036781,-29.328224
4028125000,-30.657923,15.714394,-0.52324837,-93.303917,-0.5152505,-93.351158,-32.019848,-29.557005
4028437500,-30.663799,15.727803,-0.51916409,-93.519524,-0.51855278,-93.556732,-31.939135,-30.48403
4028750000,-30.707098,15.537848,-0.51888442,-93.701889,-0.52011824,-93.758789,-32.021019,-31.132849
4029062500,-30.698753,15.575727,-0.51450497,-93.920334,-0.52175999,-93.96653,-32.039871,-31.91671
4029375000,-30.756256,15.042087,-0.51559019,-94.109467,-0.51693672,-94.166161,-32.01524,-31.819643
4029687500,-30.749407,15.152958,-0.51958442,-94.320206,-0.52135479,-94.365387,-32.034325,-32.104515
4030000000,-30.762375,14.865807,-0.51874429,-94.517052,-0.51907033,-94.577255,-31.988361,-32.895866
4030312500,-30.724146,14.938093,-0.51739103,-94.724991,-0.52221704,-94.783707,-31.935062,-33.238018
4030625000,-30.732338,14.484806,-0.52065462,-94.911621,-0.51978606,-94.964539,-31.865185,-33.796284
4030937500,-30.649858,14.529256,-0.52179444,-95.13134,-0.52087086,-95.155823,-31.832188,-34.31823
4031250000,-30.659903,14.437899,-0.52202433,-95.318932,-0.5211457,-95.349251,-31.852385,-34.709244
4031562500,-30.720425,14.688619,-0.52058822,-95.526695,-0.52209491,-95.56041,-31.855349,-35.011234
4031875000,-30.778595,14.836732,-0.51725811,-95.732765,-0.5186618,-95.766075,-31.935457,-35.272148
4032187500,-30.79034,14.819648,-0.52196729,-95.940186,-0.52128506,-95.972137,-31.973499,-35.877762
4032500000,-30.762342,14.91796,-0.52162439,-96.157562,-0.51995224,-96.172394,-31.964117,-35.793488
4032812500,-30.788349,14.826888,-0.51990575,-96.346977,-0.52055472,-96.376808,-31.938177,-35.840717
4033125000,-30.759239,14.541292,-0.51927495,-96.556648,-0.52094662,-96.59565,-32.033379,-36.711422
4033437500,-30.760273,14.301515,-0.51791906,-96.761063,-0.52178407,-96.798149,-31.981276,-37.054958
4033750000,-30.810959,13.988621,-0.51747727,-96.947716,-0.52103221,-97.004303,-31.938148,-37.249775
4034062500,-30.759666,13.913486,-0.51975274,-97.154053,-0.52219915,-97.180779,-31.957825,-37.169666
4034375000,-30.797314,13.82459,-0.52031076,-97.358955,-0.51840264,-97.393997,-31.905085,-37.6609
4034687500,-30.848635,13.930631,-0.52105141,-97.575996,-0.51857454,-97.602783,-31.913343,-37.994873
4035000000,-30.851231,13.784725,-0.52109104,-97.772415,-0.51746023,-97.799271,-31.899658,-38.715782
4035312500,-30.881306,13.886472,-0.52285278,-97.970909,-0.51444966,-97.999718,-31.920673,-39.068089
4035625000,-30.912485,13.920133,-0.52326387,-98.147041,-0.5163238,-98.189384,-31.958075,-39.467148
4035937500,-30.91427,14.047382,-0.52094382,-98.356247,-0.51882577,-98.390739,-31.978012,-40.09206
4036250000,-30.934,14.148582,-0.52055079,-98.575851,-0.51839781,-98.598442,-32.036739,-40.973705
4036562500,-30.903809,14.063956,-0.52025706,-98.741493,-0.52184445,-98.79763,-32.120579,-41.297302
4036875000,-30.933756,14.061128,-0.52087373,-98.970978,-0.52245945,-99.00174,-32.097565,-41.910271
4037187500,-30.892441,14.432762,-0.52418125,-99.169235,-0.52142143,-99.228386,-32.145992,-41.87788
4037500000,-30.871178,14.201846,-0.52180493,-99.380585,-0.52037746,-99.41201,-32.108414,-42.509331
4037812500,-30.902498,14.763418,-0.52156377,-99.583893,-0.52232099,-99.612839,-32.003952,-43.153931
4038125000,-30.875687,14.512516,-0.52063614,-99.797989,-0.52147144,-99.811668,-32.039848,-43.518181
4038437500,-30.825388,15.056961,-0.52142745,-99.998947,-0.51946485,-100.02446,-32.013107,-43.687405
4038750000,-30.836657,15.039302,-0.52370614,-100.20639,-0.51949608,-100.23832,-31.963156,-43.828812
4039062500,-30.764328,14.939713,-0.52323788,-100.42012,-0.5193221,-100.42667,-31.994343,-43.587681
4039375000,-30.77726,14.743575,-0.52476209,-100.61183,-0.52131289,-100.62688,-32.004227,-44.043163
4039687500,-30.811663,14.411345,-0.51939976,-100.81019,-0.51782185,-100.82271,-32.008064,-43.795509
4040000000,-30.794462,14.225223,-0.5218572,-101.02953,-0.51748663,-101.03749,-32.026939,-43.977531
4040312500,-30.755808,14.00462,-0.5206551,-101.22698,-0.51995075,-101.24242,-32.050484,-44.557709
4040625000,-30.849627,14.065966,-0.51942647,-101.41889,-0.51731783,-101.42159,-32.044521,-45.25869
4040937500,-30.827188,13.848476,-0.52243364,-101.61907,-0.51825118,-101.64717,-32.05632,-45.777699
4041250000,-30.861979,13.898206,-0.52053642,-101.82774,-0.52173096,-101.85193,-32.09063,-46.414391
4041562500,-30.877081,13.581693,-0.51992851,-102.03418,-0.52104288,-102.05643,-32.079998,-47.348026
4041875000,-30.856663,13.508047,-0.52039766,-102.22292,-0.52246445,-102.27151,-31.957472,-47.411934
4042187500,-30.785072,13.635969,-0.52326721,-102.42578,-0.52052993,-102.46822,-32.006943,-47.871891
4042500000,-30.816053,13.490211,-0.52357656,-102.62157,-0.52216768,-102.66431,-31.996197,-48.194656
4042812500,-30.767578,13.903741,-0.52386379,-102.80832,-0.52074778,-102.85763,-31.994881,-48.434074
4043125000,-30.827717,13.708995,-0.52252227,-103.01863,-0.52088881,-103.06651,-31.939547,-48.579563
4043437500,-30.867794,13.536336,-0.52470845,-103.21991,-0.51752841,-103.29024,-31.947598,-48.932125
4043750000,-30.975189,13.591855,-0.52202505,-103.42596,-0.51925033,-103.47723,-31.946218,-49.987919
4044062500,-31.016844,13.713204,-0.52420026,-103.63409,-0.51670301,-103.67841,-31.917574,-50.049583
4044375000,-31.054022,13.856757,-0.52367902,-103.84372,-0.5168913,-103.86882,-31.918114,-50.808704
4044687500,-31.045095,13.754896,-0.52255428,-104.05455,-0.51735377,-104.06798,-31.947468,-50.957737
4045000000,-30.997623,13.587478,-0.52289563,-104.24622,-0.52085525,-104.29076,-31.95471,-51.598782
4045312500,-30.933918,13.560747,-0.52377111,-104.45652,-0.52177513,-104.47331,-32.020943,-51.89592
4045625000,-30.900309,12.922067,-0.52222568,-104.64972,-0.52140689,-104.68697,-32.054459,-52.11956
4045937500,-30.861141,13.002429,-0.5228976,-104.84818,-0.52085632,-104.88628,-32.093323,-52.751484
4046250000,-30.857138,13.027608,-0.52206576,-105.05075,-0.52261865,-105.10463,-32.001198,-52.841606
4046562500,-30.828604,13.765658,-0.52367306,-105.25596,-0.52050561,-105.29244,-31.948414,-53.538315
4046875000,-30.860645,13.440636,-0.52412844,-105.456,-0.52050775,-105.51105,-31.9482,-53.936359
4047187500,-30.823772,13.844358,-0.52179897,-105.64238,-0.51965153,-105.70461,-31.92692,-54.039047
4047500000,-30.8571,13.4585,-0.52335268,-105.8513,-0.51684481,-105.9075,-31.947458,-54.665901
4047812500,-30.874523,13.12046,-0.52084196,-106.05492,-0.52138782,-106.10537,-31.953283,-54.906406
4048125000,-30.842232,13.126021,-0.52062917,-106.25726,-0.52196062,-106.28539,-32.017792,-55.648815
4048437500,-30.85578,12.489391,-0.52269721,-106.48424,-0.52136075,-106.52193,-31.979641,-56.889317
4048750000,-30.836323,12.336119,-0.52399623,-106.68639,-0.52357405,-106.7177,-32.00581,-56.956192
4049062500,-30.856054,12.604471,-0.52092701,-106.89771,-0.52102256,-106.91824,-32.005623,-57.384483
4049375000,-30.840939,12.4191,-0.5238412,-107.08587,-0.52327025,-107.12822,-31.986982,-57.756496
4049687500,-30.792143,12.637324,-0.52259451,-107.27838,-0.51951915,-107.33975,-31.957218,-57.821877
4050000000,-30.793493,12.744704,-0.52188581,-107.48378,-0.52110881,-107.53992,-31.93442,-57.713093
4050312500,-30.761812,13.154325,-0.52206981,-107.6737,-0.52277392,-107.75703,-31.956871,-58.351475
4050625000,-30.805229,12.836804,-0.52202153,-107.86247,-0.52150422,-107.9592,-31.962582,-58.674118
4050937500,-30.789173,12.836951,-0.52265012,-108.0923,-0.52083182,-108.13432,-31.928869,-58.677692
4051250000,-30.842253,12.963042,-0.52344263,-108.3018,-0.52090472,-108.3372,-31.919067,-59.22253
4051562500,-30.81189,12.921802,-0.52301633,-108.50887,-0.51805532,-108.53976,-31.940746,-59.918812
4051875000,-30.863895,12.915095,-0.52367276,-108.70245,-0.51890934,-108.73386,-31.924936,-60.050831
4052187500,-30.865351,12.824759,-0.52356267,-108.9103,-0.51904476,-108.94276,-31.995094,-60.593914
4052500000,-30.857534,12.742701,-0.52180523,-109.11449,-0.52080256,-109.13668,-31.91124,-61.408611
4052812500,-30.810062,12.89837,-0.52258885,-109.31009,-0.52232069,-109.36077,-31.901033,-61.9664
4053125000,-30.834038,12.876162,-0.52136809,-109.51509,-0.52083725,-109.57618,-31.99374,-62.688919
4053437500,-30.834438,12.999544,-0.51892728,-109.71397,-0.51991522,-109.7743,-31.979599,-62.98724
4053750000,-30.816608,13.32481,-0.52041143,-109.90529,-0.52054757,-109.9705,-31.997726,-63.957565
4054062500,-30.8727,13.302378,-0.52249551,-110.11925,-0.52006859,-110.18865,-31.991058,-63.927219
4054375000,-30.86433,13.301065,-0.52496076,-110.31985,-0.52113128,-110.35222,-31.980869,-64.368835
4054687500,-30.835339,13.707418,-0.52313459,-110.5247,-0.52083606,-110.56658,-32.046471,-64.584579
4055000000,-30.886332,13.973418,-0.52135324,-110.71929,-0.52020162,-110.76811,-32.022736,-64.907913
4055312500,-30.883787,13.702448,-0.5206362,-110.93087,-0.52529162,-110.97409,-32.087639,-65.49585
4055625000,-30.88121,14.0401,-0.51710981,-111.12245,-0.5203374,-111.18274,-32.089905,-65.839836
4055937500,-30.917479,13.854034,-0.52053386,-111.32995,-0.52235585,-111.38691,-32.057571,-66.047043
4056250000,-30.85215,13.751609,-0.52016503,-111.55398,-0.52316546,-111.59653,-32.092239,-66.398331
4056562500,-30.852787,13.424591,-0.51955193,-111.7472,-0.52070296,-111.78588,-32.06049,-67.227913
4056875000,-30.864323,13.659728,-0.52168399,-111.9485,-0.52339435,-112.00295,-32.030716,-66.940544
4057187500,-30.869333,13.585978,-0.52269268,-112.13459,-0.52370614,-112.19253,-32.050552,-67.054657
4057500000,-30.823318,13.870539,-0.52521968,-112.35704,-0.52351999,-112.39114,-31.924242,-67.184372
4057812500,-30.853899,13.428531,-0.52393579,-112.55469,-0.52254289,-112.60448,-31.904297,-67.715408
4058125000,-30.822945,13.64847,-0.52289778,-112.73927,-0.51810926,-112.82262,-31.84836,-67.752441
4058437500,-30.877867,13.315233,-0.5214119,-112.94133,-0.52368951,-113.01694,-31.837845,-68.525642
4058750000,-30.850012,13.557615,-0.52209467,-113.16502,-0.52212423,-113.21027,-31.829519,-69.350555
4059062500,-30.841564,13.315617,-0.52261108,-113.35787,-0.5252139,-113.41602,-31.846451,-69.884254
4059375000,-30.858635,13.349221,-0.52057159,-113.54443,-0.52113038,-113.61851,-31.866508,-70.631744
4059687500,-30.81708,13.201681,-0.52094609,-113.76577,-0.52550852,-113.81437,-31.91054,-70.965569
4060000000,-30.772921,13.295864,-0.51906115,-113.9678,-0.52175951,-114.00948,-31.904358,-71.547676
4060312500,-30.748083,12.954262,-0.52072716,-114.1703,-0.52312994,-114.23059,-31.913698,-71.968185
4060625000,-30.741976,12.876036,-0.52299589,-114.36345,-0.52332741,-114.43238,-31.952625,-72.614708
4060937500,-30.732313,13.178733,-0.52049839,-114.57378,-0.52215195,-114.63786,-31.982376,-72.641037
4061250000,-30.738276,13.371631,-0.52079439,-114.77173,-0.5228641,-114.82639,-32.000584,-72.626724
