!CSV A.01.01
!Agilent Technologies,N5222A,MY51421451,A.09.90.02
!Agilent N5222A: A.09.90.02
!Date: Wednesday, January 15, 2014 17:15:05
!Source: Standard

BEGIN CH1_DATA
Freq(Hz),S11(DB),S11(DEG),S12(DB),S12(DEG),S21(DB),S21(DEG),S22(DB),S22(DEG)
4000000000,-31.471823,-146.09674,-0.88296831,129.09303,-0.89675367,129.24518,-30.769899,-143.54788
4000312500,-31.475567,-146.41566,-0.87390947,129.08205,-0.87557769,129.14046,-30.717411,-143.93634
4000625000,-31.469265,-146.60506,-0.87411171,128.9429,-0.87561107,128.96428,-30.724459,-144.18936
4000937500,-31.447355,-147.18326,-0.87451428,128.76704,-0.87371707,128.81261,-30.759802,-144.18262
4001250000,-31.400587,-147.12935,-0.87514931,128.6212,-0.87414861,128.66879,-30.709618,-143.9133
4001562500,-31.463554,-147.62033,-0.87398499,128.46774,-0.87315768,128.49879,-30.74493,-144.15314
4001875000,-31.415335,-147.39847,-0.87491477,128.31453,-0.87409377,128.3289,-30.694874,-144.35867
4002187500,-31.474722,-146.98354,-0.87443697,128.16142,-0.87323225,128.1786,-30.688955,-144.09846
4002500000,-31.451834,-146.74779,-0.87411195,128.01378,-0.87368506,128.02486,-30.7598,-144.31413
4002812500,-31.375004,-146.46313,-0.87383968,127.85915,-0.873411,127.8452,-30.770525,-144.48999
4003125000,-31.339142,-146.48273,-0.87371331,127.6895,-0.87400854,127.71641,-30.762238,-144.74974
4003437500,-31.359116,-146.50743,-0.87578398,127.52697,-0.87307239,127.55579,-30.799677,-144.51894
4003750000,-31.435337,-147.00899,-0.87846142,127.36228,-0.87679768,127.4049,-30.822338,-144.463
4004062500,-31.434526,-147.78337,-0.87602073,127.21606,-0.87355912,127.23045,-30.783895,-144.29706
4004375000,-31.499626,-148.15117,-0.87562734,127.06149,-0.87683809,127.08707,-30.777937,-144.2066
4004687500,-31.545177,-148.46219,-0.87611747,126.87614,-0.87040567,126.90327,-30.782246,-143.97957
4005000000,-31.630798,-148.55595,-0.87620664,126.71431,-0.87558681,126.7487,-30.738089,-144.41309
4005312500,-31.609743,-148.00114,-0.87464982,126.55539,-0.87455022,126.59626,-30.762897,-144.48489
4005625000,-31.592041,-148.37694,-0.87860745,126.40413,-0.87292624,126.4409,-30.806438,-144.36711
4005937500,-31.571991,-148.35893,-0.87677532,126.23542,-0.87245876,126.28947,-30.755468,-145.04671
4006250000,-31.526451,-148.8763,-0.87237489,126.08603,-0.87440968,126.13056,-30.827499,-145.12753
4006562500,-31.502651,-148.90677,-0.87601572,125.91026,-0.87301004,125.98098,-30.776556,-145.18272
4006875000,-31.463768,-149.39351,-0.87403989,125.76978,-0.875,125.83035,-30.728817,-145.61736
4007187500,-31.505413,-149.48087,-0.87424976,125.5984,-0.87226325,125.64738,-30.667681,-145.52061
4007500000,-31.501919,-149.81151,-0.87264395,125.4542,-0.8720786,125.51507,-30.625942,-145.75887
4007812500,-31.491819,-149.99846,-0.8756367,125.29309,-0.87629658,125.33717,-30.60445,-145.85193
4008125000,-31.435862,-150.5945,-0.87371981,125.13446,-0.87311107,125.17024,-30.617575,-146.06065
4008437500,-31.482203,-150.56105,-0.87374943,125.00067,-0.87445116,125.00914,-30.62929,-145.88623
4008750000,-31.46888,-150.41911,-0.87421578,124.82437,-0.8720758,124.83745,-30.663605,-145.80504
4009062500,-31.509123,-151.51599,-0.87335551,124.68351,-0.87212193,124.70121,-30.70978,-145.6272
4009375000,-31.513912,-151.28522,-0.87356132,124.50134,-0.87288249,124.51207,-30.717867,-145.6151
4009687500,-31.449572,-151.39644,-0.8723551,124.34816,-0.87572116,124.35089,-30.736599,-146.01892
4010000000,-31.456266,-151.63434,-0.87302011,124.20915,-0.87726802,124.22025,-30.70636,-146.19591
4010312500,-31.455717,-151.63443,-0.8729372,124.03812,-0.8772186,124.04324,-30.701809,-146.39587
4010625000,-31.426401,-151.77972,-0.87190443,123.89186,-0.87449849,123.88155,-30.709019,-146.73204
4010937500,-31.452747,-151.84766,-0.87143618,123.72147,-0.87655628,123.73963,-30.726427,-146.91013
4011250000,-31.503908,-152.11342,-0.87122458,123.56366,-0.87800694,123.5565,-30.72686,-147.13362
4011562500,-31.456459,-152.58165,-0.87267947,123.39803,-0.87484241,123.40376,-30.707747,-147.14342
4011875000,-31.432678,-152.73009,-0.87157208,123.24254,-0.87641066,123.28905,-30.714426,-146.98137
4012187500,-31.469114,-153.23352,-0.87518972,123.08044,-0.87424833,123.13489,-30.745844,-147.04828
4012500000,-31.468309,-153.6183,-0.87350011,122.91116,-0.87652296,122.94331,-30.695639,-147.04991
4012812500,-31.506832,-153.40776,-0.8700093,122.7628,-0.87431413,122.78777,-30.73834,-147.10735
4013125000,-31.454527,-153.39093,-0.87394601,122.58626,-0.87486511,122.63354,-30.704979,-146.45041
4013437500,-31.455387,-153.41197,-0.87239367,122.4565,-0.8723591,122.46666,-30.672997,-146.42398
4013750000,-31.492811,-153.80815,-0.87421161,122.30954,-0.87382072,122.34145,-30.667376,-146.28654
4014062500,-31.447681,-153.4025,-0.87659764,122.15211,-0.87821859,122.15765,-30.69511,-146.12836
4014375000,-31.493277,-153.74677,-0.87340355,122.0021,-0.87859672,121.9984,-30.66276,-146.53792
4014687500,-31.542122,-153.83472,-0.87491709,121.85689,-0.87419355,121.85604,-30.747253,-147.00446
4015000000,-31.606173,-154.30771,-0.87611777,121.6796,-0.8713972,121.69431,-30.756804,-147.75745
4015312500,-31.687248,-154.03572,-0.87448746,121.52782,-0.87694746,121.5451,-30.745497,-148.18539
4015625000,-31.698816,-154.31253,-0.8765707,121.3596,-0.87645143,121.36629,-30.7668,-148.50034
4015937500,-31.68433,-154.48232,-0.87483138,121.1871,-0.87390685,121.20454,-30.781956,-148.58144
4016250000,-31.694681,-154.67863,-0.87422276,121.02604,-0.87631369,121.02306,-30.808815,-148.4552
4016562500,-31.64831,-155.09637,-0.87051839,120.91029,-0.87955028,120.89557,-30.815176,-148.19867
4016875000,-31.588562,-155.85066,-0.87229896,120.72451,-0.87916631,120.7247,-30.795635,-148.22528
4017187500,-31.583055,-156.41154,-0.87164223,120.56919,-0.87945652,120.57366,-30.795929,-147.98164
4017500000,-31.627048,-156.42982,-0.87526792,120.41266,-0.87893385,120.43341,-30.911514,-148.0372
4017812500,-31.614956,-157.02946,-0.87739378,120.24917,-0.87637293,120.26645,-30.908014,-148.50153
4018125000,-31.602491,-157.13171,-0.8749671,120.09096,-0.87253225,120.10123,-30.930037,-148.65027
4018437500,-31.650772,-157.60056,-0.8763274,119.92366,-0.87210357,119.93195,-30.947802,-148.36156
4018750000,-31.633053,-157.09749,-0.8749674,119.76724,-0.87242681,119.78407,-30.904091,-148.22775
4019062500,-31.666407,-157.83946,-0.87481892,119.60029,-0.87005794,119.6189,-30.898598,-148.17467
4019375000,-31.569946,-157.51064,-0.87701225,119.44616,-0.8732549,119.46868,-30.761909,-148.74408
4019687500,-31.576963,-157.86615,-0.87596703,119.27453,-0.87098318,119.30736,-30.597939,-149.12874
4020000000,-31.55452,-158.02174,-0.87229431,119.10941,-0.87379408,119.16113,-30.527559,-149.52391
4020312500,-31.523497,-158.55618,-0.87636107,118.96371,-0.87036014,118.9708,-30.47061,-149.85808
4020625000,-31.516705,-158.59004,-0.87433738,118.79916,-0.87545973,118.85502,-30.421476,-150.00261
4020937500,-31.52854,-158.55557,-0.87439501,118.63369,-0.87530631,118.68847,-30.487181,-149.93677
4021250000,-31.536753,-158.66229,-0.87454736,118.47224,-0.87491918,118.53036,-30.525763,-149.38965
4021562500,-31.520144,-158.99541,-0.87544513,118.32642,-0.87524343,118.38479,-30.578857,-149.12598
4021875000,-31.581203,-158.81865,-0.87599254,118.15744,-0.87666982,118.21242,-30.635117,-148.57239
4022187500,-31.604736,-159.42181,-0.87682426,117.99364,-0.87754673,118.0518,-30.651445,-148.65891
4022500000,-31.581985,-159.82201,-0.87780559,117.84303,-0.8770144,117.86393,-30.63209,-148.6472
4022812500,-31.654316,-159.68861,-0.87538922,117.69627,-0.8789342,117.75074,-30.657597,-148.91612
4023125000,-31.704208,-160.02075,-0.87707329,117.52421,-0.87519222,117.56996,-30.67227,-149.62292
4023437500,-31.67276,-159.80119,-0.8773632,117.38945,-0.8750357,117.40094,-30.667818,-149.92253
4023750000,-31.721251,-160.40337,-0.87500334,117.21695,-0.87816411,117.25072,-30.663006,-149.88556
4024062500,-31.657042,-160.71835,-0.87556297,117.05327,-0.87858891,117.10384,-30.700439,-150.10808
4024375000,-31.65823,-160.7149,-0.87425673,116.91671,-0.87964636,116.93089,-30.71459,-150.34276
4024687500,-31.583565,-161.24146,-0.87635201,116.75513,-0.87684327,116.78484,-30.738123,-150.42738
4025000000,-31.62594,-161.09586,-0.87558317,116.6167,-0.87526947,116.603,-30.750257,-150.25993
4025312500,-31.617281,-161.5592,-0.87130785,116.43252,-0.87899053,116.44209,-30.730022,-150.19255
4025625000,-31.576967,-162.04794,-0.87153995,116.2923,-0.879296,116.27224,-30.75242,-150.14142
4025937500,-31.598818,-162.39438,-0.87724763,116.13927,-0.87705117,116.10738,-30.687393,-150.04391
4026250000,-31.619043,-162.62726,-0.87392312,115.97493,-0.87660849,115.94337,-30.643307,-150.19623
4026562500,-31.618187,-162.60228,-0.87422782,115.80903,-0.87325078,115.79844,-30.714714,-150.422
4026875000,-31.604317,-163.16049,-0.87299329,115.65113,-0.87630683,115.64709,-30.753227,-150.53946
4027187500,-31.551632,-163.39992,-0.87347847,115.47942,-0.87418056,115.47817,-30.796661,-150.58684
4027500000,-31.562283,-163.93999,-0.87267715,115.33405,-0.87821478,115.30809,-30.803295,-151.36166
4027812500,-31.606867,-163.99577,-0.87458408,115.14326,-0.87872064,115.16915,-30.835852,-151.88768
4028125000,-31.586922,-164.25575,-0.87759852,115.00552,-0.87730169,115.03803,-30.846411,-152.11159
4028437500,-31.587807,-164.08546,-0.87640977,114.82703,-0.87927514,114.86292,-30.852535,-152.38821
4028750000,-31.575045,-164.06972,-0.8771171,114.67746,-0.87846959,114.71445,-30.820419,-152.64877
4029062500,-31.672535,-164.35895,-0.87675488,114.52306,-0.87680608,114.56084,-30.778156,-152.24197
4029375000,-31.693363,-164.33327,-0.87481946,114.37988,-0.87628853,114.39363,-30.829662,-152.22769
4029687500,-31.734688,-164.24181,-0.87634408,114.23303,-0.87659109,114.21934,-30.73716,-152.30952
4030000000,-31.727837,-164.79996,-0.87549084,114.07559,-0.87655014,114.06956,-30.762539,-152.2272
4030312500,-31.646563,-165.22597,-0.87519664,113.90377,-0.87918133,113.93496,-30.815075,-152.15041
4030625000,-31.649958,-165.5697,-0.87808836,113.75304,-0.87582153,113.76189,-30.827112,-151.98055
4030937500,-31.634516,-165.66927,-0.87630081,113.59089,-0.87608713,113.60119,-30.7955,-152.29553
4031250000,-31.633623,-166.03244,-0.88025695,113.42421,-0.87539279,113.46407,-30.822699,-152.03851
4031562500,-31.658997,-166.09338,-0.87976336,113.24626,-0.87550044,113.28803,-30.846306,-152.56038
4031875000,-31.656456,-166.4808,-0.87995905,113.0918,-0.87777382,113.14355,-30.81723,-152.71413
4032187500,-31.709415,-166.75671,-0.87584358,112.94491,-0.87661499,112.96498,-30.840689,-153.15219
4032500000,-31.756598,-166.73164,-0.87828064,112.79302,-0.87671494,112.82729,-30.803709,-153.4142
4032812500,-31.764578,-167.12009,-0.87959784,112.62701,-0.87543982,112.66057,-30.809904,-153.60864
4033125000,-31.831804,-167.43663,-0.87592995,112.47343,-0.87866116,112.51134,-30.787827,-153.46384
4033437500,-31.808722,-166.96265,-0.87664336,112.31165,-0.88038504,112.36415,-30.770012,-153.48218
4033750000,-31.840147,-166.70438,-0.87448978,112.15643,-0.87675422,112.17973,-30.741838,-153.40498
4034062500,-31.85041,-166.92238,-0.87740672,112.00546,-0.87741035,112.01427,-30.721561,-153.06703
4034375000,-31.852158,-166.58937,-0.87487751,111.85093,-0.87519056,111.84589,-30.725546,-153.25763
4034687500,-31.851835,-167.30998,-0.87465638,111.70937,-0.87796545,111.71465,-30.725124,-153.1387
4035000000,-31.769867,-167.43918,-0.87642062,111.53633,-0.87702954,111.53705,-30.733332,-152.9024
4035312500,-31.759577,-167.92169,-0.87424177,111.38603,-0.87284124,111.37297,-30.743908,-153.26393
4035625000,-31.76545,-168.13751,-0.87769663,111.21893,-0.87550479,111.21504,-30.815639,-153.47182
4035937500,-31.716042,-168.44585,-0.87932342,111.06802,-0.87727034,111.07524,-30.843697,-153.28665
4036250000,-31.723783,-168.95802,-0.87797886,110.89079,-0.87305957,110.92007,-30.83235,-153.5549
4036562500,-31.743732,-169.52222,-0.87400669,110.73957,-0.87706822,110.74863,-30.813967,-153.62328
4036875000,-31.771883,-169.84259,-0.87428093,110.56289,-0.87666619,110.62375,-30.790058,-153.40175
4037187500,-31.846632,-170.16104,-0.87690425,110.41577,-0.87998086,110.43621,-30.759953,-153.48618
4037500000,-31.844275,-170.51057,-0.87348831,110.2312,-0.87999779,110.27717,-30.689089,-153.85466
4037812500,-31.853226,-170.9516,-0.87504464,110.07113,-0.87769109,110.15001,-30.708429,-153.96559
4038125000,-31.890245,-170.88339,-0.87970346,109.90936,-0.87804723,109.97168,-30.706856,-154.16664
4038437500,-31.860373,-171.31456,-0.87738401,109.78791,-0.87773359,109.78426,-30.723116,-154.14566
4038750000,-31.918962,-171.07855,-0.87997502,109.63477,-0.87488294,109.63495,-30.756454,-154.04607
4039062500,-31.861574,-171.16202,-0.88459069,109.47056,-0.87987983,109.46637,-30.752266,-154.07919
4039375000,-31.879013,-171.65689,-0.88213545,109.30899,-0.87641275,109.3237,-30.765245,-154.46387
4039687500,-31.958696,-171.90384,-0.88074481,109.16637,-0.87976319,109.16112,-30.733841,-154.836
4040000000,-31.93013,-172.05888,-0.87912774,108.98057,-0.87340182,109.00237,-30.740927,-154.56644
4040312500,-31.939487,-172.6114,-0.88049704,108.82878,-0.87780416,108.83664,-30.776733,-155.27718
4040625000,-31.968231,-172.84813,-0.88085508,108.67333,-0.87878501,108.67717,-30.768148,-155.03415
4040937500,-31.917803,-172.80099,-0.87851059,108.51888,-0.87764788,108.54768,-30.87586,-154.97467
4041250000,-31.868553,-172.95273,-0.87897736,108.34462,-0.87593174,108.36925,-30.809364,-154.98096
4041562500,-31.882723,-173.40631,-0.87789595,108.21948,-0.87667072,108.215,-30.856358,-155.04407
4041875000,-31.866718,-173.56456,-0.87868494,108.05285,-0.87847495,108.04543,-30.906439,-155.01669
4042187500,-31.856785,-173.5453,-0.87750709,107.90424,-0.87787741,107.88544,-30.914469,-154.87947
4042500000,-31.870691,-173.79373,-0.87755072,107.73366,-0.88062352,107.74484,-30.934362,-154.74509
4042812500,-31.845972,-173.75356,-0.87684149,107.58492,-0.8807897,107.59364,-30.874012,-154.82022
4043125000,-31.830612,-173.89081,-0.87602419,107.40416,-0.87999475,107.42664,-30.830793,-155.1422
4043437500,-31.867609,-173.69542,-0.8797521,107.23354,-0.88360906,107.28922,-30.802864,-155.45784
4043750000,-31.886454,-173.67375,-0.87960738,107.05403,-0.8789776,107.14136,-30.836243,-155.52567
4044062500,-31.85392,-174.11955,-0.87884611,106.90853,-0.87854129,106.97574,-30.824814,-155.59404
4044375000,-31.908674,-174.31973,-0.88027453,106.76379,-0.87923354,106.81367,-30.817326,-155.66763
4044687500,-31.942659,-174.50259,-0.87696785,106.62018,-0.87902677,106.67068,-30.788353,-155.55814
4045000000,-31.985144,-174.55379,-0.8781901,106.44816,-0.8801558,106.49509,-30.788908,-155.63922
4045312500,-31.993378,-174.97423,-0.87847316,106.29756,-0.8763296,106.33602,-30.827408,-155.20656
4045625000,-31.962496,-175.80826,-0.87709582,106.15302,-0.87613577,106.16084,-30.816566,-155.26382
4045937500,-31.921812,-175.91245,-0.87643993,105.97144,-0.87546855,106.01508,-30.826923,-155.48683
4046250000,-31.918922,-176.25548,-0.87658179,105.83489,-0.87986678,105.85627,-30.824503,-155.71382
4046562500,-31.86475,-176.84148,-0.87715596,105.65389,-0.87854916,105.69221,-30.814594,-155.62556
4046875000,-31.825441,-177.12939,-0.87729472,105.5006,-0.87942612,105.55211,-30.830538,-155.87167
4047187500,-31.868982,-177.5255,-0.8766287,105.33649,-0.87955493,105.37296,-30.826677,-155.39688
4047500000,-31.852753,-177.77496,-0.87915599,105.18195,-0.87774849,105.20562,-30.814444,-155.7599
4047812500,-31.882742,-178.28265,-0.87877828,105.04199,-0.87881726,105.05537,-30.925865,-155.34077
4048125000,-31.895981,-178.75294,-0.8781206,104.86988,-0.8806234,104.89052,-30.929096,-155.58649
4048437500,-31.942373,-179.09605,-0.87646794,104.71957,-0.87945569,104.73265,-30.940502,-155.65063
4048750000,-31.987423,-179.18875,-0.87591463,104.53859,-0.87758762,104.59596,-30.955406,-156.02046
4049062500,-32.020332,-178.99919,-0.88060838,104.38804,-0.87888473,104.43816,-30.95381,-155.82231
4049375000,-31.979813,-178.9149,-0.87797064,104.20886,-0.87881017,104.25726,-30.879354,-156.47008
4049687500,-32.039894,-178.71619,-0.87853414,104.06265,-0.87703037,104.12238,-30.880014,-157.1416
4050000000,-32.058441,-178.69971,-0.87716961,103.90791,-0.877918,103.95667,-30.926657,-157.11996
4050312500,-32.024559,-178.70995,-0.8756361,103.74368,-0.8767435,103.80464,-30.886124,-157.05145
4050625000,-32.009487,-178.54723,-0.88068813,103.60281,-0.87586832,103.63033,-30.900288,-157.27782
4050937500,-31.996876,-179.27406,-0.87856334,103.45347,-0.87882918,103.47166,-30.920948,-157.36234
4051250000,-32.002846,-179.69861,-0.87984526,103.31442,-0.8793295,103.31287,-30.943481,-157.3166
4051562500,-31.918736,179.60605,-0.8805514,103.14481,-0.87581182,103.1591,-30.991037,-157.46625
4051875000,-31.982286,179.39052,-0.88320965,102.97485,-0.8771767,102.99784,-31.01693,-157.93747
4052187500,-31.95682,178.88739,-0.87981933,102.83153,-0.87941331,102.8232,-30.972572,-158.40508
4052500000,-31.94928,178.83313,-0.88022619,102.65323,-0.87672853,102.68354,-30.979326,-158.40109
4052812500,-31.956629,178.9185,-0.87959009,102.48344,-0.87313896,102.51608,-31.001785,-158.86577
4053125000,-32.021763,178.54488,-0.88002318,102.29644,-0.87680942,102.37035,-31.0093,-159.17603
4053437500,-32.01223,178.41422,-0.87703431,102.15469,-0.87893504,102.21378,-31.013426,-159.24179
4053750000,-32.011311,178.09915,-0.87740684,101.99695,-0.87731117,102.05793,-31.013231,-158.63339
4054062500,-32.07983,178.54411,-0.8765648,101.84236,-0.88102198,101.8865,-31.048397,-158.00641
4054375000,-32.158546,178.55162,-0.87765682,101.70016,-0.87951452,101.75449,-31.079496,-158.06708
4054687500,-32.113613,178.69205,-0.87944776,101.5335,-0.8788119,101.5724,-31.062624,-157.86263
4055000000,-32.113876,178.58263,-0.87791836,101.37551,-0.88330704,101.43274,-31.032148,-158.06985
4055312500,-32.124027,178.09303,-0.88033712,101.23543,-0.87971282,101.24616,-31.084454,-157.93062
4055625000,-32.094265,177.54732,-0.87911737,101.05641,-0.87592912,101.10071,-31.097261,-158.11882
4055937500,-32.113873,177.31062,-0.87859613,100.89645,-0.87885666,100.94614,-31.049656,-157.90614
4056250000,-32.070877,177.14583,-0.87974727,100.7596,-0.87701404,100.75705,-31.11305,-157.79974
4056562500,-32.050056,176.85182,-0.87768507,100.57864,-0.88167626,100.63237,-31.130863,-158.12984
4056875000,-32.050831,176.19008,-0.8789075,100.423,-0.87594187,100.47337,-31.11861,-158.17891
4057187500,-32.078056,176.18159,-0.88193673,100.25587,-0.87549388,100.29617,-31.027756,-158.10843
4057500000,-32.1012,175.9016,-0.8804726,100.10516,-0.87900257,100.13127,-31.082607,-158.47676
4057812500,-32.101192,175.63,-0.88069534,99.953659,-0.8751595,99.984589,-30.992222,-158.84181
4058125000,-32.064663,175.31226,-0.88209343,99.798706,-0.87994289,99.806458,-30.964163,-158.66873
4058437500,-32.128258,175.11948,-0.88172942,99.661461,-0.88039911,99.668701,-30.964607,-158.89178
4058750000,-32.149239,174.84254,-0.87980342,99.479431,-0.87691879,99.507217,-30.936525,-159.00653
4059062500,-32.113785,174.89699,-0.8805362,99.331657,-0.88109869,99.358437,-30.891611,-158.88037
4059375000,-32.235573,174.59225,-0.8790344,99.170044,-0.87971652,99.202423,-30.925577,-159.06787
4059687500,-32.247997,174.32584,-0.88197559,99.014854,-0.8776595,99.05323,-30.95537,-159.10545
4060000000,-32.21394,174.10889,-0.88094532,98.848648,-0.88126785,98.888832,-30.947145,-159.41722
4060312500,-32.249874,173.98242,-0.88379234,98.683151,-0.88038844,98.714088,-31.024216,-159.44376
4060625000,-32.238682,173.9292,-0.87968946,98.529129,-0.88187212,98.581841,-31.054882,-159.89368
4060937500,-32.209904,173.85129,-0.88109779,98.383156,-0.88022637,98.395798,-31.124615,-159.88031
4061250000,-32.228958,173.66063,-0.87792218,98.226204,-0.88428056,98.234688,-31.124689,-160.02216
4061562500,-32.256866,173.75208,-0.87768108,98.056564,-0.88343829,98.081055,-31.137812,-160.00133
4061875000,-32.383781,173.78436,-0.87803417,97.903244,-0.87832862,97.908485,-31.050779,-159.99446
