!CSV A.01.01
!Agilent Technologies,N5222A,MY51421451,A.09.90.02
!Agilent N5222A: A.09.90.02
!Date: Wednesday, January 15, 2014 17:34:30
!Source: Standard

BEGIN CH1_DATA
Freq(Hz),S11(DB),S11(DEG),S12(DB),S12(DEG),S21(DB),S21(DEG),S22(DB),S22(DEG)
4000000000,-39.820747,-106.64669,-1.0032498,169.35844,-1.0164313,169.49916,-38.304844,-116.3951
4000312500,-39.575993,-112.13357,-0.99314988,169.3271,-0.99143261,169.34807,-38.704945,-114.11548
4000625000,-39.494678,-111.55477,-0.99478668,169.13454,-0.99790156,169.17146,-38.71413,-114.31633
4000937500,-39.385986,-111.01842,-0.99368232,168.9294,-0.99234629,168.98398,-38.667122,-114.76667
4001250000,-39.193974,-111.34803,-0.99635565,168.76973,-0.99617851,168.80591,-38.698139,-114.48562
4001562500,-39.346313,-111.55701,-0.99623388,168.58966,-0.99690533,168.61124,-38.604744,-114.64392
4001875000,-39.407597,-110.79779,-0.99757373,168.40259,-0.99581462,168.43884,-38.684441,-114.74306
4002187500,-39.415028,-110.77376,-0.9978292,168.23705,-0.99327272,168.26378,-38.505875,-114.28645
4002500000,-39.493706,-109.24955,-0.99593961,168.05464,-0.99601012,168.07768,-38.54203,-114.49902
4002812500,-39.54332,-109.53551,-0.99276662,167.86713,-0.99270982,167.8842,-38.54686,-114.45435
4003125000,-39.470825,-108.86237,-0.99808079,167.69206,-0.99403369,167.7108,-38.508648,-114.8543
4003437500,-39.504047,-109.24225,-0.99720186,167.50786,-0.99423832,167.51422,-38.577152,-115.31712
4003750000,-39.447224,-110.17012,-0.99705786,167.31615,-0.99310541,167.30762,-38.467453,-114.76613
4004062500,-39.515907,-111.41734,-0.99880028,167.13377,-0.99400151,167.1346,-38.491852,-114.59103
4004375000,-39.49102,-113.16351,-0.99702173,166.94347,-0.99131978,166.93939,-38.598988,-114.10093
4004687500,-39.507793,-113.57909,-0.99688143,166.72974,-0.99320161,166.77223,-38.578491,-114.14275
4005000000,-39.588345,-114.23175,-0.99782068,166.57816,-0.99423009,166.59854,-38.585495,-114.19744
4005312500,-39.640984,-113.25819,-0.99588889,166.39297,-0.99439734,166.40668,-38.471622,-115.0453
4005625000,-39.742531,-113.51914,-0.9972043,166.19803,-0.99324203,166.23532,-38.411961,-115.36825
4005937500,-39.690742,-113.6719,-0.98920828,166.02101,-0.99609262,166.06754,-38.377518,-115.41393
4006250000,-39.489056,-113.64648,-0.99414402,165.81198,-0.99405885,165.91206,-38.376144,-115.14841
4006562500,-39.575657,-113.45251,-0.99570912,165.65337,-0.9929285,165.7166,-38.320686,-115.24453
4006875000,-39.364014,-114.24905,-0.99355948,165.46951,-0.99739504,165.51974,-38.176605,-114.60257
4007187500,-39.298756,-114.6134,-0.99576133,165.28816,-0.99529809,165.32794,-38.073856,-114.40603
4007500000,-39.292347,-115.33833,-0.99450815,165.09805,-0.99593675,165.11687,-38.100983,-114.99744
4007812500,-39.201015,-115.29003,-0.99573618,164.92015,-0.99513203,164.96478,-38.090523,-113.80189
4008125000,-39.163097,-115.75706,-0.99285352,164.73466,-0.99576312,164.75491,-37.977589,-114.61656
4008437500,-39.152584,-115.79774,-0.99490547,164.55557,-0.99228537,164.5715,-38.039593,-114.71698
4008750000,-39.005032,-115.33452,-0.99555999,164.364,-0.99330187,164.395,-38.169022,-114.32221
4009062500,-39.063412,-115.66988,-0.99075305,164.18524,-0.99171931,164.1945,-38.240856,-114.49001
4009375000,-38.988239,-115.26524,-0.99565792,164.01768,-0.99217796,164.01636,-38.279465,-115.00986
4009687500,-38.956165,-115.36498,-0.99612409,163.81569,-0.99665308,163.82838,-38.235016,-115.25912
4010000000,-38.993832,-115.08198,-0.99564344,163.64699,-0.99560809,163.65935,-38.178844,-115.60139
4010312500,-39.024044,-115.68726,-0.99452168,163.44791,-0.9972859,163.46602,-38.068935,-115.58698
4010625000,-39.1689,-116.65486,-0.99243015,163.27028,-1.0006405,163.27831,-37.89542,-116.37854
4010937500,-38.947708,-115.90179,-0.99218863,163.11426,-0.99405491,163.08258,-37.936623,-117.25293
4011250000,-38.948494,-117.34689,-0.99239695,162.91508,-0.992827,162.90729,-37.823906,-115.64538
4011562500,-38.850189,-117.55909,-0.99039871,162.72678,-0.99792033,162.74025,-37.929573,-116.2076
4011875000,-38.869259,-117.63753,-0.9940713,162.53647,-0.99487835,162.59003,-37.833843,-116.56631
4012187500,-38.796597,-118.22463,-0.9926275,162.33688,-0.99373788,162.36084,-37.882507,-116.15192
4012500000,-38.728188,-118.7241,-0.99488175,162.16634,-0.99324507,162.21664,-37.87114,-116.14035
4012812500,-38.704826,-118.91338,-0.99301159,161.98082,-0.99592412,162.01926,-37.868328,-116.58357
4013125000,-38.708542,-117.65426,-0.99617988,161.80858,-0.99551642,161.83995,-38.063557,-115.23783
4013437500,-38.748611,-117.45162,-0.99568158,161.63567,-0.99609447,161.67902,-38.063763,-114.38528
4013750000,-38.759605,-118.10802,-0.99453706,161.45775,-0.99994934,161.46606,-38.111214,-114.08125
4014062500,-38.795902,-117.46053,-0.99540454,161.27507,-0.99655646,161.29233,-38.039211,-113.93446
4014375000,-38.712818,-118.52177,-0.99725688,161.11192,-0.99501348,161.10805,-38.057308,-114.49202
4014687500,-38.898743,-118.51975,-0.9959228,160.89967,-0.99556655,160.91713,-37.797478,-115.1066
4015000000,-38.949345,-120.18407,-0.99747705,160.72769,-0.99746227,160.75908,-37.726177,-115.6991
4015312500,-39.069176,-120.34653,-0.99465436,160.55202,-0.9967193,160.55484,-37.680691,-117.29769
4015625000,-39.021275,-120.10541,-0.99592376,160.3584,-0.99786919,160.38547,-37.687202,-117.11864
4015937500,-38.971775,-121.21259,-0.99479038,160.16681,-0.99585843,160.19989,-37.683598,-117.29701
4016250000,-38.938568,-120.99722,-0.99210018,159.98358,-0.99838656,159.99779,-37.655884,-117.29696
4016562500,-38.760815,-121.24445,-0.99700564,159.80844,-0.994093,159.82423,-37.876137,-117.25558
4016875000,-38.715294,-121.83786,-0.99508733,159.62956,-0.99736315,159.62146,-37.704433,-117.24375
4017187500,-38.546196,-122.90858,-0.9944995,159.45729,-0.99947709,159.4458,-37.898613,-117.09172
4017500000,-38.564384,-122.83654,-0.99659812,159.26234,-0.99929506,159.26453,-37.931004,-118.16254
4017812500,-38.557545,-122.81219,-0.99625343,159.07497,-0.99862856,159.09599,-37.951099,-117.80257
4018125000,-38.458771,-123.75863,-0.99808055,158.88309,-0.99693996,158.9077,-37.985867,-118.82777
4018437500,-38.47179,-124.86896,-1.0002594,158.70189,-0.99214584,158.73067,-38.041382,-117.93528
4018750000,-38.52449,-124.39555,-0.99868584,158.50652,-0.99727839,158.53975,-38.041836,-117.90701
4019062500,-38.453236,-124.64937,-0.99751616,158.3269,-0.99232292,158.34161,-37.91256,-116.73112
4019375000,-38.465984,-123.91972,-0.99434417,158.13022,-0.99758738,158.1543,-37.671085,-116.27461
4019687500,-38.324139,-123.46463,-0.99526304,157.95598,-0.99331427,157.97394,-37.351551,-116.24377
4020000000,-38.227596,-123.20783,-0.99486685,157.77574,-0.99549317,157.79082,-36.959286,-115.60596
4020312500,-38.239883,-123.24129,-0.99807525,157.57675,-0.99519813,157.60365,-36.851532,-115.67061
4020625000,-38.165817,-123.40492,-0.99561208,157.39925,-0.99274874,157.42973,-36.880913,-116.2503
4020937500,-38.202339,-123.60844,-0.99767423,157.20245,-0.99547827,157.25841,-36.987942,-115.99734
4021250000,-38.186703,-124.17937,-1.000495,157.04434,-0.99862158,157.05478,-37.105022,-115.66804
4021562500,-38.196983,-124.42852,-0.99667799,156.85106,-0.99743032,156.90367,-37.244709,-115.44752
4021875000,-38.222443,-124.42277,-0.99853092,156.66219,-1.0015126,156.70374,-37.322563,-115.04543
4022187500,-38.238331,-124.91551,-0.99622089,156.48849,-0.9975192,156.52946,-37.438236,-115.37154
4022500000,-38.173603,-125.66036,-0.99672216,156.27869,-0.99741042,156.34865,-37.363533,-115.39244
4022812500,-38.192822,-126.39504,-0.99677569,156.10522,-0.99762464,156.17838,-37.400162,-115.86971
4023125000,-38.252136,-125.82288,-0.99842036,155.94267,-0.99741691,155.92775,-37.419048,-116.84838
4023437500,-38.205757,-126.16813,-0.99791521,155.76488,-0.99939775,155.77368,-37.332546,-116.74817
4023750000,-38.225937,-126.73439,-0.99760181,155.56667,-1.0014875,155.59822,-37.282639,-117.4683
4024062500,-38.175415,-126.24239,-0.99938661,155.39528,-0.99845862,155.43053,-37.255424,-118.34725
4024375000,-38.141552,-126.50941,-0.99423027,155.21626,-1.0014563,155.26488,-37.148609,-118.29329
4024687500,-38.095127,-126.66257,-0.99984163,155.0343,-1.0005873,155.03435,-37.233295,-117.82873
4025000000,-38.023594,-126.85439,-0.99550104,154.84677,-0.99977481,154.83691,-37.231182,-117.82758
4025312500,-38.005413,-127.77631,-0.99442989,154.67494,-0.99904907,154.65062,-37.251011,-117.56438
4025625000,-37.943783,-127.41218,-0.99449164,154.47668,-0.99694616,154.50375,-37.250362,-118.43105
4025937500,-37.777969,-128.80675,-0.99754775,154.31828,-0.99713182,154.29778,-37.234077,-117.54465
4026250000,-37.77776,-128.82864,-0.99636161,154.10757,-0.99888802,154.13121,-37.253712,-117.5246
4026562500,-37.776962,-129.51059,-0.99658322,153.92851,-0.99817485,153.89931,-37.261917,-117.54444
4026875000,-37.63055,-130.30124,-0.99533546,153.75049,-1.0014865,153.71881,-37.063782,-117.75381
4027187500,-37.695461,-129.74399,-0.99440801,153.56059,-0.99844104,153.55382,-37.311131,-118.90636
4027500000,-37.54047,-129.93585,-0.99709004,153.38367,-1.0013986,153.3531,-37.102722,-118.98464
4027812500,-37.518276,-130.94786,-0.99841136,153.20184,-1.0000731,153.19592,-37.077198,-120.09485
4028125000,-37.538414,-131.24611,-0.99728471,152.98932,-0.99964184,153.00288,-37.085873,-121.96172
4028437500,-37.555229,-130.30405,-0.99742818,152.79018,-0.9955501,152.83463,-36.839664,-121.87467
4028750000,-37.646328,-130.33919,-0.99676496,152.6174,-0.99792176,152.65007,-36.944462,-121.21482
4029062500,-37.725189,-130.7336,-0.99953026,152.44476,-1.0001386,152.50012,-36.905731,-121.35284
4029375000,-37.669903,-131.47551,-0.99717396,152.283,-0.99690717,152.28828,-36.817772,-120.59628
4029687500,-37.609447,-131.5619,-0.99705654,152.07124,-0.99794698,152.10187,-36.80677,-120.30025
4030000000,-37.659683,-131.34743,-0.9965809,151.90594,-0.99631131,151.90768,-36.809299,-120.61046
4030312500,-37.591824,-131.67809,-0.99901277,151.70822,-0.99840152,151.75604,-36.79995,-120.60085
4030625000,-37.621674,-132.17482,-0.99933791,151.54079,-0.99934661,151.55893,-36.898445,-120.81689
4030937500,-37.580273,-132.23576,-0.99939489,151.35861,-0.99678689,151.37077,-36.874798,-120.86751
4031250000,-37.494892,-132.42624,-0.99813527,151.17166,-0.99861759,151.19612,-36.82708,-121.25987
4031562500,-37.503933,-132.70969,-0.9989121,150.98143,-0.99848276,151.02225,-36.922615,-121.69568
4031875000,-37.518791,-132.77455,-0.99867618,150.78168,-0.99945509,150.80104,-36.721699,-121.84197
4032187500,-37.485153,-133.96785,-0.99834728,150.61896,-0.99793291,150.65421,-36.703022,-121.46994
4032500000,-37.45837,-133.384,-0.9983331,150.43382,-0.99992806,150.47351,-36.629501,-121.48483
4032812500,-37.477566,-134.64952,-0.99951881,150.25563,-0.99664336,150.28853,-36.565208,-122.3125
4033125000,-37.563602,-134.62975,-0.99984324,150.0905,-0.99902403,150.08347,-36.508244,-121.66052
4033437500,-37.58514,-135.23753,-0.99637169,149.86017,-0.99666488,149.93134,-36.492542,-121.22835
4033750000,-37.741295,-134.90054,-0.99863356,149.71642,-0.99943769,149.73769,-36.620449,-121.26239
4034062500,-37.673466,-135.05199,-0.99614722,149.52942,-0.99745309,149.5502,-36.531475,-120.97914
4034375000,-37.562069,-135.21165,-1.0000281,149.34981,-0.99725777,149.35579,-36.465164,-120.24962
4034687500,-37.597065,-135.00909,-0.99821705,149.16885,-0.99931145,149.18156,-36.462425,-120.49538
4035000000,-37.579514,-135.31642,-0.99794501,149.00926,-0.99842733,148.99261,-36.578472,-120.06205
4035312500,-37.42075,-135.40926,-0.99849647,148.80956,-0.99947214,148.79991,-36.57682,-121.1283
4035625000,-37.384575,-135.54073,-1.0012478,148.64081,-0.99454021,148.62306,-36.661068,-121.50571
4035937500,-37.343918,-136.03459,-1.0010488,148.41916,-1.0025225,148.44484,-36.591084,-121.41817
4036250000,-37.369534,-136.45694,-0.99856937,148.26506,-0.99573684,148.28618,-36.540676,-121.37971
4036562500,-37.172188,-136.88754,-0.99750721,148.06459,-1.0013855,148.08127,-36.621616,-121.84208
4036875000,-37.176697,-137.90137,-0.99655229,147.85558,-1.0007489,147.89862,-36.558548,-120.91685
4037187500,-37.234451,-138.37074,-0.99907303,147.66785,-0.99884683,147.71986,-36.383533,-121.43396
4037500000,-37.112614,-138.64125,-0.9985106,147.48497,-0.99948293,147.53119,-36.411137,-120.80345
4037812500,-37.197693,-137.9521,-0.99831134,147.29617,-1.0029216,147.34967,-36.425182,-120.78456
4038125000,-37.13081,-139.70473,-1.0001183,147.11238,-0.99520004,147.15694,-36.427525,-120.59467
4038437500,-37.179619,-139.6722,-1.000789,146.93787,-0.99962109,146.96109,-36.35276,-121.41149
4038750000,-37.165874,-139.74013,-1.0036591,146.76738,-0.99669063,146.79539,-36.401688,-120.91987
4039062500,-37.071667,-139.84656,-1.003028,146.59183,-1.000231,146.59163,-36.427731,-121.44999
4039375000,-37.011456,-140.09019,-1.0027746,146.41438,-0.9956795,146.39586,-36.36536,-121.60879
4039687500,-37.126064,-140.49615,-1.000448,146.22968,-0.99612933,146.24625,-36.385052,-121.88967
4040000000,-37.075676,-140.81404,-1.0020298,146.04247,-1.0018945,146.06158,-36.322937,-122.07027
4040312500,-37.015583,-141.11061,-1.0014573,145.85919,-0.99732864,145.85257,-36.201611,-122.79247
4040625000,-37.065929,-141.74962,-1.0028579,145.6785,-0.99838364,145.67477,-36.296783,-123.20506
4040937500,-37.08746,-141.84537,-1.0009633,145.48244,-1.0006714,145.48978,-36.2104,-123.18032
4041250000,-36.939548,-141.59167,-1.0022987,145.30182,-1.0004085,145.31763,-36.3125,-122.8346
4041562500,-36.882786,-142.49263,-0.99850643,145.13779,-1.0023438,145.13029,-36.334412,-122.92722
4041875000,-36.849609,-142.46974,-0.99784023,144.96762,-1.0012813,144.96657,-36.365799,-123.45721
4042187500,-36.861168,-142.16519,-0.99790931,144.77222,-0.99678665,144.77321,-36.382256,-122.86968
4042500000,-36.819279,-142.32457,-1.0001814,144.58408,-1.0035894,144.59373,-36.357845,-122.89872
4042812500,-36.858448,-141.70839,-0.99790812,144.39445,-1.0040835,144.40778,-36.219154,-123.18689
4043125000,-36.905266,-141.41586,-1.0014814,144.19014,-1.0034513,144.23032,-36.175838,-122.80158
4043437500,-36.826153,-142.0744,-1.0007253,144.00584,-1.0044767,144.04625,-36.154255,-123.54827
4043750000,-36.776913,-142.0472,-1.0006776,143.83397,-1.0025164,143.88661,-36.024799,-123.22212
4044062500,-36.815559,-142.58064,-1.0023931,143.64951,-0.99852687,143.69261,-36.086376,-123.68809
4044375000,-36.721554,-142.35617,-0.99786276,143.44922,-1.0028669,143.5193,-36.071724,-123.10901
4044687500,-36.756054,-142.76878,-0.9997859,143.29007,-1.0034865,143.33852,-36.109272,-122.68272
4045000000,-36.826641,-142.95442,-0.99955481,143.09212,-1.0011353,143.1591,-36.104153,-122.77876
4045312500,-36.735928,-142.69598,-0.99850321,142.91843,-0.99751753,142.95244,-36.187878,-122.95383
4045625000,-36.801384,-143.28847,-0.99978012,142.74516,-0.99939317,142.77527,-36.21199,-122.27577
4045937500,-36.681789,-143.51138,-1.000895,142.55739,-1.0005081,142.57254,-36.041988,-122.67647
4046250000,-36.600613,-143.98982,-0.99889505,142.37689,-1.0006424,142.39665,-36.145046,-122.42651
4046562500,-36.466877,-144.59557,-1.0002922,142.20164,-0.99802679,142.21918,-36.054485,-123.11844
4046875000,-36.422573,-144.5229,-0.99775475,141.9977,-1.0017195,142.0399,-36.006283,-122.93615
4047187500,-36.346809,-145.30524,-1.0003856,141.81122,-1.0013729,141.82892,-36.022739,-123.04982
4047500000,-36.330399,-145.72447,-0.99910682,141.62231,-1.0026766,141.65909,-36.008785,-123.29581
4047812500,-36.275776,-146.66153,-1.001184,141.44405,-1.0005113,141.47781,-36.174408,-123.22444
4048125000,-36.362938,-147.1375,-0.99907523,141.26631,-0.99767524,141.28412,-36.207603,-123.85751
4048437500,-36.332329,-147.36249,-1.0015581,141.08423,-1.0036188,141.12242,-36.069916,-124.22897
4048750000,-36.334663,-147.63055,-0.99963635,140.88998,-1.0021104,140.91621,-36.142586,-124.68645
4049062500,-36.387699,-147.4751,-1.0007631,140.717,-1.0007405,140.74449,-36.087574,-124.85238
4049375000,-36.455662,-146.89536,-1.0002955,140.52473,-1.0018651,140.57413,-35.902786,-125.06927
4049687500,-36.527279,-147.68053,-1.0018251,140.33687,-0.99931127,140.38223,-35.789547,-124.83654
4050000000,-36.546944,-147.05757,-0.99919987,140.15047,-0.99941742,140.19263,-35.770222,-125.00913
4050312500,-36.466728,-147.24236,-1.0027071,139.9693,-0.99954575,140.0202,-35.835526,-124.79864
4050625000,-36.43615,-146.86578,-1.0014417,139.80731,-0.99998349,139.83994,-35.80785,-125.42681
4050937500,-36.423252,-147.30432,-1.001384,139.6237,-1.0022663,139.65099,-35.709103,-125.34579
4051250000,-36.290241,-147.93509,-1.0032895,139.44789,-1.0019054,139.45645,-35.701664,-126.11943
4051562500,-36.18285,-148.03551,-1.0043333,139.2645,-0.99795592,139.25386,-35.748169,-126.11647
4051875000,-36.232315,-148.88496,-1.0011466,139.0932,-0.99952644,139.05269,-35.676472,-126.43916
4052187500,-36.061657,-148.95988,-1.0018522,138.90649,-0.99744546,138.90817,-35.706272,-127.0013
4052500000,-36.111156,-149.72261,-1.0006992,138.6982,-1.0006008,138.75224,-35.673138,-127.80386
4052812500,-36.139339,-149.56706,-1.0026387,138.51141,-1.0010347,138.54912,-35.610455,-128.05777
4053125000,-36.097885,-150.30157,-1.0010695,138.31477,-1.0044637,138.36491,-35.565224,-128.75275
4053437500,-36.125542,-150.1093,-0.99908364,138.12656,-1.001206,138.17642,-35.583118,-128.17374
4053750000,-36.22324,-150.52368,-1.0014646,137.93889,-0.99912876,138.0041,-35.664577,-127.65818
4054062500,-36.260178,-150.57756,-1.0001748,137.76668,-0.99873716,137.81702,-35.702236,-127.39901
4054375000,-36.249607,-150.63048,-1.0007679,137.6021,-0.99991035,137.63547,-35.723598,-127.12008
4054687500,-36.319744,-150.77965,-1.0015852,137.40123,-1.0045265,137.44637,-35.756371,-126.58241
4055000000,-36.373795,-150.41183,-1.0011977,137.23288,-1.0024263,137.26363,-35.802765,-126.76968
4055312500,-36.334148,-150.78331,-1.0030724,137.05212,-1.0042893,137.07596,-35.78323,-126.75294
4055625000,-36.260723,-150.83109,-1.0023696,136.87471,-0.99964499,136.90166,-35.81348,-126.99566
4055937500,-36.175697,-151.66286,-1.0020777,136.65771,-1.0009656,136.70361,-35.806789,-127.36366
4056250000,-36.08971,-151.75266,-1.0031502,136.49741,-1.000788,136.52399,-35.820969,-127.43912
4056562500,-36.131042,-152.46289,-1.0024209,136.3143,-1.0002631,136.35696,-35.801968,-127.12998
4056875000,-36.041718,-151.696,-1.0016733,136.11513,-0.99922562,136.15446,-35.745453,-127.11377
4057187500,-36.004993,-152.46581,-1.0027026,135.94498,-0.99632704,135.96146,-35.700413,-127.25974
4057500000,-35.972889,-152.43044,-1.004396,135.75954,-0.99932879,135.77722,-35.60627,-127.32273
4057812500,-35.953754,-152.05785,-1.0027333,135.56786,-0.99790257,135.59395,-35.559658,-126.78336
4058125000,-35.889278,-152.52353,-1.0021234,135.39748,-1.0017548,135.42477,-35.415466,-126.6392
4058437500,-35.895462,-153.24783,-1.0032896,135.2341,-1.002118,135.2157,-35.398403,-126.79722
4058750000,-35.88242,-153.02644,-1.0040011,135.02956,-1.0027955,135.05795,-35.435204,-126.80441
4059062500,-35.947796,-153.48581,-1.0053064,134.86151,-1.0004133,134.89957,-35.296146,-126.94621
4059375000,-35.865696,-153.94603,-1.004215,134.67818,-1.0054832,134.70474,-35.262417,-126.96745
4059687500,-35.884171,-154.21985,-1.0042335,134.47977,-1.0043625,134.50793,-35.362873,-126.72095
4060000000,-35.931686,-154.19292,-1.0026027,134.31221,-1.0064328,134.33894,-35.294056,-127.33474
4060312500,-35.968063,-154.68848,-1.0027324,134.11296,-1.0011584,134.14635,-35.367908,-127.65891
4060625000,-35.907139,-154.69781,-0.99901658,133.92868,-1.0025893,133.9854,-35.362911,-127.43006
4060937500,-35.86977,-155.37846,-1.0009153,133.75119,-1.0047172,133.79073,-35.383915,-128.62349
4061250000,-36.025066,-155.21243,-1.0004305,133.57651,-1.005792,133.60622,-35.356651,-129.34401
4061562500,-35.93029,-155.11542,-1.0006193,133.36945,-1.0049101,133.4205,-35.303604,-128.41463
4061875000,-35.993694,-155.61618,-1.0006344,133.20636,-1.0035046,133.25371,-35.382549,-128.20422
4062187500,-36.023201,-155.38174,-1.0001806,133.01973,-1.0041417,133.01949,-35.295971,-127.75854
