!CSV A.01.01
!Agilent Technologies,N5222A,MY51421451,A.09.90.02
!Agilent N5222A: A.09.90.02
!Date: Tuesday, January 28, 2014 16:06:30
!Source: Standard

BEGIN CH2_DATA
Freq(Hz),S33(DB),S33(DEG),S34(DB),S34(DEG),S43(DB),S43(DEG),S44(DB),S44(DEG)
1000000000,-32.077496,4.8426371,-0.36492208,-74.995895,-0.36305898,-75.015625,-32.216862,6.0638971
1001484375,-31.988382,5.007,-0.36134061,-75.648628,-0.36240566,-75.684349,-32.097656,6.0566788
1002968750,-31.9736,4.0811329,-0.36612278,-76.267838,-0.36189657,-76.310654,-32.249966,3.8393526
1004453125,-31.988708,1.8297174,-0.3649233,-76.926117,-0.36568335,-76.961571,-32.191818,3.72967
1005937500,-31.999949,1.7665211,-0.36240458,-77.570526,-0.36537912,-77.611717,-32.237713,4.8338099
1007421875,-32.040012,1.2542679,-0.36268026,-78.21302,-0.3629182,-78.23587,-32.131866,4.4444184
1008906250,-31.863623,0.2083158,-0.36939567,-78.862129,-0.36096346,-78.88575,-32.111633,2.4427207
1010390625,-32.023838,-0.51858079,-0.36811399,-79.468285,-0.36554202,-79.526428,-32.034107,1.528082
1011875000,-32.139618,-1.5245683,-0.36693642,-80.14006,-0.36723679,-80.162109,-31.98962,1.587248
1013359375,-32.115456,-0.48821682,-0.362533,-80.784332,-0.36675552,-80.79641,-32.058022,0.12487756
1014843750,-32.063942,-2.9702446,-0.36544546,-81.412727,-0.36495942,-81.472946,-32.250656,-0.96082234
1016328125,-32.069138,-2.7057838,-0.369091,-82.057465,-0.36411065,-82.130646,-32.371624,-1.9915591
1017812500,-32.046753,-4.0579033,-0.36594591,-82.719582,-0.36836833,-82.754387,-32.155952,-2.694124
1019296875,-31.929722,-4.6729331,-0.36399263,-83.336014,-0.36477765,-83.38633,-32.411507,-1.9560556
1020781250,-32.078648,-4.5260072,-0.36643353,-84.003403,-0.36942315,-84.020134,-32.186352,-4.5868969
1022265625,-32.232635,-4.6172662,-0.37051687,-84.637863,-0.36939967,-84.698769,-32.265705,-3.4064522
1023750000,-31.974354,-6.1577263,-0.3660292,-85.290909,-0.36753872,-85.344978,-32.340172,-4.9321327
1025234375,-32.05999,-6.8619704,-0.36858061,-85.937759,-0.36555061,-85.965034,-32.296238,-5.8118205
1026718750,-32.206676,-7.746582,-0.36736181,-86.570923,-0.36749712,-86.614258,-32.33511,-6.5752459
1028203125,-32.191814,-7.5673256,-0.36753368,-87.24263,-0.36620513,-87.222626,-32.347031,-6.1774106
1029687500,-32.500027,-9.1197996,-0.36735818,-87.875099,-0.36724246,-87.893509,-32.302704,-6.5021734
1031171875,-32.137859,-8.686265,-0.36763829,-88.516251,-0.36939353,-88.548729,-32.582127,-9.6442642
1032656250,-32.34679,-9.7481956,-0.36661687,-89.130417,-0.36944219,-89.168892,-32.510628,-8.9781876
1034140625,-32.419407,-9.4661818,-0.37129202,-89.814041,-0.36746883,-89.834816,-32.442848,-10.068604
1035625000,-32.290928,-10.075564,-0.36978593,-90.430222,-0.36966535,-90.484329,-32.317608,-10.87701
1037109375,-32.407887,-10.997579,-0.36469939,-91.082367,-0.36936995,-91.119888,-32.732059,-11.708769
1038593750,-32.500664,-11.566716,-0.36810228,-91.716148,-0.36733508,-91.768745,-32.548065,-13.107115
1040078125,-32.570465,-12.01943,-0.36927491,-92.37384,-0.3708106,-92.398232,-32.438301,-13.269889
1041562500,-32.556221,-10.837654,-0.37170604,-93.016167,-0.36609352,-93.063835,-32.441753,-15.070391
1043046875,-32.519974,-13.687303,-0.36861646,-93.657913,-0.37255633,-93.700607,-32.49295,-15.566985
1044531250,-32.565865,-13.462907,-0.37234926,-94.310738,-0.36996904,-94.320442,-32.492935,-16.206959
1046015625,-32.451084,-13.993989,-0.37244675,-94.928818,-0.36896122,-94.999741,-32.654457,-16.945787
1047500000,-32.707249,-14.605713,-0.36897016,-95.586021,-0.3726666,-95.616592,-32.57354,-16.639435
1048984375,-32.458729,-14.925715,-0.37164867,-96.220772,-0.37203968,-96.284904,-32.775402,-18.298456
1050468750,-32.56794,-16.166967,-0.37363636,-96.868591,-0.36968112,-96.908081,-32.739693,-18.005039
1051953125,-32.690174,-16.743195,-0.37157723,-97.531265,-0.37234834,-97.520058,-32.7575,-19.619011
1053437500,-32.726871,-16.551802,-0.37474197,-98.165993,-0.37202024,-98.214462,-32.833179,-21.584639
1054921875,-32.709812,-17.24547,-0.37200573,-98.817825,-0.37244806,-98.858223,-32.840668,-20.784277
1056406250,-32.854527,-17.202019,-0.3751812,-99.438362,-0.36878732,-99.470078,-32.660145,-22.742376
1057890625,-32.85022,-18.588955,-0.37263635,-100.10036,-0.37341183,-100.13746,-32.858166,-22.672541
1059375000,-32.798035,-19.831394,-0.37195435,-100.73339,-0.37323374,-100.77934,-32.885242,-23.48023
1060859375,-33.119907,-19.210503,-0.3712678,-101.39669,-0.37410614,-101.42586,-32.785923,-23.127199
1062343750,-33.041821,-19.946653,-0.37374356,-102.01611,-0.372886,-102.06397,-33.038532,-24.934687
1063828125,-32.986984,-20.942677,-0.37543604,-102.65699,-0.36958301,-102.69056,-33.042759,-25.693857
1065312500,-32.937626,-20.745731,-0.37445816,-103.31129,-0.37205151,-103.35351,-32.944077,-26.510447
1066796875,-32.80484,-22.139837,-0.37707135,-103.94515,-0.37466815,-103.99615,-33.066948,-28.363884
1068281250,-32.894714,-21.537601,-0.37088603,-104.59498,-0.37596196,-104.65117,-32.996185,-27.31605
1069765625,-32.975029,-23.053556,-0.37461704,-105.23532,-0.37504384,-105.32273,-32.967247,-29.190374
1071250000,-33.024021,-23.715214,-0.3715075,-105.88856,-0.37708181,-105.94131,-33.018978,-29.791142
1072734375,-33.237286,-22.711227,-0.37448695,-106.52054,-0.37381727,-106.5799,-33.058556,-29.757332
1074218750,-33.187691,-25.279011,-0.37760666,-107.18085,-0.37592661,-107.20342,-33.15786,-30.154066
1075703125,-33.182117,-25.489056,-0.37589541,-107.80606,-0.37551606,-107.85961,-33.271145,-31.854862
1077187500,-33.061443,-25.848202,-0.38192755,-108.46406,-0.37480655,-108.48846,-33.059097,-33.129089
1078671875,-33.118404,-27.282272,-0.37468749,-109.12237,-0.37685066,-109.15005,-33.10305,-32.665615
1080156250,-33.384613,-26.885983,-0.37715232,-109.77048,-0.37471315,-109.78028,-33.107086,-34.292179
1081640625,-33.242504,-28.123457,-0.37667385,-110.39048,-0.37902936,-110.43578,-33.191097,-33.45977
1083125000,-33.35231,-28.577202,-0.37646523,-111.04061,-0.37666985,-111.08251,-33.244713,-34.960373
1084609375,-33.289959,-28.743763,-0.37725198,-111.69372,-0.37727299,-111.72086,-33.389828,-34.188259
1086093750,-33.4184,-29.172342,-0.37679398,-112.33683,-0.37541828,-112.35581,-33.474174,-35.246891
1087578125,-33.318043,-30.974438,-0.37980646,-112.96765,-0.3797861,-113.01505,-33.21196,-36.090054
1089062500,-33.668774,-30.360765,-0.38030949,-113.60093,-0.37702942,-113.66886,-33.541687,-36.641594
1090546875,-33.571644,-32.190441,-0.37841323,-114.25765,-0.37775388,-114.31544,-33.480553,-36.59824
1092031250,-33.631409,-32.439445,-0.37868246,-114.89904,-0.37898302,-114.93911,-33.385345,-37.106911
1093515625,-33.779381,-33.023052,-0.38026288,-115.52732,-0.38057941,-115.60273,-33.718327,-39.698959
1095000000,-33.542564,-33.621716,-0.37938026,-116.17155,-0.38045433,-116.22164,-33.721767,-38.369511
1096484375,-33.806961,-33.852097,-0.37861824,-116.81969,-0.37961379,-116.88955,-33.895462,-40.142754
1097968750,-33.843578,-35.122597,-0.37794679,-117.45118,-0.37791258,-117.53457,-33.750729,-40.167274
1099453125,-33.921825,-35.830078,-0.38103586,-118.13285,-0.37859508,-118.15423,-33.708408,-40.195404
1100937500,-33.894047,-36.151592,-0.38213953,-118.78033,-0.37868538,-118.79745,-33.881153,-41.915672
1102421875,-33.82859,-36.983463,-0.37746266,-119.41348,-0.38229278,-119.45259,-33.829769,-41.639957
1103906250,-34.01329,-37.701153,-0.38237023,-120.04916,-0.37823063,-120.08458,-33.855457,-42.985306
1105390625,-34.240421,-36.440777,-0.3812753,-120.70876,-0.38461328,-120.72095,-33.969547,-43.671959
1106875000,-34.073837,-38.424866,-0.38024533,-121.34058,-0.38320771,-121.37861,-33.900135,-43.839745
1108359375,-34.278572,-39.087368,-0.38317761,-121.95812,-0.38195139,-122.01995,-34.152824,-44.868591
1109843750,-34.497009,-40.264465,-0.37905803,-122.62878,-0.38085723,-122.64937,-33.982933,-45.779896
1111328125,-34.298321,-40.557915,-0.37832174,-123.23746,-0.38510144,-123.34503,-34.161701,-47.398983
1112812500,-34.409924,-42.120552,-0.38304669,-123.89159,-0.38351598,-123.92604,-34.408813,-47.062424
1114296875,-34.49379,-41.458591,-0.38358873,-124.56915,-0.37990928,-124.58284,-34.278671,-49.701729
1115781250,-34.761478,-40.828476,-0.37980631,-125.21383,-0.3844856,-125.20812,-34.425129,-48.754364
1117265625,-34.603889,-43.630741,-0.3814106,-125.83469,-0.38198784,-125.88532,-34.895073,-50.297367
1118750000,-34.726906,-43.457214,-0.38102305,-126.48746,-0.38451037,-126.5349,-34.465004,-48.905891
1120234375,-35.031521,-44.886345,-0.38387224,-127.13976,-0.38316649,-127.15211,-34.728443,-50.12368
1121718750,-34.74836,-43.527828,-0.38289145,-127.76579,-0.38173214,-127.79661,-34.909683,-52.293404
1123203125,-35.031387,-43.426308,-0.38300249,-128.41385,-0.38297653,-128.48264,-34.813911,-51.509357
1124687500,-35.076805,-45.410027,-0.38644981,-129.06885,-0.38128474,-129.11235,-34.950306,-52.420101
1126171875,-35.334442,-46.42667,-0.38382605,-129.72701,-0.3836123,-129.75488,-34.888821,-54.149849
1127656250,-35.29554,-45.786106,-0.38631207,-130.34026,-0.38366359,-130.39261,-35.319328,-55.911789
1129140625,-35.375774,-46.041565,-0.38291752,-130.99391,-0.38086236,-131.04015,-35.545082,-55.440418
1130625000,-35.446011,-48.369759,-0.38518932,-131.64857,-0.38279012,-131.66811,-35.449089,-56.149395
1132109375,-35.823708,-48.899185,-0.38548833,-132.30173,-0.38249645,-132.31921,-35.570614,-56.237495
1133593750,-35.886993,-49.461269,-0.38846454,-132.93738,-0.38066387,-132.95984,-35.654594,-56.55035
1135078125,-35.775993,-50.107498,-0.38302839,-133.57658,-0.38517773,-133.6067,-35.864857,-58.704021
1136562500,-36.119892,-49.640385,-0.38300192,-134.21037,-0.38549861,-134.25705,-35.981121,-58.614418
1138046875,-36.125896,-49.819008,-0.38349506,-134.84784,-0.38530391,-134.91196,-36.085999,-59.584763
1139531250,-36.316269,-50.46645,-0.38341928,-135.50308,-0.38414836,-135.54225,-36.209572,-59.299786
1141015625,-36.471992,-49.590477,-0.38523671,-136.1424,-0.38384467,-136.1938,-36.120163,-62.084064
1142500000,-36.428284,-49.996639,-0.38743195,-136.7784,-0.38231274,-136.84531,-36.869324,-62.684498
1143984375,-36.960606,-52.058296,-0.38646606,-137.42482,-0.38582885,-137.4592,-36.560917,-61.746201
1145468750,-37.006065,-52.058743,-0.38565779,-138.07828,-0.38767198,-138.11125,-36.701679,-64.12719
1146953125,-37.075649,-49.347694,-0.38665625,-138.7373,-0.38386425,-138.74309,-36.705566,-64.827576
1148437500,-37.362411,-52.31295,-0.3885504,-139.36472,-0.38386205,-139.41238,-36.867821,-65.34874
1149921875,-37.245087,-53.886551,-0.38993797,-139.99939,-0.38716495,-140.06169,-37.058792,-67.883415
1151406250,-37.496544,-53.529686,-0.38496476,-140.65163,-0.38400587,-140.68002,-36.921215,-66.393333
1152890625,-37.717846,-54.258499,-0.38682678,-141.29967,-0.38866031,-141.36282,-37.307781,-68.147385
1154375000,-37.783211,-54.299976,-0.38718086,-141.95363,-0.38778397,-141.98509,-37.090271,-68.708031
1155859375,-37.848293,-55.040398,-0.38856301,-142.59709,-0.38525835,-142.61418,-37.567505,-71.272789
1157343750,-37.745445,-56.645947,-0.3854858,-143.22993,-0.38703316,-143.29561,-38.056545,-71.081978
1158828125,-37.948135,-53.919579,-0.38863316,-143.87703,-0.38668105,-143.91402,-37.965359,-75.153252
1160312500,-38.181656,-54.105728,-0.38841218,-144.53096,-0.38581255,-144.58292,-37.758751,-73.939163
1161796875,-38.262333,-56.262459,-0.38822937,-145.17667,-0.38980868,-145.19736,-37.69397,-74.817329
1163281250,-38.411095,-56.202225,-0.38826787,-145.82053,-0.3915973,-145.82758,-37.944965,-76.058968
1164765625,-38.91153,-53.787735,-0.38935268,-146.45291,-0.39289299,-146.48175,-38.11507,-75.899872
1166250000,-38.677307,-58.336796,-0.38953,-147.08305,-0.38697517,-147.14627,-38.627827,-77.306747
1167734375,-39.10128,-57.781094,-0.39165631,-147.72571,-0.39000198,-147.80797,-39.077747,-79.25528
1169218750,-39.17268,-60.178059,-0.39048016,-148.37531,-0.39043921,-148.43742,-38.767212,-78.02858
1170703125,-39.670944,-61.280876,-0.39144453,-149.03798,-0.39033785,-149.07506,-38.750813,-79.063591
1172187500,-39.585518,-60.846817,-0.39046109,-149.68129,-0.39187175,-149.70396,-39.125774,-81.151474
1173671875,-39.746334,-59.674229,-0.38760316,-150.30215,-0.38834125,-150.35326,-39.298721,-81.965569
1175156250,-40.035847,-63.731777,-0.39212146,-150.95906,-0.38876897,-150.99644,-39.442116,-82.364006
1176640625,-40.007164,-62.295738,-0.39052424,-151.5865,-0.39384338,-151.64478,-39.895916,-84.149323
1178125000,-39.997982,-61.763523,-0.38968664,-152.23694,-0.39432427,-152.31281,-40.128468,-83.12133
1179609375,-40.532696,-64.204994,-0.39200902,-152.88051,-0.39197677,-152.94316,-40.262226,-87.251305
1181093750,-40.671669,-65.501175,-0.39463529,-153.53857,-0.39242664,-153.57935,-40.224014,-87.19529
1182578125,-40.658886,-59.961452,-0.39198202,-154.17627,-0.39235282,-154.21822,-40.5107,-85.485382
1184062500,-41.140812,-62.941608,-0.39430034,-154.821,-0.39310452,-154.86771,-40.406075,-85.945702
1185546875,-41.257462,-65.982712,-0.39157513,-155.45842,-0.39299017,-155.49171,-41.133015,-89.227196
1187031250,-41.143997,-66.216072,-0.39465851,-156.108,-0.39244491,-156.1591,-41.251137,-92.728897
1188515625,-42.146847,-64.748871,-0.39290205,-156.75549,-0.39316055,-156.80396,-40.93045,-89.033165
1190000000,-42.722706,-62.065723,-0.3917383,-157.3933,-0.39309135,-157.45251,-41.057205,-89.638977
1191484375,-42.201263,-63.228504,-0.39333946,-158.02922,-0.39426932,-158.10318,-41.542522,-92.858429
1192968750,-42.273281,-62.101639,-0.39729315,-158.68777,-0.39140955,-158.70969,-42.024857,-93.427223
1194453125,-43.154964,-64.713211,-0.39471069,-159.32268,-0.39188346,-159.37938,-42.299931,-90.122345
1195937500,-43.381729,-63.259541,-0.39578131,-159.98047,-0.39303762,-160.007,-43.333244,-95.012085
1197421875,-43.047306,-66.283524,-0.39567977,-160.60162,-0.39514202,-160.6644,-42.643536,-96.228951
1198906250,-43.681049,-63.102253,-0.39395282,-161.28484,-0.39336047,-161.26567,-43.328789,-94.285568
1200390625,-43.954529,-69.374237,-0.39258227,-161.91341,-0.39633223,-161.96111,-43.236084,-97.014603
1201875000,-44.380222,-64.485352,-0.3997817,-162.56659,-0.39358786,-162.57932,-42.911766,-98.701469
1203359375,-44.772282,-67.112717,-0.39625421,-163.19287,-0.3952812,-163.21239,-43.433292,-94.784645
1204843750,-44.797432,-66.426865,-0.39704186,-163.81091,-0.39533001,-163.88663,-44.27858,-100.96169
1206328125,-44.92001,-67.255791,-0.39777887,-164.48976,-0.39320743,-164.49884,-44.125423,-98.309586
1207812500,-45.444801,-66.294113,-0.39656731,-165.13258,-0.39261422,-165.16643,-44.536957,-96.432625
1209296875,-46.276253,-65.522202,-0.40007928,-165.75252,-0.39068767,-165.81065,-45.181736,-99.948578
1210781250,-47.261845,-67.8918,-0.39726076,-166.39824,-0.39795002,-166.43044,-45.121262,-106.673
1212265625,-46.7286,-72.085655,-0.39562634,-167.06152,-0.39827538,-167.10469,-46.061058,-110.62706
1213750000,-48.858776,-64.797882,-0.39770544,-167.71487,-0.39824817,-167.73671,-45.885117,-109.76653
1215234375,-47.074863,-66.564262,-0.39926624,-168.34932,-0.39622176,-168.3877,-47.1567,-110.82383
1216718750,-48.793137,-65.739471,-0.39962766,-168.99045,-0.40094894,-169.03268,-48.27187,-111.8867
1218203125,-48.701836,-55.88657,-0.39864838,-169.62155,-0.39424074,-169.69481,-48.726246,-117.2142
1219687500,-50.766994,-65.087425,-0.39885041,-170.27426,-0.39593923,-170.31067,-48.419373,-107.21792
1221171875,-50.766914,-65.802483,-0.39918935,-170.92723,-0.39687631,-170.95338,-49.994595,-112.96239
1222656250,-50.08844,-65.64917,-0.39761421,-171.55435,-0.40057313,-171.60548,-49.500088,-117.21712
1224140625,-51.42979,-58.27861,-0.39873898,-172.1805,-0.397109,-172.2531,-50.747734,-118.95927
1225625000,-53.592731,-57.024044,-0.3996937,-172.85582,-0.39998022,-172.88283,-50.589962,-126.0315
1227109375,-54.772488,-69.262024,-0.39728165,-173.50035,-0.40153056,-173.53596,-51.862854,-135.62268
1228593750,-55.843613,-40.256813,-0.39989662,-174.14998,-0.39714742,-174.1869,-52.14571,-140.14651
1230078125,-55.178963,-50.905155,-0.40062159,-174.75603,-0.39963022,-174.84129,-53.419117,-141.7068
1231562500,-57.549343,-18.281479,-0.40155625,-175.42485,-0.40205222,-175.46622,-53.305019,-157.65526
1233046875,-60.876389,0.014502997,-0.39910108,-176.06923,-0.40231863,-176.11156,-54.468788,-166.51712
1234531250,-58.853462,-18.030298,-0.40060642,-176.71628,-0.40079293,-176.76144,-58.243057,-161.1745
1236015625,-58.575809,-3.3837914,-0.40033883,-177.36633,-0.39883149,-177.39964,-57.854622,178.81085
1237500000,-54.545113,25.811592,-0.40246448,-178.01212,-0.40248314,-178.04828,-55.183979,170.50778
1238984375,-57.631062,36.358067,-0.40057471,-178.64381,-0.40332705,-178.68034,-55.288624,152.41377
1240468750,-55.532135,39.405777,-0.40266398,-179.29642,-0.40554914,-179.33418,-55.354107,140.63005
1241953125,-56.954853,24.983564,-0.40353161,-179.91957,-0.40402284,-179.9794,-53.776775,142.16457
1243437500,-52.776943,38.438774,-0.40318364,179.40923,-0.40078315,179.39055,-55.336636,137.04353
1244921875,-52.004433,43.195213,-0.40100375,178.767,-0.40027496,178.73518,-53.481506,134.80295
1246406250,-52.10033,55.444962,-0.39990148,178.15019,-0.40467945,178.08607,-50.739601,110.91306
1247890625,-49.431057,57.140972,-0.40319243,177.50919,-0.40242347,177.46184,-51.716499,112.5164
1249375000,-49.203381,52.79229,-0.40278083,176.86292,-0.39871815,176.78271,-50.722885,110.28631
1250859375,-49.522011,52.830467,-0.40249956,176.20142,-0.40808263,176.15324,-49.559013,107.36481
1252343750,-48.067234,50.831467,-0.40259796,175.5603,-0.40181154,175.49599,-48.663815,112.54691
1253828125,-47.545963,61.7645,-0.40361074,174.9155,-0.403148,174.85918,-48.736099,102.2496
1255312500,-46.916962,49.485176,-0.40507591,174.26936,-0.403842,174.23224,-47.974358,101.19816
1256796875,-46.814541,53.338863,-0.40603882,173.63733,-0.40286237,173.57135,-46.795776,102.27719
1258281250,-46.471497,50.933781,-0.40417436,172.9877,-0.40307128,172.94412,-47.450497,97.898392
1259765625,-46.412579,54.234894,-0.40661225,172.34459,-0.40336135,172.30653,-46.563206,97.000221
1261250000,-45.686245,54.285614,-0.40631968,171.69652,-0.40216735,171.63023,-46.330956,92.154129
1262734375,-44.912872,51.604511,-0.40301609,171.05435,-0.40382972,171.0074,-45.50523,89.465652
1264218750,-44.473698,52.166119,-0.40741453,170.41583,-0.40550077,170.35918,-45.437874,92.510597
1265703125,-44.096649,51.339565,-0.40898976,169.75746,-0.41130722,169.71899,-44.941349,89.016541
1267187500,-44.358673,53.005001,-0.4028492,169.12694,-0.40441853,169.07335,-43.989273,83.946274
1268671875,-44.41523,50.469509,-0.40975687,168.48735,-0.40868032,168.44838,-44.696674,84.894348
1270156250,-43.130951,52.714092,-0.4083679,167.84283,-0.40451878,167.79158,-43.986813,88.47998
1271640625,-43.266796,56.670177,-0.40847963,167.21349,-0.40665591,167.1418,-43.215492,84.575752
1273125000,-43.072021,51.340046,-0.40836304,166.54164,-0.40399569,166.49516,-42.740307,84.130348
1274609375,-42.511024,54.510593,-0.40732682,165.91443,-0.40844443,165.89157,-43.137653,81.89872
1276093750,-42.056629,51.84697,-0.40710193,165.24199,-0.40907651,165.21916,-43.227436,82.551727
1277578125,-42.431133,54.683926,-0.4082993,164.60478,-0.40953091,164.58871,-42.656254,80.059723
1279062500,-41.580612,53.891838,-0.40848339,163.97551,-0.40527272,163.93318,-42.36739,81.248451
1280546875,-41.796108,51.351524,-0.4116787,163.3385,-0.40769836,163.29468,-41.990196,78.154449
1282031250,-41.106705,50.677643,-0.40765271,162.68053,-0.4073903,162.64095,-41.979614,79.441071
1283515625,-41.181293,52.20219,-0.40849257,162.03024,-0.40688065,161.98326,-42.028378,77.70433
1285000000,-40.998333,52.618458,-0.40742907,161.38565,-0.40970042,161.35858,-41.90691,73.593224
1286484375,-40.762211,51.746429,-0.4127036,160.75414,-0.40855429,160.7205,-40.545956,74.140846
1287968750,-40.23452,51.488487,-0.40683436,160.09822,-0.41327539,160.05951,-40.799335,73.900391
1289453125,-40.221523,52.435295,-0.40838009,159.47823,-0.40807003,159.42409,-40.179081,70.253525
