!CSV A.01.01
!Agilent Technologies,N5222A,MY51421451,A.09.90.02
!Agilent N5222A: A.09.90.02
!Date: Tuesday, January 28, 2014 16:19:28
!Source: Standard

BEGIN CH2_DATA
Freq(Hz),S33(DB),S33(DEG),S34(DB),S34(DEG),S43(DB),S43(DEG),S44(DB),S44(DEG)
1000000000,-32.203751,50.503017,-0.33910191,-41.378849,-0.33630338,-41.383331,-31.881298,32.922131
1001484375,-32.099834,51.007553,-0.34088433,-42.011505,-0.33659327,-41.973522,-31.846737,32.874916
1002968750,-32.037998,49.645195,-0.34135067,-42.578934,-0.33773744,-42.584759,-31.718388,30.704218
1004453125,-31.876177,47.594723,-0.33898264,-43.172665,-0.34057736,-43.15979,-31.750505,30.732195
1005937500,-31.975103,47.779575,-0.33922738,-43.773224,-0.34140909,-43.781853,-31.877485,31.207083
1007421875,-31.887188,47.164169,-0.34081116,-44.377613,-0.33847868,-44.326176,-31.811258,31.28323
1008906250,-31.720266,46.396927,-0.34439912,-44.965908,-0.34227446,-44.930183,-31.589296,29.505287
1010390625,-31.752024,45.310535,-0.3429592,-45.536213,-0.34190953,-45.555553,-31.545868,29.413626
1011875000,-31.808474,44.445263,-0.34152135,-46.147358,-0.33976692,-46.119072,-31.507835,29.55014
1013359375,-31.809301,45.130814,-0.33886626,-46.742001,-0.33886304,-46.732098,-31.441235,27.766817
1014843750,-31.632072,42.69376,-0.34343353,-47.315475,-0.34159511,-47.33268,-31.501696,26.28644
1016328125,-31.680853,43.171139,-0.34610027,-47.915108,-0.3408744,-47.93523,-31.534189,25.436911
1017812500,-31.576305,41.892212,-0.34334013,-48.518345,-0.34391901,-48.502007,-31.273819,25.328568
1019296875,-31.451923,41.586185,-0.34332597,-49.108479,-0.34272313,-49.110336,-31.556149,24.773111
1020781250,-31.536802,41.020493,-0.33929384,-49.696312,-0.34596664,-49.698658,-31.219793,23.716721
1022265625,-31.68985,40.550304,-0.34540102,-50.307182,-0.34450158,-50.314594,-31.489723,23.959625
1023750000,-31.414352,39.82888,-0.3426542,-50.900696,-0.34626234,-50.91811,-31.350187,23.022738
1025234375,-31.369019,39.017197,-0.34443703,-51.503227,-0.3484619,-51.488861,-31.255447,22.382734
1026718750,-31.457859,37.904728,-0.34255755,-52.08699,-0.34378442,-52.078861,-31.224092,21.327406
1028203125,-31.431318,38.114159,-0.3457545,-52.683384,-0.34268156,-52.669762,-31.283688,21.539503
1029687500,-31.593143,36.415615,-0.34313333,-53.279366,-0.3480719,-53.262012,-31.315041,21.396345
1031171875,-31.267767,37.267178,-0.34483057,-53.865051,-0.34228563,-53.873806,-31.252153,18.223986
1032656250,-31.426529,35.935184,-0.34284648,-54.449394,-0.34436285,-54.436462,-31.254694,18.770399
1034140625,-31.522255,35.788651,-0.34614381,-55.050461,-0.34158188,-55.069973,-31.164564,18.172176
1035625000,-31.329128,35.902401,-0.34828386,-55.631458,-0.34779969,-55.651897,-31.059671,18.285442
1037109375,-31.391821,34.59845,-0.34628162,-56.248825,-0.34445846,-56.23777,-31.265644,15.906928
1038593750,-31.510176,33.452984,-0.34701121,-56.835449,-0.34646997,-56.8325,-31.074751,15.102486
1040078125,-31.464577,33.309563,-0.34546661,-57.422611,-0.34791645,-57.423691,-31.030605,15.758085
1041562500,-31.446072,34.647579,-0.34612024,-58.029083,-0.34464625,-58.000088,-30.934072,14.808832
1043046875,-31.324078,32.081963,-0.34609082,-58.616425,-0.34835553,-58.609238,-30.946289,13.880379
1044531250,-31.39254,32.378357,-0.34623882,-59.215523,-0.34353334,-59.206512,-30.951021,13.334208
1046015625,-31.27478,32.084126,-0.34914219,-59.774319,-0.34567297,-59.810341,-30.988943,12.236295
1047500000,-31.39016,30.713758,-0.34747317,-60.4123,-0.35257196,-60.391209,-31.019497,12.240582
1048984375,-31.213226,31.158596,-0.34380737,-60.992851,-0.34717256,-60.989662,-31.041481,10.850291
1050468750,-31.264715,30.345953,-0.34506482,-61.595078,-0.3468689,-61.571842,-31.037361,10.727608
1051953125,-31.353714,29.531385,-0.34857231,-62.190998,-0.35199741,-62.168888,-30.982294,9.6213303
1053437500,-31.338654,29.224529,-0.34984338,-62.760418,-0.3469016,-62.778488,-30.929131,8.1684799
1054921875,-31.261906,28.874001,-0.34790084,-63.371964,-0.34959167,-63.339104,-30.979078,8.4179058
1056406250,-31.42091,28.460873,-0.34896925,-63.954967,-0.34639326,-63.958439,-30.774632,7.5168657
1057890625,-31.335938,27.328651,-0.34772015,-64.559914,-0.35185626,-64.554977,-30.921051,6.7723308
1059375000,-31.242052,26.553408,-0.3474986,-65.151894,-0.35124713,-65.140305,-30.901684,5.9874973
1060859375,-31.470947,26.245974,-0.3508417,-65.765785,-0.34674087,-65.712616,-30.938906,6.5055337
1062343750,-31.408941,25.913565,-0.34846574,-66.327538,-0.35064116,-66.307404,-30.956469,4.2446961
1063828125,-31.317589,25.388401,-0.35172766,-66.92337,-0.35062996,-66.913643,-30.925917,3.6283405
1065312500,-31.29796,25.31093,-0.35077026,-67.543854,-0.35010427,-67.494034,-30.8398,3.491024
1066796875,-31.129139,24.581957,-0.35031545,-68.110649,-0.35476846,-68.097885,-30.786758,1.7212216
1068281250,-31.199734,25.020048,-0.35087469,-68.729874,-0.35407564,-68.70858,-30.840723,2.6483135
1069765625,-31.208376,23.532854,-0.35088241,-69.283966,-0.35437515,-69.304558,-30.751335,1.2039539
1071250000,-31.179956,22.591421,-0.34953773,-69.904221,-0.35445622,-69.895515,-30.715006,0.86140245
1072734375,-31.409849,23.187405,-0.35076743,-70.482857,-0.35082144,-70.489044,-30.783661,0.20771931
1074218750,-31.278036,21.153694,-0.35335177,-71.096191,-0.35171831,-71.082169,-30.834343,-0.43153802
1075703125,-31.242155,20.943392,-0.35361499,-71.655731,-0.35256016,-71.683914,-30.803545,-1.9480197
1077187500,-31.141336,20.910782,-0.35533217,-72.28907,-0.34986997,-72.265495,-30.595659,-2.2623425
1078671875,-31.185112,19.752153,-0.35435522,-72.895866,-0.3563894,-72.828987,-30.68623,-2.1778522
1080156250,-31.278244,19.400972,-0.35299593,-73.486832,-0.34948653,-73.451851,-30.584433,-3.5563018
1081640625,-31.135958,19.224451,-0.35155839,-74.045715,-0.35478401,-74.053513,-30.720652,-3.2048593
1083125000,-31.180069,17.952297,-0.35208863,-74.664421,-0.34887335,-74.658997,-30.618574,-4.5092096
1084609375,-31.17812,18.045101,-0.35182378,-75.23143,-0.35302216,-75.234467,-30.782257,-4.524477
1086093750,-31.266447,17.331629,-0.35258386,-75.854607,-0.35338095,-75.807579,-30.807482,-5.3402853
1087578125,-31.06856,16.582983,-0.35480708,-76.427094,-0.35313189,-76.431389,-30.605591,-5.5058112
1089062500,-31.418722,16.093197,-0.35584247,-77.017128,-0.35611588,-77.022758,-30.759703,-7.239408
1090546875,-31.26338,14.757817,-0.35501093,-77.618469,-0.3561739,-77.619347,-30.684521,-6.836864
1092031250,-31.230593,14.523865,-0.35461149,-78.21331,-0.3528432,-78.213554,-30.689281,-7.272069
1093515625,-31.285694,13.823566,-0.35738483,-78.781036,-0.35679063,-78.814964,-30.714926,-9.6063452
1095000000,-31.116436,13.966005,-0.35549399,-79.378075,-0.35448968,-79.417732,-30.790218,-9.2337465
1096484375,-31.277773,12.826378,-0.35527918,-79.967499,-0.35235006,-79.984215,-30.774723,-10.571405
1097968750,-31.245661,12.065707,-0.35694313,-80.561218,-0.35391966,-80.583046,-30.672966,-10.331998
1099453125,-31.276237,11.349615,-0.35668498,-81.19352,-0.35449794,-81.180054,-30.70615,-10.159824
1100937500,-31.215445,11.030982,-0.35771719,-81.77166,-0.35558346,-81.774323,-30.704473,-11.457026
1102421875,-31.1038,10.481369,-0.35608909,-82.390144,-0.35907522,-82.387497,-30.653448,-11.414576
1103906250,-31.188208,9.4227448,-0.3596178,-82.957924,-0.35537893,-82.966484,-30.666447,-12.346508
1105390625,-31.44017,10.434872,-0.35783777,-83.57238,-0.35875845,-83.532845,-30.703854,-12.95886
1106875000,-31.210316,9.2832966,-0.35570499,-84.145279,-0.35615259,-84.146973,-30.651094,-13.113311
1108359375,-31.294256,8.2630959,-0.35744566,-84.722511,-0.35853982,-84.73349,-30.704451,-14.536912
1109843750,-31.348667,7.0892367,-0.3547177,-85.347366,-0.35880494,-85.323212,-30.564692,-14.632378
1111328125,-31.230961,6.8351631,-0.35412839,-85.924255,-0.35900909,-85.92437,-30.583017,-15.87604
1112812500,-31.169575,5.705637,-0.35828868,-86.515022,-0.35986376,-86.505882,-30.737074,-16.438232
1114296875,-31.320631,5.9672623,-0.359299,-87.125031,-0.35429898,-87.11396,-30.538582,-17.460423
1115781250,-31.424719,5.8380857,-0.35814488,-87.717186,-0.35948479,-87.68528,-30.725269,-17.229952
1117265625,-31.24431,4.1391377,-0.3585766,-88.305061,-0.3579942,-88.329414,-30.816893,-19.467985
1118750000,-31.289059,4.0925684,-0.35674801,-88.921768,-0.35777691,-88.890266,-30.751869,-18.087635
1120234375,-31.448399,2.3723228,-0.36086854,-89.496185,-0.35996389,-89.465073,-30.84244,-19.318974
1121718750,-31.328108,3.841814,-0.36039564,-90.095718,-0.35954309,-90.084244,-30.766287,-20.908146
1123203125,-31.506666,3.5742333,-0.35789382,-90.686348,-0.35604802,-90.673889,-30.816198,-19.843731
1124687500,-31.374031,2.0706906,-0.36065662,-91.285355,-0.35480964,-91.264458,-30.806103,-21.004627
1126171875,-31.454067,1.3392055,-0.36144724,-91.875252,-0.35557169,-91.864265,-30.747761,-21.348364
1127656250,-31.48646,1.2705138,-0.36155954,-92.450104,-0.35759255,-92.4599,-30.866045,-23.458815
1129140625,-31.507402,0.7363019,-0.36149076,-93.067406,-0.35830233,-93.065224,-30.974955,-23.838989
1130625000,-31.478445,-0.7063393,-0.36068824,-93.644737,-0.36001313,-93.638039,-30.962526,-23.763533
1132109375,-31.68013,-1.4028741,-0.35883144,-94.258499,-0.36464244,-94.221474,-31.007509,-24.274029
1133593750,-31.637421,-1.6947474,-0.36185706,-94.83593,-0.35537013,-94.841927,-31.054293,-24.79878
1135078125,-31.599716,-1.7551969,-0.35818741,-95.437836,-0.36488959,-95.42543,-31.045101,-26.032564
1136562500,-31.724194,-2.4654806,-0.36028692,-96.032669,-0.35961789,-96.043495,-31.159767,-26.399057
1138046875,-31.733036,-2.6598608,-0.36014324,-96.615364,-0.36173937,-96.630089,-31.186811,-27.181223
1139531250,-31.814787,-3.2871768,-0.3580218,-97.218315,-0.3602514,-97.196678,-31.30979,-27.016077
1141015625,-31.91037,-3.3956435,-0.36223283,-97.812935,-0.36103451,-97.794853,-31.11301,-28.477833
1142500000,-31.864019,-3.7577837,-0.36151341,-98.407921,-0.35994577,-98.407524,-31.449163,-29.947023
1143984375,-32.066288,-5.5430608,-0.36279914,-98.977638,-0.36189306,-98.974083,-31.37587,-29.253349
1145468750,-32.04829,-5.6614861,-0.36197942,-99.588158,-0.36363605,-99.610962,-31.283321,-30.811684
1146953125,-32.193783,-4.1379914,-0.36034605,-100.20625,-0.35827741,-100.17376,-31.320829,-31.373859
1148437500,-32.210228,-5.9654245,-0.36230019,-100.79275,-0.35969332,-100.77486,-31.32972,-31.839285
1149921875,-32.172626,-7.155148,-0.36331052,-101.36021,-0.36119658,-101.3776,-31.360249,-33.188011
1151406250,-32.253586,-7.1835737,-0.36246872,-101.97728,-0.35655245,-101.94408,-31.476091,-32.116779
1152890625,-32.292931,-7.4956946,-0.36225733,-102.54596,-0.36365178,-102.54636,-31.567997,-33.86784
1154375000,-32.377625,-8.0867844,-0.36297366,-103.15784,-0.3630957,-103.15739,-31.476339,-33.76405
1155859375,-32.341217,-8.5061817,-0.36355844,-103.74752,-0.36254883,-103.75094,-31.58497,-36.133301
1157343750,-32.237431,-9.0453558,-0.36030552,-104.33816,-0.36387423,-104.33588,-31.72226,-36.869564
1158828125,-32.403271,-7.9632902,-0.36247712,-104.93758,-0.36350057,-104.92777,-31.615786,-38.486118
1160312500,-32.498352,-9.1808224,-0.36419043,-105.53165,-0.36305457,-105.54208,-31.623751,-37.427692
1161796875,-32.515507,-9.536562,-0.36421418,-106.1397,-0.36304232,-106.12673,-31.592884,-38.189915
1163281250,-32.523262,-9.7156868,-0.36451986,-106.73595,-0.3656171,-106.70909,-31.655447,-39.098518
1164765625,-32.831963,-10.327321,-0.36632422,-107.3191,-0.36490083,-107.32066,-31.757118,-39.577427
1166250000,-32.595066,-11.755534,-0.36526886,-107.90117,-0.36345971,-107.89576,-31.856083,-40.931446
1167734375,-32.733776,-12.313266,-0.36643118,-108.4948,-0.36385256,-108.50345,-32.025829,-43.077488
1169218750,-32.726563,-12.846356,-0.36518019,-109.07508,-0.36292347,-109.1179,-31.997318,-41.980984
1170703125,-32.826569,-14.085718,-0.3666814,-109.70721,-0.36156499,-109.71842,-31.976131,-42.496353
1172187500,-32.813702,-13.792018,-0.36456165,-110.27856,-0.365421,-110.24658,-32.009716,-44.062649
1173671875,-32.912361,-14.314152,-0.3631961,-110.87431,-0.3620452,-110.87625,-32.092442,-44.286552
1175156250,-32.922665,-15.297286,-0.3659898,-111.47191,-0.36383832,-111.47503,-32.13221,-45.219288
1176640625,-32.969978,-15.133373,-0.36391208,-112.05477,-0.36769879,-112.05047,-32.254284,-46.73064
1178125000,-33.043316,-15.430625,-0.36193511,-112.66857,-0.36889037,-112.67862,-32.360748,-46.542435
1179609375,-33.087673,-17.208488,-0.36622706,-113.24153,-0.36785436,-113.26007,-32.270699,-48.72179
1181093750,-33.138008,-17.358065,-0.36866269,-113.85155,-0.36715764,-113.85325,-32.301556,-48.497219
1182578125,-33.301571,-15.835167,-0.36786225,-114.44866,-0.36581835,-114.47302,-32.532612,-48.705082
1184062500,-33.3741,-18.03606,-0.36702454,-115.03249,-0.36695114,-115.01954,-32.420052,-48.939976
1185546875,-33.358253,-18.892014,-0.36621481,-115.64172,-0.37069994,-115.6075,-32.58205,-51.198277
1187031250,-33.283577,-19.184624,-0.37093168,-116.23917,-0.37115616,-116.1964,-32.533691,-52.114136
1188515625,-33.653332,-19.802229,-0.36758891,-116.83503,-0.36757034,-116.81315,-32.542961,-50.975594
1190000000,-33.912823,-19.701969,-0.36793733,-117.39904,-0.36749041,-117.40981,-32.608536,-51.303474
1191484375,-33.7323,-19.051165,-0.37058362,-118.01369,-0.36854318,-118.02355,-32.701859,-53.63028
1192968750,-33.765942,-19.784544,-0.36994353,-118.62261,-0.36704776,-118.58751,-32.776337,-53.875134
1194453125,-33.981998,-21.756758,-0.36811349,-119.19739,-0.36654937,-119.20145,-32.983601,-53.820251
1195937500,-34.064972,-21.381386,-0.36809719,-119.784,-0.36922041,-119.7886,-33.132519,-56.320431
1197421875,-33.916077,-21.943331,-0.37042537,-120.38076,-0.36856237,-120.37924,-32.964939,-56.096542
1198906250,-34.234501,-22.028931,-0.3665733,-120.9804,-0.37022269,-120.94932,-33.214458,-56.583557
1200390625,-34.087605,-24.090405,-0.36795864,-121.57395,-0.37008998,-121.58707,-33.156223,-56.451511
1201875000,-34.313568,-23.121868,-0.36984354,-122.18856,-0.36790568,-122.15797,-33.018456,-56.949871
1203359375,-34.298779,-24.310198,-0.36886811,-122.76043,-0.36802927,-122.74728,-33.210518,-56.662025
1204843750,-34.327175,-24.586048,-0.36933324,-123.34777,-0.36860451,-123.34385,-33.336185,-59.171986
1206328125,-34.314056,-24.814865,-0.37218264,-123.96596,-0.3680239,-123.91611,-33.354916,-58.47773
1207812500,-34.670567,-25.359972,-0.36896771,-124.55058,-0.36544782,-124.52425,-33.590672,-58.663567
1209296875,-34.702862,-26.277441,-0.37431499,-125.14191,-0.36826995,-125.1227,-33.589245,-60.061317
1210781250,-34.754669,-28.158573,-0.37096041,-125.72868,-0.36955208,-125.71112,-33.444733,-61.526497
1212265625,-34.566776,-28.349886,-0.37104326,-126.32835,-0.37199354,-126.31744,-33.5219,-62.929436
1213750000,-35.113121,-29.193155,-0.372024,-126.93265,-0.36838254,-126.91019,-33.637424,-62.747993
1215234375,-34.722435,-27.415848,-0.373566,-127.50513,-0.36842975,-127.50755,-33.787476,-63.280323
1216718750,-35.066212,-29.204247,-0.37449875,-128.11064,-0.37273991,-128.09032,-33.97271,-64.211761
1218203125,-35.281044,-27.690048,-0.3762725,-128.66988,-0.37036666,-128.70425,-34.061138,-65.701118
1219687500,-35.382626,-30.734547,-0.37341252,-129.29456,-0.36975217,-129.28178,-34.113419,-63.312431
1221171875,-35.385754,-31.104187,-0.37353358,-129.87788,-0.36797336,-129.88913,-34.355652,-65.281303
1222656250,-35.328709,-30.781912,-0.3711378,-130.4912,-0.37084591,-130.47308,-34.274818,-65.862854
1224140625,-35.558792,-31.366371,-0.37143439,-131.05084,-0.37294272,-131.08154,-34.510357,-66.781227
1225625000,-35.853546,-32.851627,-0.37388641,-131.68793,-0.37019375,-131.64423,-34.411114,-67.571442
1227109375,-35.596882,-34.193783,-0.37283567,-132.2534,-0.3744005,-132.24075,-34.565365,-68.426308
1228593750,-36.08028,-33.319252,-0.37308142,-132.86569,-0.37315583,-132.85857,-34.602028,-69.703735
1230078125,-35.855556,-33.901783,-0.37491181,-133.43277,-0.37011319,-133.45392,-34.892094,-69.692413
1231562500,-36.217232,-34.744038,-0.37409449,-134.04179,-0.37153903,-134.03394,-34.839359,-70.941483
1233046875,-36.503868,-37.327511,-0.37221321,-134.64967,-0.3745715,-134.63388,-34.92289,-72.558151
1234531250,-36.378605,-35.310547,-0.37342826,-135.25282,-0.37251261,-135.22696,-35.376076,-70.977211
1236015625,-36.596508,-34.953506,-0.37361172,-135.85072,-0.37377977,-135.82123,-35.467609,-72.441277
1237500000,-37.109196,-35.289177,-0.37385321,-136.4279,-0.37724641,-136.41797,-35.39122,-74.183571
1238984375,-36.872345,-37.654377,-0.37567651,-137.00903,-0.37443212,-137.00548,-35.627827,-74.654648
1240468750,-37.086662,-37.053986,-0.37523299,-137.61354,-0.37417096,-137.60455,-35.865677,-76.132935
1241953125,-36.870148,-36.659889,-0.37403113,-138.21967,-0.37499362,-138.20959,-35.885715,-76.114532
1243437500,-37.480339,-36.630474,-0.37710994,-138.80333,-0.37302101,-138.78601,-36.053299,-76.032387
1244921875,-37.678139,-36.619717,-0.37703437,-139.40117,-0.37241572,-139.38123,-36.106586,-77.662376
1246406250,-37.727032,-39.873123,-0.37225777,-139.97955,-0.37967995,-139.98816,-36.523129,-80.283371
1247890625,-38.201935,-39.732334,-0.37757346,-140.58223,-0.37434238,-140.55595,-36.531017,-80.267159
1249375000,-38.297634,-37.95451,-0.37559363,-141.15976,-0.37310964,-141.18245,-36.717796,-81.046982
1250859375,-38.208012,-38.720226,-0.37332109,-141.77658,-0.37774736,-141.77631,-36.852459,-82.455963
1252343750,-38.674305,-37.76162,-0.37478411,-142.35777,-0.37570682,-142.3732,-36.75473,-83.854378
1253828125,-38.79649,-42.181347,-0.37382266,-142.95062,-0.37676558,-142.96001,-37.076458,-84.134422
1255312500,-39.024349,-36.663818,-0.37387592,-143.55521,-0.37542018,-143.54633,-37.238529,-84.944199
1256796875,-39.079033,-38.394867,-0.37466756,-144.1514,-0.37555087,-144.13139,-37.271328,-87.359955
1258281250,-39.20586,-37.248505,-0.37666711,-144.75301,-0.37595803,-144.72827,-37.610165,-86.355705
1259765625,-39.255817,-38.820747,-0.37920237,-145.33839,-0.37803739,-145.33768,-37.731117,-88.237381
1261250000,-39.609516,-38.361996,-0.3765049,-145.92297,-0.37748003,-145.93346,-38.058212,-88.40168
1262734375,-40.059639,-37.832291,-0.37541229,-146.50819,-0.37656945,-146.51624,-38.106136,-91.500336
1264218750,-40.268124,-37.84549,-0.37888294,-147.1243,-0.37600827,-147.11835,-38.181026,-90.460945
1265703125,-40.50687,-37.336941,-0.37821838,-147.70625,-0.37728512,-147.70364,-38.543716,-91.905823
1267187500,-40.384029,-38.327362,-0.37746149,-148.30141,-0.37507331,-148.31245,-39.039967,-94.914513
1268671875,-40.316319,-36.569118,-0.37725347,-148.88837,-0.37796569,-148.87766,-38.881607,-92.69278
1270156250,-41.101772,-37.826866,-0.37690604,-149.48233,-0.37558937,-149.49223,-38.63549,-95.600227
1271640625,-41.127087,-40.49741,-0.37717152,-150.07507,-0.37634113,-150.07822,-39.14175,-98.558487
1273125000,-41.24651,-36.355274,-0.38032421,-150.68994,-0.37416565,-150.68256,-39.314312,-100.57951
1274609375,-41.850384,-37.747662,-0.38120881,-151.26767,-0.37952852,-151.26495,-39.480553,-99.066246
1276093750,-42.394405,-34.674648,-0.37809122,-151.88478,-0.37954372,-151.8685,-39.618706,-98.566544
1277578125,-41.881767,-39.509487,-0.37763721,-152.47528,-0.37892878,-152.43456,-39.969818,-99.967308
1279062500,-42.808773,-38.361931,-0.37900549,-153.0647,-0.3795113,-153.03142,-39.807003,-103.152
1280546875,-42.518398,-36.466846,-0.38079953,-153.64442,-0.37927389,-153.64925,-40.169086,-104.66428
1282031250,-43.26236,-33.469097,-0.37891614,-154.2238,-0.38051546,-154.24329,-40.084446,-105.48746
1283515625,-43.335449,-35.468552,-0.37955457,-154.84979,-0.3776646,-154.84094,-40.3899,-104.57301
1285000000,-43.493977,-36.214844,-0.3769539,-155.44794,-0.38141057,-155.42293,-40.918053,-105.1925
1286484375,-43.781284,-36.198013,-0.38258088,-156.04199,-0.37958118,-156.01083,-41.103989,-112.15171
1287968750,-44.582439,-32.765499,-0.38044232,-156.62379,-0.38163757,-156.63727,-41.133823,-111.29738
1289453125,-44.800026,-35.889328,-0.3817274,-157.21405,-0.37887427,-157.20346,-41.621174,-114.96147
