!CSV A.01.01
!Agilent Technologies,N5222A,MY51421451,A.09.90.02
!Agilent N5222A: A.09.90.02
!Date: Tuesday, February 11, 2014 11:31:39
!Source: Standard

BEGIN CH2_DATA
Freq(Hz),S33(DB),S33(DEG),S34(DB),S34(DEG),S43(DB),S43(DEG),S44(DB),S44(DEG)
4000000000,-34.999199,-53.113411,-0.50569856,-167.23718,-0.51195228,-167.2683,-33.65205,-109.41241
4000312500,-35.095215,-53.33429,-0.54114723,-169.06085,-0.49482131,-167.36649,-33.587845,-109.26955
4000625000,-35.014908,-54.59407,-0.53150916,-168.61647,-0.49805012,-167.46342,-33.568233,-109.4123
4000937500,-34.991783,-55.168774,-0.51770431,-168.18089,-0.50454324,-167.56822,-33.561687,-109.12045
4001250000,-34.986912,-55.719116,-0.51510078,-167.82158,-0.50977212,-167.65866,-33.671238,-109.47971
4001562500,-34.913448,-55.563126,-0.51246703,-167.68398,-0.50958246,-167.77209,-33.628078,-109.44633
4001875000,-34.957069,-55.077892,-0.51059633,-167.72281,-0.50949174,-167.8448,-33.687248,-109.15483
4002187500,-34.937538,-54.895103,-0.51129508,-167.85399,-0.51053613,-167.94095,-33.657059,-109.26794
4002500000,-34.863274,-54.136417,-0.5136224,-168.03082,-0.51122701,-168.04666,-33.607132,-109.23582
4002812500,-34.801022,-54.479809,-0.51064962,-168.16444,-0.51126009,-168.11649,-33.667515,-109.14151
4003125000,-34.900635,-53.949211,-0.51076806,-168.29305,-0.51096374,-168.22462,-33.599567,-108.87943
4003437500,-34.923409,-54.743938,-0.51175636,-168.34583,-0.50987434,-168.33495,-33.491287,-108.80788
4003750000,-34.933533,-54.669186,-0.51027113,-168.47585,-0.51028913,-168.43889,-33.415462,-108.79417
4004062500,-34.932838,-55.081867,-0.51106822,-168.55371,-0.50841093,-168.53906,-33.442673,-108.76501
4004375000,-34.978363,-54.943321,-0.51140094,-168.66026,-0.5116539,-168.65674,-33.446304,-108.86591
4004687500,-34.881435,-55.157875,-0.51318538,-168.76875,-0.51147372,-168.72565,-33.484505,-109.06181
4005000000,-34.92028,-56.043484,-0.51338822,-168.84833,-0.51154059,-168.82893,-33.509346,-109.97468
4005312500,-34.870708,-56.304283,-0.50946784,-168.94632,-0.51429373,-168.92084,-33.621723,-111.06849
4005625000,-34.861267,-56.95084,-0.51219028,-169.03865,-0.5080387,-169.03284,-33.654816,-111.08087
4005937500,-34.853027,-57.297337,-0.51176977,-169.12929,-0.51231551,-169.11171,-33.747829,-111.22253
4006250000,-34.859432,-57.430408,-0.5114916,-169.22984,-0.5110687,-169.21159,-33.623405,-111.33768
4006562500,-34.802219,-57.188072,-0.51013303,-169.31303,-0.51206547,-169.32281,-33.64637,-111.18672
4006875000,-34.815819,-57.311577,-0.50985128,-169.41959,-0.5133605,-169.42928,-33.604313,-110.63208
4007187500,-34.814556,-57.175304,-0.51285791,-169.52606,-0.50932044,-169.52235,-33.582405,-110.44753
4007500000,-34.837147,-57.350758,-0.514027,-169.61098,-0.50822741,-169.63655,-33.51273,-110.13325
4007812500,-34.940605,-57.15947,-0.51383108,-169.71909,-0.5076502,-169.70557,-33.538258,-109.81064
4008125000,-34.994987,-57.301025,-0.51351994,-169.82626,-0.50983274,-169.8278,-33.602734,-109.4669
4008437500,-35.004856,-57.550182,-0.51168543,-169.91003,-0.50849026,-169.88844,-33.507412,-109.46223
4008750000,-34.951923,-57.072289,-0.51112849,-170.03282,-0.51158869,-170.00156,-33.555534,-109.03795
4009062500,-34.927158,-57.907936,-0.51004189,-170.12213,-0.50751114,-170.09045,-33.514423,-109.59648
4009375000,-34.894028,-57.540436,-0.51451039,-170.21704,-0.50928479,-170.19064,-33.434685,-109.52238
4009687500,-34.818787,-57.644569,-0.51209772,-170.30948,-0.51179099,-170.29237,-33.47578,-109.88374
4010000000,-34.672649,-57.776402,-0.51180851,-170.42073,-0.50825804,-170.38431,-33.43256,-110.39761
4010312500,-34.751232,-58.493755,-0.51032728,-170.49803,-0.51055008,-170.47614,-33.415962,-110.29462
4010625000,-34.562164,-58.454384,-0.5119462,-170.59601,-0.51009399,-170.59032,-33.389011,-110.04892
4010937500,-34.509525,-59.693306,-0.51292175,-170.7019,-0.51042974,-170.67924,-33.356045,-109.59917
4011250000,-34.400593,-60.478001,-0.50986731,-170.81223,-0.50758302,-170.78746,-33.347729,-109.41238
4011562500,-34.426281,-60.310612,-0.51208401,-170.88499,-0.50637412,-170.87167,-33.300362,-109.32602
4011875000,-34.403927,-60.208984,-0.51136625,-171.00063,-0.5084402,-170.96051,-33.312107,-108.75503
4012187500,-34.48008,-60.077114,-0.51436764,-171.08629,-0.50691527,-171.07344,-33.274715,-109.31463
4012500000,-34.52409,-60.305866,-0.5162679,-171.17563,-0.50760812,-171.15654,-33.338516,-109.04016
4012812500,-34.550259,-60.502949,-0.513282,-171.2941,-0.50987428,-171.25211,-33.379066,-109.38181
4013125000,-34.561058,-60.550186,-0.51515365,-171.35657,-0.50790256,-171.35002,-33.326519,-109.32325
4013437500,-34.513958,-60.041306,-0.51484609,-171.45819,-0.51049531,-171.43683,-33.341152,-109.04388
4013750000,-34.462948,-61.124607,-0.51488006,-171.5708,-0.50709748,-171.54073,-33.366272,-109.86604
4014062500,-34.352806,-61.472187,-0.51479894,-171.66014,-0.50828409,-171.6384,-33.361481,-109.69292
4014375000,-34.270962,-61.992451,-0.51559693,-171.76135,-0.51030838,-171.75484,-33.26759,-109.95029
4014687500,-34.203499,-61.840172,-0.51438779,-171.87395,-0.51103604,-171.85867,-33.278008,-109.39141
4015000000,-34.194244,-61.58884,-0.51401883,-171.98224,-0.51058751,-171.95078,-33.310013,-109.40534
4015312500,-34.245083,-61.153614,-0.51549339,-172.07738,-0.51100141,-172.05797,-33.314766,-109.1665
4015625000,-34.224533,-61.397446,-0.51091093,-172.15141,-0.51089984,-172.15993,-33.421185,-109.18513
4015937500,-34.239594,-61.264839,-0.50952381,-172.2422,-0.51140743,-172.2509,-33.393677,-109.22742
4016250000,-34.246307,-61.377842,-0.5116576,-172.33159,-0.51146537,-172.35422,-33.388428,-109.2664
4016562500,-34.300335,-60.98782,-0.51098311,-172.4631,-0.51087552,-172.43849,-33.428177,-110.27218
4016875000,-34.333664,-61.211563,-0.51191801,-172.54474,-0.51224715,-172.54646,-33.342411,-110.40331
4017187500,-34.274319,-61.466335,-0.51272744,-172.62042,-0.51214749,-172.64429,-33.281776,-111.17931
4017500000,-34.333096,-61.470085,-0.51328629,-172.73717,-0.51082659,-172.73358,-33.310543,-111.08731
4017812500,-34.29282,-61.872314,-0.51402372,-172.83371,-0.51090926,-172.82825,-33.280697,-111.32273
4018125000,-34.303234,-62.463001,-0.5123474,-172.92944,-0.50982583,-172.92305,-33.245789,-111.14592
4018437500,-34.365429,-62.96822,-0.51316166,-173.02115,-0.51254129,-173.01611,-33.215443,-111.16664
4018750000,-34.309078,-63.052761,-0.51143587,-173.12114,-0.51097012,-173.11877,-33.165638,-111.03829
4019062500,-34.2635,-63.479027,-0.51198447,-173.23528,-0.51476038,-173.21245,-33.185047,-110.27538
4019375000,-34.201077,-63.480545,-0.51209468,-173.33031,-0.5108912,-173.317,-33.163223,-111.11348
4019687500,-34.053608,-63.426563,-0.51232344,-173.4328,-0.51041669,-173.40555,-33.119896,-111.64402
4020000000,-33.929108,-63.753239,-0.51107258,-173.52223,-0.51171803,-173.5034,-33.112946,-111.71022
4020312500,-33.912197,-63.923756,-0.51449364,-173.6171,-0.50680989,-173.61052,-33.133434,-111.65575
4020625000,-33.859627,-64.633018,-0.51314926,-173.7186,-0.51029974,-173.72052,-33.041718,-111.76572
4020937500,-33.906174,-65.000999,-0.51322919,-173.82013,-0.50917137,-173.80635,-33.09687,-110.92418
4021250000,-33.916817,-65.29129,-0.51223499,-173.90338,-0.51098382,-173.89674,-33.155777,-110.36076
4021562500,-34.032185,-65.470482,-0.51184934,-174.00468,-0.51204586,-174.01389,-33.174084,-109.83009
4021875000,-34.009083,-65.20015,-0.5115819,-174.09039,-0.51035124,-174.09622,-33.134441,-109.36049
4022187500,-34.062538,-64.793015,-0.51004612,-174.18088,-0.51116973,-174.19443,-33.123714,-109.27781
4022500000,-34.058052,-65.063812,-0.51244587,-174.31706,-0.51192671,-174.31316,-33.127861,-110.06161
4022812500,-34.064438,-65.266685,-0.51171124,-174.40608,-0.5100106,-174.38673,-33.095329,-110.95563
4023125000,-33.973812,-65.19783,-0.51422149,-174.49249,-0.50964659,-174.47018,-33.006176,-111.33524
4023437500,-34.050476,-64.862816,-0.51547772,-174.60069,-0.5116263,-174.55801,-32.960583,-111.23035
4023750000,-34.064346,-65.382622,-0.51476401,-174.69389,-0.51140583,-174.66139,-32.968704,-111.74837
4024062500,-34.039295,-65.406166,-0.51363748,-174.79599,-0.5105384,-174.75603,-32.921188,-112.22623
4024375000,-33.962822,-66.004494,-0.51327062,-174.89804,-0.51067609,-174.88065,-32.966843,-111.94487
4024687500,-33.918606,-65.999535,-0.51322877,-174.96642,-0.50897044,-174.94574,-32.947033,-112.11892
4025000000,-33.920902,-65.907272,-0.51328039,-175.06145,-0.51098424,-175.06163,-33.055134,-111.50751
4025312500,-33.906372,-66.322472,-0.51490462,-175.17046,-0.50853455,-175.15817,-33.00312,-111.57014
4025625000,-33.844231,-67.331284,-0.5141173,-175.25365,-0.51211053,-175.26797,-33.053818,-111.2705
4025937500,-33.816837,-67.865372,-0.5146023,-175.35747,-0.51395386,-175.35681,-32.995453,-110.78463
4026250000,-33.772442,-67.596695,-0.51675624,-175.48076,-0.51137036,-175.46365,-32.917027,-110.92091
4026562500,-33.860554,-68.314209,-0.51764494,-175.56885,-0.51358175,-175.54837,-32.894085,-111.05918
4026875000,-33.947975,-68.095016,-0.51421022,-175.69386,-0.5131247,-175.6508,-32.861145,-111.07276
4027187500,-33.965553,-68.338005,-0.51592726,-175.77232,-0.51325607,-175.75552,-32.872566,-111.22373
4027500000,-34.087696,-67.838051,-0.5147993,-175.86368,-0.51373154,-175.8513,-32.947998,-110.8755
4027812500,-34.104649,-67.624687,-0.51491076,-175.9422,-0.51203483,-175.93059,-32.944466,-111.08604
4028125000,-34.055725,-67.611084,-0.51325053,-176.04266,-0.51204777,-176.02446,-33.002895,-111.38627
4028437500,-34.048393,-67.904457,-0.51012886,-176.13747,-0.51206273,-176.1456,-32.982685,-111.69971
4028750000,-33.883305,-68.073929,-0.51127344,-176.23653,-0.51146138,-176.24933,-32.918217,-112.33286
4029062500,-33.808891,-68.202965,-0.5101198,-176.35262,-0.51357335,-176.34103,-32.877449,-112.55641
4029375000,-33.727345,-67.933975,-0.5094443,-176.43898,-0.51200938,-176.45551,-32.792099,-112.65886
4029687500,-33.742516,-68.453026,-0.51226997,-176.53123,-0.50999874,-176.53801,-32.781227,-112.79547
4030000000,-33.649803,-68.283844,-0.51128441,-176.63162,-0.51321268,-176.62732,-32.615486,-112.50803
4030312500,-33.657047,-68.50135,-0.51040244,-176.73753,-0.51327437,-176.72202,-32.470123,-112.57286
4030625000,-33.670025,-68.837952,-0.51389009,-176.82724,-0.51130003,-176.80254,-32.416775,-112.18921
4030937500,-33.690037,-69.122375,-0.5117234,-176.92474,-0.51317114,-176.90672,-32.450249,-112.56595
4031250000,-33.659809,-68.916748,-0.51298136,-177.01997,-0.51457882,-176.99695,-32.473579,-112.52871
4031562500,-33.529545,-69.302231,-0.5112353,-177.11807,-0.51391703,-177.10864,-32.54734,-113.02609
4031875000,-33.601875,-69.593697,-0.51018643,-177.2209,-0.51446074,-177.20206,-32.723309,-113.17114
4032187500,-33.559666,-69.168861,-0.51157039,-177.32083,-0.51526153,-177.29567,-32.842636,-112.85214
4032500000,-33.506977,-69.709557,-0.51285011,-177.41035,-0.51455373,-177.40637,-32.802959,-112.80952
4032812500,-33.531197,-69.967773,-0.51528621,-177.50783,-0.51421314,-177.49597,-32.860386,-112.95803
4033125000,-33.476425,-70.14785,-0.51139778,-177.61206,-0.51327181,-177.59322,-32.897213,-113.24059
4033437500,-33.421223,-70.501839,-0.51456934,-177.70506,-0.51028657,-177.67343,-32.922821,-113.06
4033750000,-33.378292,-70.704849,-0.51257896,-177.78621,-0.51253599,-177.7816,-32.839081,-113.2019
4034062500,-33.384914,-70.965141,-0.5133729,-177.9046,-0.51162148,-177.89244,-32.923588,-112.92893
4034375000,-33.435009,-71.562248,-0.51460993,-177.99678,-0.51191336,-177.97495,-32.881447,-112.72224
4034687500,-33.493729,-71.249146,-0.51259297,-178.09221,-0.51366574,-178.0966,-32.879452,-112.71374
4035000000,-33.543148,-71.211044,-0.51369017,-178.18716,-0.51067859,-178.17879,-32.851215,-112.84108
4035312500,-33.612202,-71.670425,-0.51525503,-178.30157,-0.51295805,-178.28613,-32.782928,-113.12039
4035625000,-33.697109,-72.029823,-0.51433676,-178.38043,-0.51333678,-178.38431,-32.72253,-113.00916
4035937500,-33.721836,-71.61615,-0.51411456,-178.47821,-0.51498741,-178.46645,-32.79565,-113.25346
4036250000,-33.70155,-71.934464,-0.51566285,-178.59671,-0.51279378,-178.5692,-32.676586,-112.71394
4036562500,-33.636047,-72.548012,-0.51588869,-178.67822,-0.50998831,-178.68147,-32.692898,-112.92826
4036875000,-33.611378,-72.175552,-0.51500201,-178.77417,-0.51350367,-178.78143,-32.645355,-112.78481
4037187500,-33.577003,-72.335533,-0.51520616,-178.87975,-0.51175934,-178.8593,-32.67487,-112.9289
4037500000,-33.494236,-72.794594,-0.515935,-178.96219,-0.51399374,-178.96898,-32.688484,-112.85962
4037812500,-33.533924,-73.168655,-0.51311344,-179.06229,-0.51068777,-179.07018,-32.727791,-113.30235
4038125000,-33.454826,-73.514404,-0.51256651,-179.1465,-0.51302719,-179.18246,-32.836384,-113.04263
4038437500,-33.523941,-73.772659,-0.51497924,-179.21153,-0.51215011,-179.25752,-32.743832,-113.00189
4038750000,-33.545895,-73.994759,-0.51217932,-179.3308,-0.51426977,-179.35382,-32.77866,-112.67458
4039062500,-33.604343,-73.43763,-0.51445985,-179.42995,-0.51382643,-179.4402,-32.638588,-113.25983
4039375000,-33.626801,-73.673454,-0.51182783,-179.55,-0.51157254,-179.55052,-32.640705,-112.98634
4039687500,-33.710701,-73.633942,-0.5146662,-179.6506,-0.51209986,-179.62958,-32.598301,-112.97145
4040000000,-33.701706,-73.897263,-0.51617557,-179.74669,-0.51303566,-179.72696,-32.563274,-113.01904
4040312500,-33.660931,-74.016808,-0.51416022,-179.85431,-0.51129955,-179.81448,-32.551426,-113.42317
4040625000,-33.638744,-74.435371,-0.51378918,-179.96144,-0.51303947,-179.92497,-32.594189,-113.3433
4040937500,-33.548428,-73.818863,-0.51182371,179.9485,-0.50921464,-179.9888,-32.648567,-113.45792
4041250000,-33.478611,-74.272545,-0.51452672,179.86343,-0.51180041,179.89851,-32.621712,-113.43172
4041562500,-33.383251,-74.590736,-0.5128057,179.75279,-0.51090741,179.79321,-32.64555,-113.60477
4041875000,-33.322857,-74.626663,-0.51318741,179.67195,-0.51097369,179.68745,-32.684467,-113.571
4042187500,-33.312542,-74.551842,-0.51236212,179.55646,-0.51071203,179.57567,-32.616589,-113.66296
4042500000,-33.259972,-74.68634,-0.51501566,179.47656,-0.51357377,179.49352,-32.618332,-113.32297
4042812500,-33.174007,-74.819839,-0.51247793,179.38603,-0.51335084,179.38409,-32.578423,-113.62956
4043125000,-33.164898,-75.598145,-0.51447105,179.27519,-0.51247656,179.29257,-32.556709,-113.48812
4043437500,-33.157475,-75.958496,-0.51173532,179.1761,-0.51386809,179.18419,-32.512447,-113.63344
4043750000,-33.11182,-76.082329,-0.51051182,179.10255,-0.51300043,179.08589,-32.45359,-114.48508
4044062500,-33.120472,-76.455215,-0.51363653,178.99069,-0.51447195,178.99249,-32.400532,-114.21739
4044375000,-33.119652,-76.452927,-0.5118413,178.89691,-0.51346987,178.88638,-32.379879,-115.25484
4044687500,-33.075855,-76.401962,-0.51193202,178.79152,-0.51500154,178.78558,-32.382118,-115.31951
4045000000,-33.004665,-76.356644,-0.51241845,178.69977,-0.51261097,178.69029,-32.312557,-115.23968
4045312500,-33.017559,-75.856697,-0.51294631,178.6044,-0.51547235,178.60359,-32.38805,-115.17937
4045625000,-33.091465,-76.121117,-0.51335514,178.49617,-0.5161984,178.51566,-32.390869,-114.78037
4045937500,-33.076988,-75.905487,-0.51294613,178.41206,-0.51820397,178.40681,-32.328411,-114.3145
4046250000,-33.117714,-76.440544,-0.51269978,178.30992,-0.5117901,178.3166,-32.258877,-114.5603
4046562500,-33.17054,-77.21489,-0.51497132,178.21254,-0.51357573,178.20752,-32.249908,-114.20901
4046875000,-33.242153,-77.132103,-0.51419127,178.11482,-0.51462418,178.13495,-32.254272,-114.23358
4047187500,-33.221191,-77.733727,-0.5160293,178.01637,-0.51337451,178.02551,-32.211655,-113.97769
4047500000,-33.191441,-78.138031,-0.51462108,177.91582,-0.5134086,177.94795,-32.244411,-113.9093
4047812500,-33.081741,-78.196152,-0.51584917,177.81493,-0.51112962,177.85341,-32.286774,-114.02857
4048125000,-33.056477,-78.773666,-0.51497853,177.71797,-0.51556438,177.72577,-32.346554,-113.87665
4048437500,-33.040894,-78.663399,-0.51550829,177.62466,-0.51435828,177.63028,-32.36731,-114.12878
4048750000,-32.971752,-78.994377,-0.51323646,177.53117,-0.51421052,177.53108,-32.456799,-114.26708
4049062500,-33.012852,-79.068596,-0.51538986,177.438,-0.51208425,177.4232,-32.36211,-114.47478
4049375000,-33.025497,-79.017509,-0.51366383,177.35309,-0.51281339,177.34872,-32.345299,-114.86829
4049687500,-33.066109,-78.445923,-0.51552224,177.23619,-0.51201725,177.23314,-32.269314,-114.90146
4050000000,-32.994999,-78.026443,-0.51277053,177.1245,-0.50989664,177.13875,-32.218948,-115.20781
4050312500,-33.077503,-78.291908,-0.50926459,177.05629,-0.51132238,177.03984,-32.226379,-115.27265
4050625000,-32.97731,-78.348923,-0.51359665,176.95309,-0.51240492,176.94408,-32.247429,-115.48904
4050937500,-32.959034,-78.220955,-0.51336437,176.83847,-0.51410854,176.83998,-32.194485,-115.74355
4051250000,-32.947067,-78.422127,-0.51367652,176.75697,-0.51482517,176.75485,-32.210129,-115.63342
4051562500,-32.891201,-78.640533,-0.5160594,176.66182,-0.51677495,176.67729,-32.160378,-116.09444
4051875000,-32.860153,-78.727959,-0.51625824,176.57393,-0.51726127,176.5596,-32.283962,-115.70062
4052187500,-32.931511,-78.27784,-0.51391482,176.46869,-0.51498115,176.47697,-32.283855,-115.76325
4052500000,-32.893772,-79.281738,-0.51350218,176.36026,-0.51530504,176.39482,-32.325073,-115.13486
4052812500,-32.904781,-79.491821,-0.51557148,176.2753,-0.51375771,176.27655,-32.340141,-114.76238
4053125000,-32.885239,-79.524338,-0.51729023,176.15854,-0.5136863,176.17809,-32.328434,-114.92112
4053437500,-32.93116,-80.152214,-0.51699221,176.06516,-0.51322085,176.07532,-32.33839,-114.67071
4053750000,-32.834942,-80.37001,-0.51834202,175.98026,-0.51450497,175.97316,-32.356976,-115.25204
4054062500,-32.778069,-80.670204,-0.51933151,175.86853,-0.51440865,175.87155,-32.303242,-115.50749
4054375000,-32.742764,-80.838318,-0.5174796,175.78635,-0.51635838,175.76802,-32.331074,-116.10125
4054687500,-32.772026,-81.009407,-0.51749611,175.67685,-0.51885712,175.70609,-32.3503,-116.46725
4055000000,-32.760487,-81.212234,-0.51824266,175.58453,-0.51521289,175.57124,-32.373344,-116.11713
4055312500,-32.750614,-80.899879,-0.51578051,175.48659,-0.51343489,175.47897,-32.338337,-116.44142
4055625000,-32.733803,-80.872536,-0.51709044,175.37453,-0.50991678,175.37927,-32.384789,-115.78824
4055937500,-32.779819,-80.889908,-0.51552451,175.29309,-0.5132786,175.31181,-32.377491,-115.18566
4056250000,-32.665146,-81.008568,-0.5173586,175.17758,-0.51453859,175.20406,-32.2621,-115.78212
4056562500,-32.651253,-80.783012,-0.51452672,175.10225,-0.51080233,175.12119,-32.272114,-114.93531
4056875000,-32.65892,-81.039215,-0.51776201,174.99715,-0.51199353,175.0088,-32.185051,-115.40172
4057187500,-32.644798,-81.113159,-0.51667398,174.90611,-0.51266319,174.93826,-32.256336,-115.72645
4057500000,-32.684982,-81.27047,-0.51643604,174.80049,-0.51303571,174.81244,-32.236691,-115.556
4057812500,-32.676254,-81.804123,-0.51593179,174.69463,-0.51443863,174.7272,-32.195908,-115.95576
4058125000,-32.653465,-82.312294,-0.51734984,174.5963,-0.51516795,174.60776,-32.138172,-115.72939
4058437500,-32.65332,-83.074089,-0.51548529,174.50096,-0.51614285,174.52299,-32.122028,-116.00589
4058750000,-32.619564,-83.093727,-0.51382208,174.41368,-0.51547444,174.41541,-32.032337,-115.82244
4059062500,-32.624382,-83.499748,-0.51763892,174.2894,-0.5177204,174.34113,-32.091106,-115.80208
4059375000,-32.656391,-83.691299,-0.51376498,174.20093,-0.51436263,174.24484,-31.995991,-115.41425
4059687500,-32.683613,-82.970627,-0.51553589,174.10501,-0.51500255,174.12898,-31.892679,-115.59406
4060000000,-32.665318,-82.681488,-0.5144819,174.01579,-0.51350945,174.0291,-31.925642,-115.82206
4060312500,-32.65197,-82.030251,-0.51468629,173.94528,-0.51218104,173.92297,-31.897966,-116.22237
4060625000,-32.584278,-81.980583,-0.51542246,173.8385,-0.51267451,173.83667,-31.909307,-115.8047
4060937500,-32.568256,-81.965332,-0.51654434,173.72389,-0.51461917,173.74565,-31.871098,-115.7735
