!CSV A.01.01
!Agilent Technologies,N5222A,MY51421451,A.09.90.02
!Agilent N5222A: A.09.90.02
!Date: Wednesday, May 21, 2014 12:10:49
!Source: Standard

BEGIN CH4_DATA
Freq(Hz),S33(DB),S33(DEG),S34(DB),S34(DEG),S43(DB),S43(DEG),S44(DB),S44(DEG)
1000000000,-29.968172,155.52089,-0.13993765,62.25201,-0.13691944,62.242386,-30.237436,156.81215
1001484375,-30.046686,154.05421,-0.1388979,61.786034,-0.13655119,61.787735,-30.059807,155.37711
1002968750,-29.923307,153.88138,-0.13769034,61.359886,-0.13661496,61.360222,-30.215437,155.95569
1004453125,-29.999514,153.00752,-0.1348601,60.932911,-0.13815932,60.92765,-29.971699,155.06616
1005937500,-29.943245,151.9485,-0.13771287,60.486641,-0.13642588,60.450077,-30.015509,155.58749
1007421875,-29.893597,151.5934,-0.1379568,60.05159,-0.13804474,60.01194,-29.895826,155.06433
1008906250,-29.701424,151.70863,-0.14439411,59.612923,-0.13827655,59.601051,-29.733841,154.30173
1010390625,-29.814709,151.48785,-0.14216414,59.149254,-0.13955949,59.129578,-29.816975,152.89394
1011875000,-29.744835,149.83922,-0.13630451,58.710926,-0.13994361,58.732967,-29.6751,153.01326
1013359375,-29.646036,149.53836,-0.14013082,58.276897,-0.14123563,58.26025,-29.819023,153.68648
1014843750,-29.628296,150.10654,-0.13654169,57.857277,-0.14207412,57.816608,-29.580709,151.49593
1016328125,-29.611811,148.17039,-0.14226347,57.38628,-0.13448127,57.386261,-29.608358,152.23547
1017812500,-29.51318,147.99223,-0.14066049,56.941105,-0.13577524,56.962257,-29.640257,151.02612
1019296875,-29.394102,149.21741,-0.13931872,56.509342,-0.14205502,56.506508,-29.451241,150.48965
1020781250,-29.390442,146.94569,-0.14032374,56.069073,-0.14095324,56.05603,-29.465891,149.82632
1022265625,-29.357037,146.86615,-0.14058065,55.609814,-0.13875912,55.629677,-29.564217,149.16812
1023750000,-29.374104,146.5507,-0.14027764,55.204296,-0.13900781,55.181007,-29.389679,149.53047
1025234375,-29.344671,145.66817,-0.14181648,54.770527,-0.14185256,54.723267,-29.371864,148.65756
1026718750,-29.20698,144.98737,-0.14344765,54.304237,-0.14006971,54.29562,-29.368734,148.73761
1028203125,-29.291363,144.41357,-0.13624346,53.856773,-0.14395565,53.895672,-29.252277,147.46037
1029687500,-29.342773,144.03506,-0.14224654,53.402485,-0.14161666,53.42202,-29.273048,147.45503
1031171875,-29.205414,143.40739,-0.14145514,52.981453,-0.14326061,52.963348,-29.205328,147.2112
1032656250,-29.125063,142.78714,-0.14358492,52.509975,-0.14661486,52.549694,-29.270306,147.28113
1034140625,-29.154669,142.30536,-0.14265552,52.097656,-0.13890623,52.093937,-29.258549,146.57378
1035625000,-29.030598,141.47578,-0.14418685,51.657402,-0.14277083,51.658691,-29.142895,146.25772
1037109375,-29.090546,140.17317,-0.14383268,51.251114,-0.13972907,51.220104,-29.027752,146.23433
1038593750,-29.160471,140.11505,-0.14191787,50.78764,-0.14343537,50.789536,-29.026045,145.2951
1040078125,-29.097019,139.39859,-0.13945356,50.324677,-0.13908699,50.32291,-29.089993,143.9043
1041562500,-29.121208,139.54907,-0.14279848,49.894657,-0.14463113,49.876266,-29.106892,144.69475
1043046875,-28.984533,138.86526,-0.14562123,49.452366,-0.14225741,49.437016,-29.140081,144.53021
1044531250,-28.936796,138.54349,-0.14311077,49.023983,-0.1391786,48.98703,-29.146679,144.20639
1046015625,-29.042068,136.98138,-0.14654858,48.573326,-0.14374962,48.567863,-29.014511,144.0036
1047500000,-29.032528,136.05182,-0.14500669,48.131985,-0.14157242,48.150787,-28.963161,143.34418
1048984375,-28.899712,135.41322,-0.14240862,47.696579,-0.14402013,47.68417,-29.083651,143.79289
1050468750,-29.005016,135.48436,-0.14199944,47.249962,-0.14480267,47.242245,-28.9855,142.41502
1051953125,-28.85375,134.32315,-0.14556839,46.807808,-0.14101948,46.803562,-28.986223,142.32707
1053437500,-28.966751,133.45798,-0.14457424,46.34882,-0.14276752,46.374134,-28.956581,142.091
1054921875,-28.946726,133.54462,-0.1440448,45.927746,-0.14418013,45.950134,-28.961237,142.89522
1056406250,-28.841579,132.24028,-0.1446541,45.47982,-0.14050792,45.484482,-29.005901,142.3791
1057890625,-28.983644,131.69899,-0.14339054,45.041245,-0.14662209,45.032684,-29.041849,141.22075
1059375000,-28.939722,131.65891,-0.14572337,44.602036,-0.14663486,44.588905,-28.991413,140.64973
1060859375,-28.83597,130.79639,-0.14599682,44.165218,-0.14252108,44.152172,-28.990314,140.58861
1062343750,-29.04365,130.72552,-0.14283869,43.729389,-0.14499146,43.713161,-28.960915,140.41176
1063828125,-28.953854,129.74153,-0.14490782,43.282509,-0.14149001,43.278309,-28.936817,140.79431
1065312500,-28.928762,129.05453,-0.14546733,42.826866,-0.1391335,42.847202,-28.950754,140.0247
1066796875,-28.968229,127.77339,-0.14512655,42.397465,-0.14377151,42.379967,-28.950659,139.66565
1068281250,-29.07918,127.44212,-0.14762266,41.968761,-0.1409753,41.928699,-28.960638,139.03201
1069765625,-29.067722,127.44667,-0.14415479,41.512722,-0.14523748,41.497669,-28.977501,139.20306
1071250000,-29.046635,126.50602,-0.14491521,41.073853,-0.14352381,41.069965,-29.003578,138.71933
1072734375,-29.03083,125.17206,-0.14407974,40.646049,-0.14461122,40.646137,-28.946894,137.40848
1074218750,-28.991535,124.82359,-0.14524236,40.214714,-0.14480668,40.187435,-28.989799,137.71968
1075703125,-28.983374,124.45314,-0.14465451,39.748516,-0.14329289,39.741146,-28.982738,137.31207
1077187500,-28.982016,124.41053,-0.14457348,39.279743,-0.14488198,39.327751,-29.065035,137.69785
1078671875,-29.011625,123.50367,-0.14442396,38.849182,-0.14462416,38.888828,-29.110689,136.54745
1080156250,-29.198507,122.60005,-0.14623497,38.427101,-0.1470114,38.416142,-28.940887,136.87907
1081640625,-29.17631,121.70884,-0.14573963,37.978683,-0.14609624,37.982014,-28.949942,137.08189
1083125000,-29.085562,121.55859,-0.14466693,37.535213,-0.14470012,37.522324,-29.049967,136.3287
1084609375,-29.110708,120.47026,-0.14876516,37.115593,-0.14240102,37.114307,-29.094013,135.4978
1086093750,-29.21924,120.2516,-0.14661539,36.655014,-0.14589509,36.648411,-29.140121,134.81021
1087578125,-29.211206,119.28842,-0.14572912,36.241798,-0.14478436,36.219551,-29.064417,134.70064
1089062500,-29.219885,119.4848,-0.14822683,35.781597,-0.14213145,35.765007,-29.121836,134.56737
1090546875,-29.13476,117.68737,-0.14859544,35.340084,-0.1457424,35.335812,-29.282209,134.63167
1092031250,-29.325193,117.26286,-0.14590281,34.890018,-0.14281805,34.900974,-29.104969,134.92247
1093515625,-29.23424,117.36339,-0.1449597,34.448406,-0.14561139,34.4589,-29.183455,133.30563
1095000000,-29.165934,116.30968,-0.14701506,34.019829,-0.14646189,33.9944,-29.180977,133.45042
1096484375,-29.335596,115.76503,-0.14624816,33.585182,-0.14679061,33.582382,-29.204884,133.5929
1097968750,-29.238609,115.75653,-0.14431313,33.138542,-0.14473838,33.136703,-29.415022,131.94675
1099453125,-29.25355,113.44038,-0.14591199,32.709396,-0.14673699,32.676662,-29.219395,133.11247
1100937500,-29.285492,113.35583,-0.14498085,32.248024,-0.14753023,32.245296,-29.309029,132.37186
1102421875,-29.362513,111.82005,-0.14727637,31.824877,-0.14790529,31.805296,-29.326178,132.40306
1103906250,-29.443888,112.24956,-0.14619014,31.366182,-0.14634451,31.366138,-29.311359,131.43866
1105390625,-29.40868,110.97489,-0.15006666,30.921152,-0.14374007,30.928282,-29.456453,131.39168
1106875000,-29.445107,111.60359,-0.14554748,30.491146,-0.14744432,30.471766,-29.341082,131.4173
1108359375,-29.38463,110.27973,-0.14964576,30.039173,-0.14250891,30.039063,-29.408102,131.57413
1109843750,-29.450003,108.89987,-0.15051405,29.607187,-0.13731191,29.596102,-29.452696,130.75049
1111328125,-29.433872,107.92494,-0.14832804,29.177258,-0.14549196,29.158504,-29.464996,129.76437
1112812500,-29.564293,107.60189,-0.1492365,28.710526,-0.1454857,28.728367,-29.555182,131.14368
1114296875,-29.489195,106.60099,-0.14747711,28.283157,-0.14729129,28.281536,-29.498171,130.14761
1115781250,-29.518353,107.16779,-0.1496326,27.830349,-0.14664739,27.814259,-29.556198,130.09962
1117265625,-29.431961,106.12279,-0.15053339,27.408947,-0.14220074,27.393215,-29.500154,130.09105
1118750000,-29.606636,104.17928,-0.14700027,26.974619,-0.14705785,26.95434,-29.555298,127.93876
1120234375,-29.541048,104.19109,-0.1456397,26.523649,-0.14503761,26.5229,-29.536585,128.57031
1121718750,-29.517784,104.16253,-0.14538355,26.065353,-0.14730176,26.065742,-29.716507,127.47749
1123203125,-29.658993,103.12932,-0.14789045,25.625534,-0.14846049,25.628628,-29.649109,127.21659
1124687500,-29.604307,102.58716,-0.14714682,25.219082,-0.14517178,25.185635,-29.730574,126.93127
1126171875,-29.590963,102.15263,-0.14782827,24.749275,-0.14296237,24.737335,-29.569351,127.36073
1127656250,-29.61511,100.88029,-0.14874828,24.316479,-0.1496883,24.322618,-29.682028,125.9881
1129140625,-29.679018,100.75285,-0.15064992,23.87875,-0.14366162,23.864563,-29.603891,125.3512
1130625000,-29.590282,99.951973,-0.15000214,23.433447,-0.14679408,23.43199,-29.782101,126.66241
1132109375,-29.722794,99.702332,-0.14875436,22.995754,-0.14734036,22.949535,-29.789774,125.66795
1133593750,-29.538204,99.24369,-0.14811321,22.552189,-0.14685085,22.544146,-29.61215,125.31803
1135078125,-29.711424,98.806404,-0.1512861,22.131866,-0.14831813,22.093075,-29.758852,124.19923
1136562500,-29.640461,98.223785,-0.14696729,21.67713,-0.14640723,21.681366,-29.784946,123.83529
1138046875,-29.691847,97.449783,-0.14904597,21.199879,-0.14361207,21.2304,-29.842501,124.98722
1139531250,-29.763521,96.405617,-0.14870338,20.797405,-0.14824766,20.760166,-29.718142,122.8743
1141015625,-29.828421,95.532478,-0.14862208,20.337479,-0.14785323,20.333179,-29.655111,123.49435
1142500000,-29.651295,95.36319,-0.15037085,19.908831,-0.15025279,19.892035,-29.696934,123.2523
1143984375,-29.549675,93.97728,-0.15120056,19.451176,-0.14857335,19.476429,-29.785545,122.48391
1145468750,-29.819576,93.378815,-0.14943896,19.018925,-0.14957826,19.010319,-29.756712,122.80145
1146953125,-29.643881,93.819984,-0.14879449,18.576065,-0.14875987,18.561419,-29.793133,121.5389
1148437500,-29.663212,92.706795,-0.1483223,18.13484,-0.15001425,18.167555,-29.697317,121.37793
1149921875,-29.649452,92.308311,-0.14831385,17.680271,-0.14969169,17.696856,-29.896938,121.68188
1151406250,-29.716398,92.302696,-0.15055142,17.260551,-0.14744858,17.256313,-29.75662,121.40804
1152890625,-29.77158,91.435387,-0.15060802,16.80863,-0.14854169,16.798985,-29.927824,120.24902
1154375000,-29.679625,90.38726,-0.14849901,16.365942,-0.14806685,16.341146,-29.779081,120.48584
1155859375,-29.672131,89.970741,-0.15091333,15.93988,-0.14762227,15.919292,-29.681471,119.70834
1157343750,-29.553692,89.209023,-0.15026152,15.501755,-0.14643565,15.481606,-29.605639,119.52629
1158828125,-29.550253,89.074654,-0.15171605,15.049768,-0.14751151,15.03665,-29.935356,118.81573
1160312500,-29.45429,87.706268,-0.14774388,14.595696,-0.14743148,14.621369,-29.72757,117.90566
1161796875,-29.582724,87.624924,-0.15100677,14.165111,-0.14745423,14.156718,-29.737762,118.13171
1163281250,-29.490082,87.779663,-0.15210572,13.716565,-0.14963077,13.699179,-29.6819,116.83346
1164765625,-29.485554,87.106293,-0.15305567,13.283567,-0.15216851,13.276981,-29.789654,117.16238
1166250000,-29.495647,86.005745,-0.14915653,12.857976,-0.14881264,12.832091,-29.658293,116.04356
1167734375,-29.471174,85.055893,-0.15180835,12.39108,-0.14877236,12.410757,-29.694889,115.69746
1169218750,-29.369434,84.432129,-0.14806631,11.971964,-0.14817783,11.96315,-29.66909,115.73709
1170703125,-29.454041,83.925697,-0.15255269,11.525928,-0.1464285,11.526898,-29.601387,115.09834
1172187500,-29.400026,84.200356,-0.15045771,11.072823,-0.14935718,11.071619,-29.60605,114.54849
1173671875,-29.42651,83.051163,-0.14961457,10.639757,-0.14873657,10.637938,-29.5641,113.80119
1175156250,-29.409864,82.68895,-0.15164417,10.200851,-0.14923875,10.191377,-29.63015,113.9425
1176640625,-29.298195,81.674568,-0.14968841,9.7540207,-0.14516322,9.7642088,-29.667521,112.99
1178125000,-29.383707,81.78537,-0.15178466,9.2994204,-0.1505762,9.287365,-29.631668,111.55769
1179609375,-29.25182,81.164261,-0.15068687,8.8713951,-0.14944413,8.8852634,-29.729628,112.34402
1181093750,-29.277561,81.041878,-0.15206048,8.4171801,-0.14856468,8.4262648,-29.483316,112.00956
1182578125,-29.287918,79.417297,-0.14926387,7.9715128,-0.15081309,7.9538851,-29.580873,110.96374
1184062500,-29.276905,78.374443,-0.15107535,7.5369215,-0.15021981,7.5448403,-29.591106,111.45122
1185546875,-29.334745,79.110451,-0.15001588,7.1048369,-0.15374111,7.1031661,-29.612747,109.84528
1187031250,-29.360199,77.979004,-0.15595701,6.6618414,-0.15105219,6.6436062,-29.559818,110.51921
1188515625,-29.267143,77.642326,-0.15533221,6.2178068,-0.14973992,6.2085385,-29.409117,109.69938
1190000000,-29.25149,78.120949,-0.15311658,5.8032932,-0.14959918,5.7608209,-29.368847,108.81387
1191484375,-29.110489,76.731201,-0.15275767,5.3509808,-0.15138537,5.3446169,-29.48769,108.88477
1192968750,-29.204281,75.925034,-0.15111321,4.892046,-0.149094,4.8855805,-29.470652,108.53323
1194453125,-29.224642,76.211288,-0.15111212,4.4638195,-0.15407377,4.4550152,-29.458668,107.48689
1195937500,-29.087006,75.645256,-0.15409344,4.026814,-0.14864761,4.0090957,-29.428766,107.64436
1197421875,-29.150829,75.149384,-0.15345019,3.5772913,-0.14968555,3.5741656,-29.442167,107.2269
1198906250,-29.092831,74.563095,-0.15288801,3.1336877,-0.15212029,3.1395254,-29.439308,107.18341
1200390625,-29.144682,74.521049,-0.15296172,2.6894033,-0.14916001,2.6822579,-29.350985,106.30936
1201875000,-29.163162,73.053917,-0.15630822,2.2534113,-0.14963078,2.2477341,-29.190697,105.77682
1203359375,-29.010429,72.030266,-0.15059134,1.8146852,-0.15255064,1.8232114,-29.245724,105.36207
1204843750,-29.029633,72.325256,-0.156059,1.3562398,-0.15119025,1.360747,-29.357412,105.08119
1206328125,-29.083118,71.993279,-0.15504533,0.9420312,-0.15194252,0.92571187,-29.384844,104.83929
1207812500,-29.074041,71.894073,-0.15514208,0.49855751,-0.15053153,0.47477573,-29.280876,104.10213
1209296875,-29.13929,70.13063,-0.15401822,0.04639544,-0.15033139,0.034642253,-29.293446,103.95125
1210781250,-28.890718,69.290825,-0.15758167,-0.3864648,-0.15313961,-0.37958553,-29.280096,103.54144
1212265625,-29.053677,69.724129,-0.15269382,-0.84642273,-0.1523528,-0.82766938,-29.346645,102.99161
1213750000,-28.979321,69.261398,-0.1549063,-1.2430184,-0.15008499,-1.2564636,-29.221277,101.83102
1215234375,-28.923306,68.27166,-0.15254182,-1.7211339,-0.15167972,-1.7104013,-29.270315,102.99317
1216718750,-29.10076,68.759201,-0.15282199,-2.1529601,-0.15705265,-2.1863389,-29.245045,102.31619
1218203125,-28.998171,67.19294,-0.15471698,-2.5976577,-0.15044352,-2.5887728,-29.333742,101.64684
1219687500,-28.839699,66.308823,-0.15305915,-3.0108371,-0.15071373,-3.0282276,-29.235163,100.40327
1221171875,-28.856236,66.603645,-0.1518207,-3.453712,-0.15397611,-3.4823186,-29.321575,101.0175
1222656250,-28.985378,65.604584,-0.15527503,-3.9173243,-0.15262841,-3.9341552,-29.29031,99.980484
1224140625,-29.017063,65.691986,-0.15221415,-4.3502746,-0.15353371,-4.3643155,-29.283754,99.476151
1225625000,-28.90156,65.014191,-0.15416223,-4.8032894,-0.15334681,-4.817091,-29.409338,99.81572
1227109375,-28.996397,64.08828,-0.15634651,-5.2356062,-0.15062036,-5.2310457,-29.344521,99.388481
1228593750,-28.92415,63.722099,-0.15526371,-5.6669664,-0.15681896,-5.6955194,-29.284882,98.693291
1230078125,-28.982092,63.071926,-0.15743439,-6.109807,-0.15390803,-6.1440158,-29.368118,99.160316
1231562500,-29.01042,62.635792,-0.15818982,-6.5639358,-0.15370193,-6.5583844,-29.179218,98.070686
1233046875,-28.904831,61.513359,-0.1557515,-6.9872727,-0.15282486,-6.9810171,-29.151026,97.661072
1234531250,-28.999519,61.266621,-0.15373911,-7.4242749,-0.15430191,-7.4473743,-29.301672,97.55114
1236015625,-29.03907,60.411938,-0.15399317,-7.8816729,-0.15338628,-7.8884077,-29.314941,97.585098
1237500000,-29.028767,60.203884,-0.15614775,-8.3123884,-0.15294094,-8.3324623,-29.321766,97.128777
1238984375,-28.985735,59.13549,-0.15464592,-8.7477283,-0.15232325,-8.7574463,-29.421764,96.961464
1240468750,-29.084204,57.520527,-0.15406449,-9.2208548,-0.15187809,-9.1928291,-29.40015,96.921211
1241953125,-29.062469,57.679096,-0.15503336,-9.6464605,-0.15345354,-9.6470089,-29.376932,95.629128
1243437500,-29.115017,57.682518,-0.15660514,-10.090604,-0.15121615,-10.095068,-29.369028,96.553566
1244921875,-29.129353,56.914661,-0.15554343,-10.504206,-0.15592235,-10.522292,-29.527945,96.008965
1246406250,-29.0186,55.649044,-0.15604652,-10.961202,-0.15219592,-10.969416,-29.55579,94.748276
1247890625,-29.075081,55.681648,-0.15598734,-11.409032,-0.1539371,-11.39993,-29.475903,94.916138
1249375000,-29.11919,54.662563,-0.15599155,-11.833913,-0.1531104,-11.871561,-29.526865,94.976326
1250859375,-29.122524,53.648849,-0.15481618,-12.290389,-0.15356797,-12.308979,-29.674829,93.976692
1252343750,-29.116455,53.572437,-0.15392554,-12.709846,-0.15303114,-12.721669,-29.495478,94.107735
1253828125,-29.191299,52.836124,-0.15804371,-13.180378,-0.1551881,-13.1895,-29.642136,93.748619
1255312500,-29.292992,52.059364,-0.15755522,-13.609591,-0.15950194,-13.607056,-29.557673,92.906105
1256796875,-29.359497,51.791019,-0.15479076,-14.05917,-0.15647388,-14.053004,-29.800779,92.882294
1258281250,-29.355158,51.589062,-0.15716287,-14.494898,-0.1568571,-14.501309,-29.915043,93.261551
1259765625,-29.349991,49.957684,-0.15580134,-14.928679,-0.15557566,-14.943768,-29.749601,93.011993
1261250000,-29.439383,48.780014,-0.15860879,-15.373041,-0.15172462,-15.368588,-29.741995,92.492813
1262734375,-29.460775,48.558254,-0.1524934,-15.806545,-0.15362738,-15.820057,-30.029034,92.173119
1264218750,-29.440796,47.696346,-0.15564485,-16.244822,-0.15391567,-16.265882,-30.002796,92.02655
1265703125,-29.372337,46.833366,-0.15595028,-16.703884,-0.15477444,-16.692205,-29.938606,91.516144
1267187500,-29.603521,46.650696,-0.15695404,-17.137188,-0.15594697,-17.149168,-29.938194,91.090652
1268671875,-29.460676,45.120037,-0.15523018,-17.578991,-0.15341876,-17.568697,-29.970264,90.795151
1270156250,-29.630079,45.264999,-0.15639243,-18.003407,-0.15550491,-18.030783,-30.122526,90.32814
1271640625,-29.650875,44.034302,-0.1552553,-18.48597,-0.1536202,-18.465729,-30.24004,91.343513
1273125000,-29.718094,43.628288,-0.15135908,-18.910097,-0.15340111,-18.903204,-30.183357,90.673286
1274609375,-29.750698,43.171459,-0.15552349,-19.327435,-0.15402801,-19.33433,-30.339283,90.156631
1276093750,-29.776098,41.912792,-0.15616156,-19.790058,-0.15531527,-19.777914,-30.330832,90.330696
1277578125,-29.83005,41.397369,-0.15624459,-20.250025,-0.15687403,-20.220446,-30.517494,90.312073
1279062500,-29.879725,40.20673,-0.15930758,-20.648073,-0.15432103,-20.67799,-30.499666,89.093628
1280546875,-29.839046,39.637737,-0.16113248,-21.105272,-0.15035027,-21.092939,-30.423283,88.463501
1282031250,-30.074116,39.014034,-0.15748748,-21.53849,-0.15561654,-21.550253,-30.520464,89.24247
1283515625,-29.921688,38.660568,-0.15813659,-22.001665,-0.15447044,-21.987265,-30.677683,89.221313
1285000000,-30.18125,36.960789,-0.15553072,-22.439499,-0.15704107,-22.425125,-30.753216,89.490898
1286484375,-30.219292,36.475521,-0.15742025,-22.864285,-0.15261099,-22.880451,-30.772552,88.815117
1287968750,-30.13669,37.051762,-0.15896675,-23.308462,-0.15389587,-23.315891,-30.924164,88.28656
1289453125,-30.35177,36.201385,-0.15520427,-23.738655,-0.15544574,-23.748547,-30.855625,87.957031
1290937500,-30.156343,35.38147,-0.15323913,-24.198004,-0.15659034,-24.204908,-30.990639,88.42334
1292421875,-30.461481,34.389305,-0.15478145,-24.65151,-0.15427685,-24.638456,-31.027321,87.886612
1293906250,-30.276726,33.280064,-0.15383841,-25.073254,-0.15730757,-25.073618,-31.268835,87.529236
1295390625,-30.547756,32.393341,-0.15723066,-25.520384,-0.1555796,-25.509218,-31.186197,87.921768
1296875000,-30.579102,31.960238,-0.15385404,-25.953096,-0.1549446,-25.954769,-31.190809,87.145309
1298359375,-30.59906,30.090948,-0.15565959,-26.397743,-0.15607847,-26.403725,-31.526447,87.130524
1299843750,-30.508808,31.273363,-0.1544888,-26.850187,-0.1541951,-26.838928,-31.499304,86.689072
1301328125,-30.835669,28.949409,-0.15474166,-27.288973,-0.1584865,-27.303782,-31.617615,86.759476
