!CSV A.01.01
!Agilent Technologies,N5222A,MY51421451,A.09.90.02
!Agilent N5222A: A.09.90.02
!Date: Wednesday, April 02, 2014 18:21:47
!Source: Standard

BEGIN CH1_DATA
Freq(Hz),S11(DB),S11(DEG),S12(DB),S12(DEG),S21(DB),S21(DEG),S22(DB),S22(DEG)
4000000000,-32.782146,42.04377,-0.38669297,-19.202448,-0.39217722,-19.059107,-33.794525,95.409348
4000312500,-32.744308,45.565887,-0.37548834,-19.19673,-0.3710542,-19.161539,-34.13121,90.281609
4000625000,-32.760292,44.634907,-0.38090885,-19.380779,-0.38023585,-19.320704,-34.152412,92.04554
4000937500,-32.730457,43.344486,-0.3786881,-19.555996,-0.38279828,-19.501051,-34.07793,92.911446
4001250000,-32.740509,42.477737,-0.38213968,-19.707834,-0.3891328,-19.629034,-34.075226,94.178505
4001562500,-32.771782,41.862823,-0.38182479,-19.878052,-0.38981509,-19.796198,-34.078548,94.16571
4001875000,-32.753803,41.750633,-0.38228431,-20.040365,-0.38850242,-19.898329,-34.153988,93.755882
4002187500,-32.760094,41.903454,-0.38335839,-20.191324,-0.38971192,-20.063322,-34.228394,93.489304
4002500000,-32.847099,41.76292,-0.38507465,-20.307529,-0.39346993,-20.189596,-34.31353,92.511017
4002812500,-32.900623,42.410355,-0.38310125,-20.454727,-0.39084467,-20.336199,-34.371799,91.946625
4003125000,-32.838913,42.371964,-0.38309845,-20.586128,-0.38845581,-20.465673,-34.425854,91.687477
4003437500,-32.880051,42.187927,-0.38266397,-20.72751,-0.38800284,-20.640173,-34.520721,91.701912
4003750000,-32.881432,41.988922,-0.38402846,-20.858902,-0.38652694,-20.774399,-34.595135,92.102249
4004062500,-32.891144,41.924618,-0.38534582,-21.003954,-0.3848635,-20.920843,-34.589199,92.080627
4004375000,-32.87434,41.80122,-0.38171604,-21.139025,-0.38920596,-21.061941,-34.63002,91.600571
4004687500,-32.956459,41.255474,-0.38057339,-21.300697,-0.39030254,-21.208036,-34.658466,91.706779
4005000000,-32.932793,40.611504,-0.37949881,-21.429258,-0.39310548,-21.345787,-34.670002,91.357498
4005312500,-32.874985,40.0984,-0.37908238,-21.577469,-0.38913727,-21.480022,-34.747841,90.133492
4005625000,-33.010536,39.385822,-0.38097247,-21.729439,-0.39421552,-21.625795,-34.697609,90.099289
4005937500,-33.024155,39.284309,-0.38022077,-21.852158,-0.39138329,-21.737246,-34.723614,89.364708
4006250000,-33.072601,39.664986,-0.38263071,-22.01709,-0.38929203,-21.872194,-34.603043,89.403725
4006562500,-33.082851,40.09782,-0.38213465,-22.158907,-0.38515687,-22.039791,-34.568794,89.33606
4006875000,-33.179466,40.980198,-0.38189301,-22.283714,-0.38377506,-22.158424,-34.587322,90.057114
4007187500,-33.230816,40.946537,-0.38155818,-22.424833,-0.38686395,-22.307901,-34.564968,90.124924
4007500000,-33.275726,40.914005,-0.38436905,-22.570137,-0.38655201,-22.479172,-34.650883,89.666946
4007812500,-33.30788,41.437447,-0.38173214,-22.702976,-0.38715836,-22.601246,-34.789299,89.099983
4008125000,-33.339264,41.551426,-0.38399354,-22.84305,-0.38846013,-22.76244,-34.830429,88.40667
4008437500,-33.354168,41.278423,-0.3812753,-23.011703,-0.38970235,-22.897171,-34.971645,87.663567
4008750000,-33.345039,41.438152,-0.38416529,-23.134777,-0.3919006,-23.047832,-35.019779,87.096466
4009062500,-33.368763,41.223053,-0.38290706,-23.27729,-0.39153123,-23.188255,-35.136456,86.947044
4009375000,-33.331665,41.186604,-0.38258764,-23.4394,-0.38981339,-23.336973,-35.077393,87.429764
4009687500,-33.397484,40.822372,-0.38128099,-23.590136,-0.38589078,-23.484627,-35.048363,87.907181
4010000000,-33.420525,40.647968,-0.38204253,-23.716112,-0.38917804,-23.615349,-34.920074,88.490776
4010312500,-33.409054,40.303818,-0.38148403,-23.884136,-0.39073929,-23.746546,-34.965153,88.895134
4010625000,-33.476105,40.397839,-0.38477513,-24.016764,-0.39054513,-23.887754,-34.952991,88.030708
4010937500,-33.475746,40.447411,-0.38300219,-24.14345,-0.39108136,-24.026739,-35.049438,87.155502
4011250000,-33.505203,40.295078,-0.38293383,-24.289101,-0.38807294,-24.180569,-35.201511,86.363441
4011562500,-33.536507,40.124088,-0.38270557,-24.434252,-0.38882315,-24.297537,-35.217098,85.356926
4011875000,-33.531017,40.312965,-0.38187405,-24.552599,-0.38973594,-24.446272,-35.338287,84.748146
4012187500,-33.516434,40.218567,-0.38110876,-24.691002,-0.38992321,-24.5926,-35.227791,84.407227
4012500000,-33.456867,40.184967,-0.38199016,-24.842043,-0.38773975,-24.756342,-35.120583,84.842407
4012812500,-33.391876,40.33728,-0.38447073,-24.987017,-0.39031208,-24.878286,-35.097816,84.012466
4013125000,-33.363167,40.035217,-0.38308379,-25.156967,-0.38903186,-25.02146,-35.020908,83.586929
4013437500,-33.312641,40.055576,-0.38341001,-25.276049,-0.39293909,-25.157997,-34.984699,82.652275
4013750000,-33.355022,39.865593,-0.38078031,-25.432257,-0.38918686,-25.296469,-35.041737,81.532021
4014062500,-33.382843,39.459644,-0.38218424,-25.549345,-0.38948047,-25.465952,-35.043858,80.122978
4014375000,-33.411373,39.375866,-0.37984967,-25.68294,-0.39026934,-25.57266,-35.216465,79.510078
4014687500,-33.462933,38.997097,-0.38138363,-25.808426,-0.3893587,-25.725927,-35.228928,78.800835
4015000000,-33.493839,38.816257,-0.38124895,-25.970778,-0.38940543,-25.864141,-35.329735,79.52932
4015312500,-33.51989,38.592628,-0.38036808,-26.103018,-0.38835549,-26.014929,-35.508625,80.132835
4015625000,-33.590496,38.8857,-0.38318738,-26.266026,-0.38755623,-26.157984,-35.404259,80.834961
4015937500,-33.56366,38.626556,-0.38384935,-26.402586,-0.39016473,-26.286186,-35.500584,81.157715
4016250000,-33.623825,38.638386,-0.3846105,-26.545259,-0.39075994,-26.452187,-35.41148,81.250908
4016562500,-33.537872,38.591736,-0.38584983,-26.692001,-0.39068508,-26.571671,-35.42392,81.523369
4016875000,-33.525726,38.903008,-0.38402441,-26.851303,-0.38469279,-26.735907,-35.477055,82.63472
4017187500,-33.49329,38.881569,-0.38397202,-26.981895,-0.3886829,-26.877655,-35.398098,82.335297
4017500000,-33.428341,39.148674,-0.38399112,-27.144247,-0.3889938,-27.012407,-35.421036,82.117073
4017812500,-33.475788,39.188999,-0.3845084,-27.29241,-0.38884905,-27.163025,-35.365273,81.512001
4018125000,-33.492893,39.721813,-0.38715464,-27.423725,-0.38814563,-27.282675,-35.422897,80.532326
4018437500,-33.625069,40.152401,-0.38307339,-27.550295,-0.38932541,-27.444702,-35.537483,79.849518
4018750000,-33.662506,40.433216,-0.38269302,-27.676207,-0.39033884,-27.592083,-35.526638,79.467575
4019062500,-33.764706,40.404411,-0.383917,-27.828312,-0.3933771,-27.72097,-35.582867,78.645271
4019375000,-33.825722,40.633461,-0.38608763,-27.964554,-0.39159256,-27.862579,-35.680725,78.631027
4019687500,-33.781292,40.17667,-0.38276377,-28.099312,-0.39160654,-28.028557,-35.801228,78.801476
4020000000,-33.820507,40.889019,-0.38638106,-28.249994,-0.38876182,-28.146303,-35.836758,79.011833
4020312500,-33.794155,40.966419,-0.38210985,-28.408056,-0.39188021,-28.290995,-35.926098,79.023033
4020625000,-33.715534,40.40881,-0.38504252,-28.558882,-0.3927815,-28.432812,-36.067772,78.252838
4020937500,-33.756073,40.074734,-0.38381946,-28.676979,-0.39070511,-28.561159,-36.008888,77.261497
4021250000,-33.825817,39.717731,-0.38525128,-28.841034,-0.39061978,-28.728104,-35.930958,75.659882
4021562500,-33.871563,39.991241,-0.38151249,-28.970947,-0.39034703,-28.863417,-35.957272,74.610115
4021875000,-33.945847,39.806034,-0.38278356,-29.106777,-0.39319611,-29.016802,-35.867622,73.855385
4022187500,-33.978477,40.019157,-0.38140774,-29.265076,-0.39288199,-29.139524,-35.933647,73.28904
4022500000,-33.939919,39.906155,-0.38104713,-29.389284,-0.38944757,-29.28783,-35.909443,74.04097
4022812500,-33.95533,40.299702,-0.38097024,-29.540039,-0.39078009,-29.442965,-35.960873,74.416695
4023125000,-33.934746,40.102303,-0.38050249,-29.689314,-0.39438877,-29.585043,-35.95134,74.43985
4023437500,-33.936275,40.317642,-0.38102499,-29.823936,-0.39254421,-29.719847,-36.013309,74.160904
4023750000,-33.936024,39.85614,-0.38113713,-29.96179,-0.39196721,-29.835274,-36.064156,74.253265
4024062500,-33.881763,39.808445,-0.38381931,-30.104885,-0.38957828,-30.003084,-36.083759,74.322929
4024375000,-33.961514,39.072861,-0.37801051,-30.260921,-0.39029127,-30.124506,-36.011497,73.343941
4024687500,-33.937374,39.28339,-0.37979996,-30.395781,-0.39086825,-30.258204,-36.142517,72.854378
4025000000,-33.958458,39.136433,-0.3796359,-30.566343,-0.3886739,-30.395929,-36.080292,72.222412
4025312500,-33.954258,39.121883,-0.3813605,-30.694748,-0.38929832,-30.55438,-36.182045,72.1026
4025625000,-34.060383,39.224148,-0.38048485,-30.851667,-0.38905528,-30.691448,-36.257828,71.085968
4025937500,-34.201683,39.820019,-0.38061062,-30.977903,-0.39145648,-30.833141,-36.450722,71.228867
4026250000,-34.224804,40.16325,-0.3816013,-31.092756,-0.391509,-30.986116,-36.527321,70.503357
4026562500,-34.335835,40.932831,-0.38417995,-31.252104,-0.39112797,-31.127794,-36.709419,70.727432
4026875000,-34.250225,41.749329,-0.38188484,-31.376513,-0.38565555,-31.282677,-36.569435,70.642235
4027187500,-34.201305,41.676537,-0.3798942,-31.540459,-0.38636035,-31.413908,-36.522938,70.343521
4027500000,-34.211643,42.413982,-0.38294649,-31.66231,-0.38605547,-31.551285,-36.416378,69.969734
4027812500,-34.103168,41.528469,-0.38033819,-31.811449,-0.3859317,-31.684771,-36.272102,69.473373
4028125000,-34.077763,41.91666,-0.38454628,-31.961037,-0.38626495,-31.820309,-36.210941,69.341957
4028437500,-34.273834,41.500648,-0.38257271,-32.084568,-0.38855079,-31.979271,-36.228481,67.792747
4028750000,-34.373837,40.621117,-0.3845267,-32.238537,-0.38595712,-32.115589,-36.259327,67.080826
4029062500,-34.457733,40.473774,-0.38440594,-32.375526,-0.38659847,-32.277145,-36.246811,66.416649
4029375000,-34.545334,40.421406,-0.38362214,-32.507401,-0.38790199,-32.384956,-36.445812,66.098511
4029687500,-34.495892,40.301903,-0.38493645,-32.641899,-0.38660192,-32.53561,-36.434662,65.44175
4030000000,-34.429111,41.229301,-0.38232502,-32.796448,-0.3911112,-32.681362,-36.482964,66.105453
4030312500,-34.259258,41.821404,-0.38255382,-32.935215,-0.38630748,-32.854626,-36.483788,67.047012
4030625000,-34.142147,42.064579,-0.38419646,-33.099453,-0.39042568,-32.980686,-36.529331,67.134384
4030937500,-34.084343,41.887924,-0.38451174,-33.224319,-0.3901073,-33.128445,-36.598644,67.21563
4031250000,-34.078079,41.741486,-0.38180399,-33.355865,-0.39061841,-33.250454,-36.632938,66.687668
4031562500,-34.060486,41.738754,-0.38308388,-33.518284,-0.39128312,-33.382385,-36.797062,66.146324
4031875000,-34.133766,41.289974,-0.38194415,-33.664661,-0.39473766,-33.544483,-36.858238,64.844284
4032187500,-34.15818,41.673126,-0.37836781,-33.800064,-0.39040977,-33.667847,-36.889954,64.299561
4032500000,-34.230755,41.324833,-0.3788791,-33.940216,-0.38917083,-33.801926,-36.950481,63.308048
4032812500,-34.233833,41.584457,-0.37911874,-34.080765,-0.39325395,-33.955273,-36.884712,62.783371
4033125000,-34.261909,41.389366,-0.38384941,-34.231709,-0.38908312,-34.100235,-37.028301,62.143768
4033437500,-34.214424,41.232513,-0.38146365,-34.377537,-0.39158294,-34.239407,-37.100498,61.215046
4033750000,-34.19833,41.077583,-0.38405728,-34.514282,-0.38651469,-34.366528,-37.080788,60.617409
4034062500,-34.182533,40.713326,-0.3828018,-34.645996,-0.39176944,-34.511341,-37.067833,59.98465
4034375000,-34.243645,41.597763,-0.38273904,-34.788834,-0.3920877,-34.665649,-37.001392,60.109566
4034687500,-34.230484,42.163776,-0.38287395,-34.952377,-0.38872778,-34.822689,-36.950493,59.935196
4035000000,-34.284195,42.490635,-0.38150766,-35.069481,-0.38867912,-34.964718,-36.996387,59.42395
4035312500,-34.251389,43.206802,-0.38694835,-35.209171,-0.38742083,-35.120121,-36.891739,59.530769
4035625000,-34.254982,43.122627,-0.38215384,-35.372822,-0.38652754,-35.253433,-36.906528,58.710682
4035937500,-34.228844,42.821388,-0.38208124,-35.507092,-0.38811684,-35.409065,-37.001083,57.21674
4036250000,-34.160332,42.10339,-0.38132122,-35.636482,-0.3893967,-35.542473,-37.004841,58.084095
4036562500,-34.145168,41.491238,-0.38343593,-35.79475,-0.39106899,-35.64827,-37.14032,57.40078
4036875000,-34.204514,41.215099,-0.38250256,-35.926662,-0.39110985,-35.813084,-37.217106,56.99361
4037187500,-34.278557,41.191196,-0.38294888,-36.075161,-0.39124265,-35.953724,-37.22551,58.064545
4037500000,-34.275406,41.931545,-0.38286945,-36.224098,-0.38883477,-36.099323,-37.033047,57.715973
4037812500,-34.309608,42.552338,-0.38476634,-36.346928,-0.39243388,-36.244347,-37.097736,57.326092
4038125000,-34.339417,43.580307,-0.38589221,-36.502415,-0.39066321,-36.387222,-36.992733,56.882477
4038437500,-34.338322,44.341129,-0.3839404,-36.62682,-0.38949883,-36.537441,-36.96162,56.514778
4038750000,-34.263222,44.679955,-0.38400507,-36.806713,-0.3905786,-36.678833,-36.936584,55.467087
4039062500,-34.188892,44.918465,-0.38181621,-36.926067,-0.39338151,-36.827732,-37.015846,54.711308
4039375000,-34.169708,44.855942,-0.38120264,-37.06501,-0.39403185,-36.942307,-37.071167,54.492344
4039687500,-34.171505,44.837555,-0.3817881,-37.189686,-0.39339569,-37.086075,-37.077396,52.830715
4040000000,-34.1777,44.571198,-0.38359791,-37.349945,-0.39034411,-37.238094,-37.082031,52.477283
4040312500,-34.18539,44.45602,-0.38186312,-37.488503,-0.39369276,-37.379631,-37.252735,52.53418
4040625000,-34.281418,44.616936,-0.38268226,-37.641808,-0.38852218,-37.514793,-37.352341,52.544338
4040937500,-34.257412,44.618431,-0.38544971,-37.772964,-0.38593832,-37.654816,-37.411045,52.672611
4041250000,-34.278576,44.494625,-0.38585496,-37.939152,-0.38472956,-37.785278,-37.397743,51.772568
4041562500,-34.26107,44.684441,-0.3862983,-38.080208,-0.38517892,-37.944241,-37.506516,52.068413
4041875000,-34.34631,44.615406,-0.38388023,-38.235138,-0.38984182,-38.093704,-37.294983,51.540482
4042187500,-34.349911,44.682289,-0.38450074,-38.346172,-0.38939029,-38.219566,-37.256439,51.485313
4042500000,-34.385117,44.902473,-0.38078815,-38.508381,-0.39197412,-38.364414,-37.060394,50.081657
4042812500,-34.348782,44.369133,-0.38386405,-38.640972,-0.39330366,-38.50539,-37.014587,48.696362
4043125000,-34.347301,44.102043,-0.38675204,-38.774521,-0.39168569,-38.630268,-37.049625,48.040001
4043437500,-34.327122,44.000313,-0.38445777,-38.921047,-0.39547023,-38.785385,-37.03941,48.23856
4043750000,-34.352257,43.676682,-0.38470808,-39.074856,-0.39101142,-38.93964,-37.126259,47.600929
4044062500,-34.379734,43.015888,-0.38101238,-39.21331,-0.38967851,-39.069256,-37.14661,47.711807
4044375000,-34.424286,43.099731,-0.38279629,-39.363857,-0.38999373,-39.202549,-37.231361,47.059063
4044687500,-34.508308,43.403828,-0.38424611,-39.498035,-0.39178821,-39.358295,-37.378693,47.173496
4045000000,-34.607445,43.86544,-0.38113075,-39.624546,-0.39191407,-39.484154,-37.524742,47.391174
4045312500,-34.576714,44.535255,-0.37712744,-39.786278,-0.38898787,-39.633602,-37.534626,46.899246
4045625000,-34.571487,44.90443,-0.38168103,-39.918964,-0.39264676,-39.784351,-37.654308,46.503098
4045937500,-34.551277,45.313297,-0.38086116,-40.046482,-0.38907844,-39.928242,-37.662712,46.606709
4046250000,-34.488037,45.570065,-0.38126972,-40.1759,-0.3919301,-40.092323,-37.552231,45.720169
4046562500,-34.385952,44.735615,-0.38214618,-40.352787,-0.39181435,-40.207111,-37.409779,45.045757
4046875000,-34.303509,45.277473,-0.38083047,-40.478542,-0.38952595,-40.374424,-37.246113,43.566555
4047187500,-34.264065,44.839405,-0.38016978,-40.63015,-0.39134443,-40.501255,-37.105381,41.705589
4047500000,-34.272175,44.899193,-0.38209277,-40.76366,-0.39170298,-40.638363,-37.040047,39.654888
4047812500,-34.149845,45.12751,-0.38129312,-40.916328,-0.39066619,-40.785946,-36.852367,39.933193
4048125000,-34.233677,45.090492,-0.38444299,-41.063419,-0.39067808,-40.910995,-36.989616,39.429985
4048437500,-34.309464,45.373383,-0.3796148,-41.177193,-0.3908796,-41.032604,-36.855907,39.355534
4048750000,-34.279713,45.10313,-0.38392469,-41.339466,-0.39121944,-41.204426,-37.050472,38.837383
4049062500,-34.260975,45.343002,-0.38479882,-41.483761,-0.39288172,-41.342812,-37.013599,39.133663
4049375000,-34.251366,45.230572,-0.38272929,-41.632671,-0.3946408,-41.491455,-37.120441,40.714142
4049687500,-34.21217,46.089718,-0.38169831,-41.781258,-0.39439398,-41.607544,-37.199402,41.050484
4050000000,-34.163807,46.346001,-0.38116539,-41.894749,-0.39222318,-41.767742,-37.294277,42.914997
4050312500,-34.164001,45.818401,-0.38241959,-42.038227,-0.3939262,-41.895622,-37.335835,42.966694
4050625000,-34.064999,45.609623,-0.38243696,-42.204468,-0.39530185,-42.069099,-37.227612,42.745705
4050937500,-34.116814,45.823971,-0.38288715,-42.320362,-0.39530537,-42.202168,-37.25539,41.518051
4051250000,-34.129257,45.609665,-0.38262123,-42.45483,-0.3902466,-42.346485,-37.247288,40.446362
4051562500,-34.14624,45.383663,-0.38690814,-42.592194,-0.39128545,-42.499817,-37.103222,38.84293
4051875000,-34.178127,45.353127,-0.38218555,-42.74012,-0.39004311,-42.636963,-37.155743,37.205128
4052187500,-34.234932,45.845905,-0.38757208,-42.901508,-0.39032912,-42.795315,-37.018639,37.013344
4052500000,-34.149734,46.079041,-0.38367912,-43.039959,-0.39034733,-42.92252,-36.973091,38.22438
4052812500,-34.173744,46.795258,-0.3860769,-43.19611,-0.39409602,-43.060181,-36.85376,38.04248
4053125000,-34.178631,46.845676,-0.3844049,-43.333836,-0.38808131,-43.193714,-36.85062,38.675037
4053437500,-34.200603,46.310978,-0.3880688,-43.469742,-0.39006358,-43.319492,-37.253361,35.697105
4053750000,-34.199081,46.659363,-0.38767797,-43.619297,-0.38763559,-43.465942,-37.276897,35.965004
4054062500,-34.272118,45.920368,-0.3849743,-43.761784,-0.38910002,-43.615269,-37.15052,35.676468
4054375000,-34.2733,45.919357,-0.38512513,-43.877209,-0.3879126,-43.742451,-37.076153,35.507618
4054687500,-34.331833,45.586327,-0.383533,-44.020412,-0.38857085,-43.907864,-37.036377,35.498001
4055000000,-34.273449,45.072548,-0.38335571,-44.165272,-0.39069217,-44.057915,-36.953075,35.775764
4055312500,-34.242916,45.005028,-0.38376525,-44.325752,-0.39026648,-44.187485,-36.812744,35.184135
4055625000,-34.136829,44.922043,-0.3852891,-44.453743,-0.39117756,-44.29776,-36.71883,35.207943
4055937500,-34.092648,44.878326,-0.38473073,-44.593357,-0.38845593,-44.432018,-36.724335,34.423172
4056250000,-34.024017,44.280865,-0.38482669,-44.721649,-0.3902981,-44.578693,-36.567078,33.842106
4056562500,-34.022572,44.613514,-0.38424137,-44.885239,-0.38929197,-44.727787,-36.56284,32.779617
4056875000,-34.090347,45.083115,-0.38553798,-45.038811,-0.38924295,-44.861736,-36.741508,30.79624
4057187500,-34.13913,45.054867,-0.38451949,-45.177319,-0.39330727,-45.050789,-36.751453,29.162418
4057500000,-34.102554,45.246155,-0.38427502,-45.320705,-0.39023134,-45.180584,-36.766594,27.844376
4057812500,-34.155281,45.416229,-0.38649017,-45.437389,-0.39168522,-45.337296,-36.772354,27.256977
4058125000,-34.130825,45.917923,-0.38532162,-45.593723,-0.39295158,-45.47324,-36.790485,26.570332
4058437500,-34.129528,45.897743,-0.38706481,-45.73653,-0.39028403,-45.629032,-36.758179,26.783257
4058750000,-34.205563,46.118862,-0.38474005,-45.878536,-0.39067674,-45.74733,-36.673679,26.305882
4059062500,-34.212715,46.517918,-0.38734344,-46.025562,-0.39316648,-45.906082,-36.652946,26.549459
4059375000,-34.218868,46.61216,-0.3866325,-46.161068,-0.39283377,-46.055672,-36.72488,26.196896
4059687500,-34.206287,46.561039,-0.38710532,-46.297802,-0.39071095,-46.17482,-36.753929,26.780504
4060000000,-34.163658,46.807804,-0.38613626,-46.438251,-0.390576,-46.30722,-36.748951,27.317045
4060312500,-34.225079,46.62307,-0.38695297,-46.596245,-0.39071208,-46.463394,-36.757446,27.437922
4060625000,-34.19841,46.868134,-0.38796505,-46.754311,-0.38883525,-46.591782,-36.825409,28.098114
4060937500,-34.182594,46.791515,-0.38611761,-46.875885,-0.38869095,-46.746677,-36.795116,27.950312
4061250000,-34.134163,47.242977,-0.38627744,-47.028458,-0.39129204,-46.877529,-36.602482,27.553213
4061562500,-34.159145,46.966125,-0.38509971,-47.155922,-0.39532858,-47.024902,-36.593082,26.602375
4061875000,-34.096592,46.979969,-0.38425076,-47.300556,-0.39331383,-47.158043,-36.42672,26.452789
