!CSV A.01.01
!Agilent Technologies,N5222A,MY51421451,A.09.90.02
!Agilent N5222A: A.09.90.02
!Date: Wednesday, May 21, 2014 11:58:25
!Source: Standard

BEGIN CH4_DATA
Freq(Hz),S33(DB),S33(DEG),S34(DB),S34(DEG),S43(DB),S43(DEG),S44(DB),S44(DEG)
1000000000,-28.959751,135.92403,-0.09184207,-155.54214,-0.090414889,-155.56059,-28.853992,92.990883
1001484375,-29.124046,135.74379,-0.086701877,-155.78856,-0.08839605,-155.78271,-28.771503,91.433678
1002968750,-28.97574,135.27771,-0.089620523,-156.00005,-0.090289593,-156.00339,-28.867006,92.345665
1004453125,-29.099092,135.51723,-0.085422948,-156.22102,-0.089517027,-156.23624,-28.733984,91.695541
1005937500,-29.116856,134.6407,-0.089363106,-156.46315,-0.084665336,-156.47081,-28.7509,92.40416
1007421875,-29.093367,134.78522,-0.085390307,-156.67609,-0.089664198,-156.69936,-28.651596,91.82766
1008906250,-28.936947,134.1848,-0.089635991,-156.9021,-0.088937052,-156.91661,-28.550613,91.154083
1010390625,-28.994944,134.8949,-0.090412788,-157.15256,-0.08794903,-157.15977,-28.722439,90.552742
1011875000,-29.10891,133.89963,-0.090562813,-157.37419,-0.090276398,-157.38409,-28.581636,90.612961
1013359375,-29.054979,133.60403,-0.091988266,-157.61714,-0.086738251,-157.61298,-28.76602,91.120026
1014843750,-28.909101,133.80153,-0.085864298,-157.82587,-0.092986487,-157.85526,-28.580397,89.567024
1016328125,-29.068735,133.05844,-0.090277128,-158.05014,-0.088133253,-158.06718,-28.658325,90.311119
1017812500,-29.014265,132.83415,-0.088213079,-158.30739,-0.085080393,-158.283,-28.695776,89.311073
1019296875,-28.789648,133.38908,-0.092328832,-158.53664,-0.091203816,-158.52538,-28.584076,88.946068
1020781250,-28.965826,132.03897,-0.091117702,-158.76764,-0.09012714,-158.77068,-28.600019,88.596596
1022265625,-28.90184,132.01485,-0.089022964,-158.98535,-0.09115196,-159.01366,-28.701138,88.453911
1023750000,-28.870028,132.36093,-0.088929303,-159.20389,-0.09107703,-159.23434,-28.566782,88.682961
1025234375,-28.945404,132.06662,-0.087754205,-159.43523,-0.088391431,-159.46375,-28.595076,88.244583
1026718750,-28.881046,130.80199,-0.088459946,-159.6763,-0.091988295,-159.68509,-28.581976,88.116486
1028203125,-28.95713,131.30362,-0.087633878,-159.90111,-0.088849641,-159.88164,-28.575899,87.482925
1029687500,-28.956795,131.54803,-0.089950576,-160.14973,-0.091504052,-160.12701,-28.575241,87.549835
1031171875,-28.962481,130.83221,-0.089138657,-160.36095,-0.091825664,-160.37039,-28.610773,87.035538
1032656250,-28.91449,130.19023,-0.091581814,-160.61133,-0.092160501,-160.58362,-28.611021,87.369125
1034140625,-28.918736,130.25113,-0.092326909,-160.81165,-0.088253401,-160.8275,-28.663641,86.906479
1035625000,-28.923477,129.11241,-0.093750536,-161.05345,-0.092501275,-161.05801,-28.611731,86.806808
1037109375,-29.046103,128.88382,-0.089004025,-161.25731,-0.092440397,-161.28505,-28.576008,86.783821
1038593750,-29.076866,129.43251,-0.088163659,-161.51459,-0.093389913,-161.51923,-28.547287,86.369019
1040078125,-29.065435,128.76109,-0.088294543,-161.74042,-0.091308601,-161.76186,-28.674433,84.953857
1041562500,-29.022181,129.30336,-0.09083388,-161.9702,-0.091478564,-161.99911,-28.688347,85.916153
1043046875,-28.978678,128.48491,-0.094349779,-162.19072,-0.095006347,-162.21526,-28.713335,86.054588
1044531250,-28.927732,128.19339,-0.093961902,-162.43234,-0.091891527,-162.44409,-28.765972,85.777695
1046015625,-29.126945,127.70158,-0.093390837,-162.67491,-0.0901898,-162.67226,-28.645172,85.499863
1047500000,-29.223116,127.14195,-0.091996722,-162.89333,-0.089565717,-162.88863,-28.700563,85.153519
1048984375,-29.119398,126.25481,-0.088043772,-163.12735,-0.092270806,-163.14932,-28.80191,85.506531
1050468750,-29.137655,127.07594,-0.090787672,-163.35133,-0.092036717,-163.36246,-28.780304,84.364189
1051953125,-29.138908,125.47948,-0.09310858,-163.60193,-0.089015149,-163.58809,-28.729082,84.409187
1053437500,-29.252205,125.81211,-0.089761332,-163.83385,-0.090437792,-163.81911,-28.757505,84.223892
1054921875,-29.173386,126.14171,-0.090736806,-164.06487,-0.089782633,-164.0403,-28.788521,85.065735
1056406250,-29.251461,124.89444,-0.094202302,-164.28008,-0.089752018,-164.26575,-28.87825,84.621353
1057890625,-29.320105,125.19667,-0.092786759,-164.51082,-0.091704011,-164.53773,-28.894194,83.706711
1059375000,-29.301603,125.18716,-0.093259402,-164.74574,-0.090238057,-164.76445,-28.891321,83.400566
1060859375,-29.245789,124.22927,-0.09352091,-164.96706,-0.090056308,-164.96741,-28.922152,83.470932
1062343750,-29.324627,125.22525,-0.087645993,-165.19757,-0.090638198,-165.21983,-28.918949,83.415192
1063828125,-29.315022,124.49706,-0.092219301,-165.43173,-0.09128961,-165.43025,-28.891176,83.951591
1065312500,-29.397669,123.9959,-0.091483928,-165.67181,-0.087760054,-165.66692,-28.968319,82.978455
1066796875,-29.471891,123.45787,-0.091103278,-165.90169,-0.09034235,-165.90692,-28.964481,82.732231
1068281250,-29.577837,124.10357,-0.093004502,-166.11302,-0.088566728,-166.17897,-29.013769,82.321426
1069765625,-29.50724,123.65543,-0.091041423,-166.3385,-0.092147484,-166.3877,-28.9956,82.269653
1071250000,-29.576254,123.52117,-0.09269423,-166.5843,-0.094274044,-166.58508,-29.091541,82.102295
1072734375,-29.632769,122.19633,-0.08944577,-166.80675,-0.091372088,-166.82022,-29.052835,80.728249
1074218750,-29.611519,121.93552,-0.094259731,-167.0217,-0.087559119,-167.06264,-29.100849,81.218536
1075703125,-29.594448,121.72564,-0.090950139,-167.27403,-0.090471439,-167.30101,-29.099974,80.756058
1077187500,-29.505428,122.00323,-0.091853298,-167.53055,-0.091184355,-167.49002,-29.223402,81.172676
1078671875,-29.597963,121.46217,-0.088109516,-167.76009,-0.09013056,-167.7357,-29.241257,80.167831
1080156250,-29.773268,121.73769,-0.09338659,-167.96776,-0.095686466,-167.98016,-29.12372,80.454163
1081640625,-29.81171,121.26031,-0.09234941,-168.21089,-0.091281824,-168.20563,-29.10774,80.889587
1083125000,-29.709425,121.10902,-0.092045285,-168.43214,-0.091848962,-168.46684,-29.256531,79.875267
1084609375,-29.773846,120.28883,-0.093689427,-168.65213,-0.088238835,-168.67004,-29.281355,79.05175
1086093750,-29.813002,120.67569,-0.093908854,-168.88661,-0.088988781,-168.90575,-29.30941,78.294128
1087578125,-29.888468,120.21446,-0.092299439,-169.10397,-0.094544522,-169.13852,-29.257988,78.601089
1089062500,-29.787891,120.62805,-0.092317387,-169.34413,-0.090895183,-169.36052,-29.328339,78.420479
1090546875,-29.877447,119.10141,-0.092176467,-169.59589,-0.095341809,-169.59564,-29.49321,78.381966
1092031250,-29.978043,119.88094,-0.091795892,-169.81119,-0.091249093,-169.82274,-29.368349,78.727722
1093515625,-29.850193,119.54525,-0.091947243,-170.04201,-0.090128817,-170.04395,-29.375967,77.048233
1095000000,-29.843967,118.26227,-0.090837814,-170.25725,-0.093295284,-170.29904,-29.397284,77.100098
1096484375,-30.002501,119.23727,-0.091859102,-170.50658,-0.091470338,-170.5094,-29.431971,77.455963
1097968750,-29.891638,118.99544,-0.09133973,-170.72076,-0.090319209,-170.7372,-29.626358,75.431366
1099453125,-30.026121,117.4087,-0.092962168,-170.96124,-0.092785843,-170.98708,-29.467991,76.804291
1100937500,-30.024691,117.57166,-0.088080324,-171.19547,-0.089951791,-171.1953,-29.513258,76.042618
1102421875,-30.193127,117.06479,-0.091906257,-171.4211,-0.092411578,-171.43858,-29.576366,76.166374
1103906250,-30.128941,118.01321,-0.094792418,-171.67043,-0.089891404,-171.6563,-29.529377,75.218704
1105390625,-30.210814,117.17309,-0.095493384,-171.91158,-0.093811572,-171.89687,-29.630659,75.052429
1106875000,-30.050312,117.83308,-0.089966044,-172.12505,-0.092397191,-172.1313,-29.552021,75.199379
1108359375,-30.122473,116.78275,-0.092363097,-172.36792,-0.08519572,-172.35034,-29.632334,75.001045
1109843750,-30.221874,116.37878,-0.094543763,-172.57813,-0.088254414,-172.58008,-29.63829,74.413338
1111328125,-30.276535,115.71327,-0.093426123,-172.81,-0.089917451,-172.80685,-29.623047,73.258972
1112812500,-30.300125,116.35401,-0.094373144,-173.05875,-0.093072742,-173.05106,-29.772753,74.66655
1114296875,-30.352139,115.61213,-0.095672026,-173.27017,-0.088004425,-173.29956,-29.738081,73.664955
1115781250,-30.139334,116.31375,-0.093694039,-173.49495,-0.091849804,-173.52255,-29.704264,73.864555
1117265625,-30.155472,115.16956,-0.095435128,-173.72491,-0.088597611,-173.75497,-29.699736,73.860809
1118750000,-30.481138,114.47694,-0.093960054,-173.94803,-0.090050019,-173.99954,-29.6644,71.409325
1120234375,-30.31776,114.44582,-0.09455803,-174.18367,-0.092258327,-174.19858,-29.6467,72.228767
1121718750,-30.226185,114.67447,-0.091261521,-174.43254,-0.093102075,-174.42599,-29.793308,71.135963
1123203125,-30.383476,114.90243,-0.094909139,-174.67189,-0.092296191,-174.67299,-29.708902,70.867897
1124687500,-30.319098,114.22465,-0.090250254,-174.87285,-0.0889474,-174.90155,-29.809984,70.298477
1126171875,-30.266214,113.92982,-0.094306111,-175.11583,-0.093360454,-175.12955,-29.669659,71.219124
1127656250,-30.383989,113.3849,-0.094981782,-175.35571,-0.09460856,-175.33887,-29.668962,69.669121
1129140625,-30.348553,114.05444,-0.094509907,-175.56001,-0.089823849,-175.59174,-29.570408,69.263885
1130625000,-30.257057,112.91682,-0.092403419,-175.82816,-0.090556182,-175.80219,-29.833321,70.357635
1132109375,-30.331062,114.03492,-0.094058268,-176.01732,-0.092818983,-176.05667,-29.738579,69.413254
1133593750,-30.189484,112.78581,-0.09552139,-176.26465,-0.091900997,-176.28087,-29.5996,69.328667
1135078125,-30.277649,113.64178,-0.094312862,-176.4644,-0.093041256,-176.51463,-29.654085,68.085274
1136562500,-30.234087,113.22924,-0.092870533,-176.72922,-0.092315204,-176.71272,-29.671261,67.771645
1138046875,-30.226686,112.99363,-0.092910305,-176.97121,-0.089859776,-176.96863,-29.774912,68.754349
1139531250,-30.37464,112.92152,-0.091263741,-177.19069,-0.092123963,-177.22049,-29.572859,67.101776
1141015625,-30.377762,113.0052,-0.094428763,-177.44446,-0.096781053,-177.42281,-29.554777,67.730034
1142500000,-30.205538,111.87186,-0.093536258,-177.6385,-0.096261993,-177.65941,-29.528049,67.700768
1143984375,-30.191462,110.7437,-0.095684327,-177.88431,-0.095374189,-177.86456,-29.607981,66.554321
1145468750,-30.39352,112.06064,-0.092128813,-178.10933,-0.095575906,-178.13144,-29.634422,67.248718
1146953125,-30.170633,111.61919,-0.095165171,-178.33942,-0.095462508,-178.34512,-29.618052,66.110268
1148437500,-30.18227,110.9715,-0.090951264,-178.56639,-0.092238963,-178.56136,-29.482409,66.425583
1149921875,-30.147173,110.86679,-0.092894986,-178.81601,-0.09122017,-178.80533,-29.67981,66.114365
1151406250,-30.095352,111.4864,-0.097936712,-179.026,-0.092060141,-179.02319,-29.555206,66.142853
1152890625,-30.180727,111.52401,-0.092570342,-179.24757,-0.09580522,-179.28159,-29.651609,64.800056
1154375000,-30.157438,110.63873,-0.095207445,-179.4986,-0.092461318,-179.49582,-29.573982,65.581734
1155859375,-30.105164,110.13258,-0.094268426,-179.71977,-0.092762306,-179.74728,-29.424389,65.234413
1157343750,-30.040609,109.20397,-0.09225674,-179.95703,-0.094317488,-179.98274,-29.360449,65.174278
1158828125,-29.972921,109.21054,-0.096444741,179.82016,-0.091558866,179.78911,-29.596661,63.826286
1160312500,-30.015575,108.18475,-0.093124069,179.57243,-0.093299605,179.58675,-29.390596,63.53862
1161796875,-30.008549,108.97861,-0.094033219,179.39088,-0.093803033,179.34947,-29.411261,64.042435
1163281250,-29.86079,109.00736,-0.09288387,179.10519,-0.096766025,179.09579,-29.280804,63.113071
1164765625,-29.839775,108.86605,-0.09397541,178.88361,-0.093922406,178.86198,-29.386909,63.105312
1166250000,-29.91613,108.07279,-0.095275708,178.68265,-0.092630379,178.63817,-29.227131,62.426052
1167734375,-29.960867,107.5373,-0.097156167,178.42438,-0.093506679,178.4238,-29.2397,62.481731
1169218750,-29.839464,106.97068,-0.093389146,178.21872,-0.096728235,178.18518,-29.24308,62.48764
1170703125,-29.908987,107.19176,-0.096301436,177.97337,-0.09353172,177.95816,-29.149757,62.201748
1172187500,-29.762724,107.34692,-0.096511193,177.73666,-0.093364969,177.74268,-29.132345,61.802605
1173671875,-29.823055,107.01587,-0.095370367,177.51315,-0.092875913,177.50072,-29.0888,61.339165
1175156250,-29.757088,106.82893,-0.096885428,177.29102,-0.093601868,177.25703,-29.130417,61.460125
1176640625,-29.754719,105.7558,-0.093461074,177.05272,-0.08954265,177.04753,-29.125727,60.828941
1178125000,-29.69315,106.35542,-0.097995147,176.82147,-0.094052926,176.78659,-29.014912,59.63792
1179609375,-29.599985,105.58987,-0.094447814,176.58517,-0.096731789,176.59096,-29.167791,60.273266
1181093750,-29.566149,105.60474,-0.097907349,176.35066,-0.093519732,176.37134,-28.938782,60.552994
1182578125,-29.701868,105.16348,-0.095174916,176.12462,-0.093566746,176.12659,-28.972927,59.703335
1184062500,-29.729218,104.1744,-0.095525652,175.90776,-0.094499201,175.90065,-29.009081,60.238491
1185546875,-29.625772,105.34873,-0.093163237,175.67281,-0.099540666,175.6568,-28.955753,58.919437
1187031250,-29.645454,104.91084,-0.096951164,175.43437,-0.094744511,175.43155,-28.919239,59.55563
1188515625,-29.570906,104.37788,-0.097742207,175.21278,-0.092182249,175.19176,-28.786095,59.410805
1190000000,-29.460272,104.87999,-0.094973899,174.99115,-0.09633854,174.95195,-28.724102,59.075447
1191484375,-29.4219,103.30365,-0.095271781,174.74478,-0.096063316,174.72847,-28.871775,58.768459
1192968750,-29.51734,103.42841,-0.095276535,174.51801,-0.093039021,174.49536,-28.810904,58.7897
1194453125,-29.449394,103.75944,-0.09584675,174.28268,-0.096058786,174.25728,-28.752644,57.970856
1195937500,-29.307718,103.04663,-0.09195102,174.04872,-0.093779378,174.05995,-28.750404,58.29557
1197421875,-29.340231,103.21234,-0.096565306,173.82288,-0.098798625,173.8036,-28.735331,58.11694
1198906250,-29.310383,102.58642,-0.093637645,173.60217,-0.097876288,173.5739,-28.738071,58.106148
1200390625,-29.302917,103.04989,-0.092350274,173.3403,-0.095129296,173.34987,-28.597681,57.851746
1201875000,-29.380066,101.96842,-0.096935511,173.12811,-0.097708628,173.12624,-28.49379,57.870453
1203359375,-29.308132,100.91939,-0.096501261,172.91702,-0.094451569,172.89488,-28.502195,57.557137
1204843750,-29.233059,101.3912,-0.098750837,172.67247,-0.095909767,172.65585,-28.6141,57.016655
1206328125,-29.236961,101.35349,-0.0991152,172.45294,-0.094191581,172.44118,-28.621155,56.83828
1207812500,-29.149385,101.46121,-0.098665193,172.22108,-0.094003662,172.18028,-28.492758,56.768353
1209296875,-29.347401,100.94668,-0.099140204,171.98528,-0.094223216,171.94469,-28.534952,56.68589
1210781250,-29.207048,99.230064,-0.099375404,171.75676,-0.094757229,171.77223,-28.512749,56.461407
1212265625,-29.1812,100.42079,-0.095116012,171.51506,-0.095486142,171.49307,-28.511038,55.926537
1213750000,-29.129372,99.887772,-0.094416015,171.31522,-0.095727384,171.30479,-28.347338,55.520203
1215234375,-29.081366,98.743042,-0.09733288,171.06664,-0.095591217,171.07289,-28.500254,56.610233
1216718750,-29.11434,100.11174,-0.097495548,170.85326,-0.10115439,170.80812,-28.467663,56.254295
1218203125,-29.15567,98.746773,-0.09989465,170.59264,-0.0974712,170.59584,-28.502592,55.435711
1219687500,-29.064299,97.344711,-0.097456515,170.38431,-0.094756976,170.37038,-28.316906,54.898861
1221171875,-28.970779,97.890816,-0.096841738,170.14966,-0.1012068,170.13455,-28.453148,55.252716
1222656250,-29.091967,97.810005,-0.096376732,169.91508,-0.094332024,169.8907,-28.387728,54.624287
1224140625,-29.033348,98.287544,-0.09394639,169.69774,-0.097464114,169.69266,-28.355104,54.323326
1225625000,-28.949823,97.373711,-0.098444961,169.44258,-0.097873941,169.4424,-28.48097,54.282738
1227109375,-29.044321,97.306252,-0.099089235,169.23924,-0.09512274,169.20386,-28.421249,54.392067
1228593750,-28.953354,96.624512,-0.10188501,169.00575,-0.099640533,168.98785,-28.337549,54.193565
1230078125,-29.012135,96.461243,-0.098849609,168.76355,-0.096919723,168.77167,-28.453573,53.89542
1231562500,-29.035484,96.462234,-0.097398266,168.53664,-0.097348571,168.52489,-28.230354,54.188145
1233046875,-29,95.384842,-0.0973332,168.30122,-0.096360378,168.31284,-28.190552,53.923965
1234531250,-28.993631,95.670578,-0.098225996,168.08568,-0.096669637,168.06403,-28.336454,53.791328
1236015625,-29.052645,95.40976,-0.099063478,167.84818,-0.097969167,167.83029,-28.352215,53.665855
1237500000,-28.996559,95.212242,-0.099363483,167.61783,-0.094520465,167.60602,-28.34325,53.508995
1238984375,-29.026323,94.29763,-0.098874174,167.38614,-0.097461581,167.38902,-28.4277,53.203815
1240468750,-29.204216,93.636574,-0.097861454,167.15341,-0.09923204,167.15083,-28.408743,53.376522
1241953125,-29.075037,93.783562,-0.10102367,166.93015,-0.098695211,166.89859,-28.295538,52.443813
1243437500,-29.060114,94.105896,-0.10063498,166.70978,-0.097393185,166.68742,-28.37888,53.483212
1244921875,-29.029091,93.797394,-0.097186275,166.4785,-0.098384865,166.46312,-28.437042,52.38076
1246406250,-29.042288,92.304947,-0.097522028,166.23511,-0.096967809,166.22815,-28.419695,51.696438
1247890625,-29.006901,92.731644,-0.097977616,166.00349,-0.096698351,165.98866,-28.363504,52.024536
1249375000,-29.06506,92.131798,-0.10069683,165.78084,-0.097435586,165.75456,-28.409338,52.27269
1250859375,-29.129108,91.659798,-0.096067056,165.537,-0.097296678,165.52577,-28.44519,50.916183
1252343750,-29.030148,91.664116,-0.096864916,165.32574,-0.099737503,165.29254,-28.362505,51.828438
1253828125,-29.096626,91.233963,-0.095484704,165.08089,-0.099898607,165.08316,-28.449652,51.375988
1255312500,-29.165304,91.432175,-0.097836874,164.84821,-0.10049438,164.82956,-28.287355,51.082127
1256796875,-29.14304,91.534065,-0.098664246,164.6149,-0.097011589,164.60403,-28.495392,50.398319
1258281250,-29.078892,91.415245,-0.09931507,164.39587,-0.10201464,164.38634,-28.602337,50.297657
1259765625,-29.203466,90.13456,-0.097799987,164.16309,-0.097646646,164.16753,-28.476244,50.766705
1261250000,-29.294903,89.774323,-0.10100664,163.92796,-0.094881289,163.92331,-28.434008,50.627132
1262734375,-29.259495,89.981026,-0.098118879,163.71814,-0.10066802,163.69859,-28.629326,49.466087
1264218750,-29.26351,89.110039,-0.098286174,163.47456,-0.10102536,163.46803,-28.595577,49.690144
1265703125,-29.211107,88.165695,-0.096871831,163.23087,-0.099208154,163.24657,-28.510597,49.352531
1267187500,-29.306767,89.276237,-0.097709082,163.01811,-0.098078206,162.96573,-28.496155,49.417892
1268671875,-29.256887,87.640182,-0.099763818,162.79474,-0.096508414,162.76549,-28.490349,49.226219
1270156250,-29.282038,88.365494,-0.10084971,162.57019,-0.096491024,162.54056,-28.558529,48.526546
1271640625,-29.376091,87.691826,-0.099047303,162.32161,-0.10271928,162.32104,-28.730682,48.938972
1273125000,-29.395241,87.779648,-0.094193242,162.09035,-0.10210633,162.09181,-28.639019,48.847446
1274609375,-29.372198,87.737679,-0.098409429,161.88174,-0.098002516,161.85286,-28.703253,47.84132
1276093750,-29.436546,87.053955,-0.10027592,161.61783,-0.10007717,161.61963,-28.726675,48.409069
1277578125,-29.428362,86.848961,-0.099383377,161.38303,-0.10010424,161.41171,-28.852533,47.693295
1279062500,-29.467844,86.508293,-0.098945767,161.17551,-0.095612071,161.16251,-28.73325,47.002304
1280546875,-29.475679,85.869743,-0.10290331,160.93494,-0.093796432,160.93306,-28.627001,47.088734
1282031250,-29.629536,86.430305,-0.10026348,160.7363,-0.097970307,160.69313,-28.781569,47.238178
1283515625,-29.485052,85.457924,-0.09885665,160.48035,-0.097438142,160.4799,-28.872072,46.971878
1285000000,-29.690323,85.64859,-0.098943882,160.25671,-0.097211882,160.21497,-28.932941,46.521568
1286484375,-29.716866,85.647064,-0.098845042,160.0173,-0.095593534,160.00945,-28.905239,46.202393
1287968750,-29.499348,85.464897,-0.1004111,159.79083,-0.096792534,159.77193,-28.904997,45.51136
1289453125,-29.649939,85.96579,-0.096883617,159.56062,-0.10254616,159.55577,-28.892416,45.656818
1290937500,-29.52421,84.775261,-0.097994506,159.33366,-0.099840224,159.34253,-29.028355,45.552914
