!CSV A.01.01
!Agilent Technologies,N5222A,MY51421451,A.09.90.02
!Agilent N5222A: A.09.90.02
!Date: Friday, July 31, 2015 14:03:56
!Source: Standard

BEGIN CH3_DATA
Freq(Hz),S33(DB),S33(DEG),S34(DB),S34(DEG),S43(DB),S43(DEG),S44(DB),S44(DEG)
4000000000,-31.703241,116.55798,-0.20092267,106.21724,-0.20371617,106.16164,-30.514036,-92.312202
4000312500,-31.355568,117.20808,-0.23387501,104.36989,-0.18646754,106.07224,-30.585154,-94.139122
4000625000,-31.40134,116.78572,-0.21965955,104.85881,-0.19189808,106.0002,-30.559782,-93.962761
4000937500,-31.384874,116.05311,-0.21363109,105.29365,-0.19774264,105.91754,-30.603558,-93.743996
4001250000,-31.402586,115.69016,-0.20640364,105.66872,-0.20187178,105.81065,-30.599142,-93.598526
4001562500,-31.437206,115.52625,-0.20334886,105.82824,-0.2050734,105.7633,-30.576401,-93.149048
4001875000,-31.420698,115.10238,-0.2043771,105.82401,-0.20601332,105.69716,-30.5145,-92.9842
4002187500,-31.518713,115.02263,-0.20518383,105.71011,-0.20671391,105.62189,-30.483036,-93.183083
4002500000,-31.565104,114.72314,-0.20244312,105.58355,-0.20652443,105.5317,-30.464268,-93.02356
4002812500,-31.621632,114.69696,-0.20322351,105.44435,-0.20549987,105.44962,-30.418596,-93.322517
4003125000,-31.662718,114.94062,-0.20356765,105.36821,-0.20425972,105.37091,-30.365826,-93.497711
4003437500,-31.602921,114.95364,-0.20773736,105.29247,-0.20223087,105.32628,-30.349907,-93.165962
4003750000,-31.602728,114.95942,-0.20499405,105.1963,-0.20462398,105.22847,-30.394964,-92.804688
4004062500,-31.549711,114.86851,-0.20572041,105.14729,-0.2005734,105.14989,-30.37689,-93.078346
4004375000,-31.577538,115.05754,-0.20786835,105.05596,-0.19939394,105.08191,-30.352215,-92.831566
4004687500,-31.514734,114.53526,-0.20903194,104.99892,-0.20078126,105.03001,-30.303574,-93.23365
4005000000,-31.510796,114.17608,-0.20586561,104.91374,-0.20044163,104.9316,-30.269321,-93.39357
4005312500,-31.467173,113.89127,-0.20617148,104.8621,-0.20069264,104.84309,-30.245539,-93.560844
4005625000,-31.497709,113.79075,-0.20641184,104.78806,-0.20184216,104.76724,-30.165102,-93.5242
4005937500,-31.517076,113.68689,-0.20802432,104.71153,-0.20432109,104.69427,-30.192131,-93.549065
4006250000,-31.509066,113.37394,-0.20534346,104.62936,-0.20220153,104.61512,-30.138853,-93.650711
4006562500,-31.574053,113.3368,-0.20591724,104.55403,-0.20244126,104.5591,-30.134525,-93.47081
4006875000,-31.578892,113.54079,-0.20396234,104.46445,-0.2050357,104.48631,-30.143587,-93.441978
4007187500,-31.629173,113.52605,-0.19872308,104.37677,-0.20718725,104.4046,-30.172228,-93.686478
4007500000,-31.557121,113.40054,-0.20170277,104.30264,-0.20580094,104.3671,-30.199184,-93.404984
4007812500,-31.485157,113.6657,-0.20410259,104.23399,-0.20537706,104.24712,-30.173275,-93.242874
4008125000,-31.435282,113.91634,-0.20433998,104.15345,-0.20451796,104.16499,-30.18878,-93.583687
4008437500,-31.293756,113.66454,-0.20451577,104.08858,-0.20599844,104.08346,-30.148788,-93.587578
4008750000,-31.230848,113.21626,-0.20741437,103.99082,-0.2034114,104.00047,-30.170856,-93.445114
4009062500,-31.192837,113.01033,-0.20555727,103.92377,-0.20275183,103.93629,-30.176985,-93.561386
4009375000,-31.17989,112.69616,-0.20311661,103.84257,-0.2045044,103.86385,-30.174812,-93.731163
4009687500,-31.189772,112.2952,-0.2052206,103.78212,-0.20471105,103.7783,-30.222645,-93.763702
4010000000,-31.216011,112.13605,-0.20563765,103.70895,-0.20436439,103.69307,-30.190855,-93.82341
4010312500,-31.218176,111.79793,-0.20213841,103.63074,-0.20598921,103.63914,-30.220333,-93.871178
4010625000,-31.223545,111.87232,-0.20451321,103.53698,-0.2034898,103.54243,-30.150335,-94.168495
4010937500,-31.205584,111.96705,-0.2061139,103.46714,-0.20210432,103.48013,-30.116787,-94.374748
4011250000,-31.183622,112.1965,-0.20807473,103.39867,-0.20012034,103.40506,-30.044762,-94.559807
4011562500,-31.112989,112.03086,-0.20515838,103.31015,-0.20154676,103.32917,-30.070221,-94.544701
4011875000,-31.110554,112.26891,-0.20482485,103.23502,-0.20167175,103.2489,-30.028955,-94.683113
4012187500,-31.119923,112.22683,-0.20251241,103.16015,-0.20346931,103.1765,-30.041159,-94.863762
4012500000,-31.050127,112.67837,-0.20621502,103.07285,-0.20259832,103.09807,-30.049208,-95.016068
4012812500,-31.064766,112.73227,-0.20248643,102.99555,-0.20114641,103.0361,-30.031727,-95.21312
4013125000,-31.042517,112.83198,-0.20744017,102.91036,-0.20388077,102.95699,-30.060442,-95.144966
4013437500,-31.037045,112.87971,-0.20305857,102.84389,-0.20368899,102.88526,-30.05369,-95.240387
4013750000,-31.030212,112.72948,-0.20204376,102.77959,-0.20127407,102.79828,-29.958395,-95.076157
4014062500,-30.987839,112.55224,-0.20419852,102.68681,-0.20345084,102.71475,-29.932827,-95.42997
4014375000,-30.975334,112.26485,-0.20374671,102.64018,-0.2009733,102.64026,-29.918301,-95.177605
4014687500,-30.951239,112.25322,-0.20649806,102.56915,-0.20220053,102.56607,-29.809135,-95.163521
4015000000,-30.898905,111.77941,-0.20357098,102.52111,-0.20474638,102.48264,-29.827641,-95.223892
4015312500,-30.982817,111.71335,-0.20805611,102.43266,-0.20407318,102.42525,-29.802958,-94.904869
4015625000,-30.946188,111.68956,-0.20384431,102.32629,-0.20339338,102.33597,-29.790546,-95.331177
4015937500,-30.991949,111.39226,-0.20510572,102.24254,-0.20275204,102.29065,-29.757486,-94.962135
4016250000,-30.99585,110.90939,-0.20687117,102.1861,-0.20176239,102.20213,-29.750368,-94.992645
4016562500,-30.990725,111.07131,-0.20422807,102.10066,-0.20468189,102.11103,-29.791561,-94.915222
4016875000,-30.953878,110.65079,-0.20628537,102.04287,-0.20540282,102.04487,-29.790405,-95.176979
4017187500,-30.947338,110.05315,-0.20424058,101.95084,-0.20509648,101.95525,-29.832979,-95.0056
4017500000,-30.892811,110.22031,-0.20154026,101.88143,-0.203888,101.89524,-29.848503,-95.458107
4017812500,-30.89344,109.98041,-0.2050204,101.79176,-0.20306595,101.79819,-29.845062,-95.18988
4018125000,-30.844172,109.91984,-0.20627028,101.72017,-0.20527762,101.72192,-29.819981,-95.299187
4018437500,-30.924263,109.94262,-0.20383957,101.65313,-0.20383728,101.64134,-29.842665,-95.122688
4018750000,-30.897717,109.92924,-0.2051286,101.57178,-0.20580751,101.58238,-29.832047,-94.846657
4019062500,-30.883436,109.63557,-0.20579544,101.49633,-0.20651972,101.50121,-29.752514,-94.543373
4019375000,-30.924509,109.86235,-0.20615803,101.43884,-0.20552628,101.42033,-29.79283,-94.571518
4019687500,-30.898846,109.32967,-0.20157069,101.35067,-0.2030061,101.35778,-29.740995,-94.785309
4020000000,-30.9032,108.90917,-0.20594826,101.26931,-0.20521632,101.28114,-29.777605,-94.770378
4020312500,-30.965973,108.69559,-0.20307252,101.19357,-0.20431092,101.22205,-29.733274,-94.929192
4020625000,-30.995125,108.49538,-0.20355099,101.11405,-0.20480703,101.13979,-29.762394,-95.264397
4020937500,-30.985594,108.2788,-0.20680928,101.04523,-0.20372662,101.05657,-29.777809,-95.050255
4021250000,-30.899881,108.66973,-0.20330141,100.95119,-0.2032764,100.97917,-29.776558,-95.349518
4021562500,-30.849735,108.74471,-0.20487025,100.87212,-0.20369507,100.90037,-29.78875,-95.528908
4021875000,-30.834188,108.90275,-0.20606922,100.79364,-0.20297177,100.83483,-29.781836,-95.957199
4022187500,-30.813124,109.16458,-0.20532636,100.7288,-0.20203559,100.75407,-29.758411,-95.988281
4022500000,-30.793365,108.76449,-0.2052882,100.65933,-0.20130661,100.67043,-29.72142,-96.000847
4022812500,-30.771591,108.10396,-0.20546676,100.59397,-0.20215029,100.61471,-29.659163,-95.603348
4023125000,-30.761131,107.71914,-0.20606667,100.51837,-0.20300534,100.53774,-29.664873,-95.585724
4023437500,-30.785746,107.06174,-0.20618899,100.43828,-0.20086986,100.4508,-29.624224,-95.425972
4023750000,-30.732279,106.94955,-0.2063771,100.3483,-0.20661873,100.38312,-29.676693,-95.583405
4024062500,-30.761761,106.90781,-0.20458819,100.2763,-0.20545527,100.30213,-29.690393,-95.325996
4024375000,-30.740074,107.24498,-0.20670556,100.21944,-0.2058357,100.20822,-29.701538,-95.339722
4024687500,-30.705322,107.3624,-0.2065966,100.11359,-0.20447077,100.14861,-29.75333,-95.77037
4025000000,-30.689833,107.41312,-0.20459983,100.05017,-0.20689107,100.04087,-29.748854,-95.804398
4025312500,-30.676739,107.40395,-0.20602287,99.975403,-0.20537774,99.972389,-29.717667,-95.964111
4025625000,-30.696711,107.38559,-0.20564486,99.908852,-0.20527759,99.916771,-29.697941,-96.274406
4025937500,-30.680397,107.02074,-0.20740716,99.822624,-0.20342265,99.849823,-29.629705,-96.325676
4026250000,-30.687723,106.81296,-0.20732237,99.755959,-0.20392041,99.763939,-29.624182,-96.493317
4026562500,-30.695627,106.82894,-0.20841806,99.677231,-0.20163004,99.695229,-29.625032,-96.37529
4026875000,-30.723116,107.19933,-0.20529181,99.617966,-0.20278147,99.62986,-29.635088,-96.34436
4027187500,-30.778574,106.79507,-0.20421833,99.524284,-0.20465156,99.518196,-29.612793,-95.824203
4027500000,-30.863758,107.12696,-0.20748414,99.444328,-0.20481318,99.458229,-29.585711,-95.610703
4027812500,-30.86628,106.76611,-0.20465249,99.387589,-0.20350048,99.383865,-29.602661,-95.614494
4028125000,-30.842934,106.36317,-0.20373234,99.294815,-0.20683874,99.308678,-29.587423,-95.513069
4028437500,-30.804127,106.07195,-0.20554687,99.212845,-0.20561716,99.241531,-29.520153,-95.723915
4028750000,-30.704897,105.99258,-0.20295089,99.141029,-0.20210636,99.143723,-29.496975,-95.888359
4029062500,-30.639387,106.08131,-0.20170578,99.062828,-0.20686002,99.076981,-29.513294,-96.452751
4029375000,-30.521242,105.80549,-0.20229936,99.003738,-0.20486513,98.968216,-29.491995,-96.596313
4029687500,-30.447508,105.32343,-0.20297663,98.9282,-0.20256573,98.931061,-29.467274,-96.937607
4030000000,-30.382933,105.0935,-0.20235215,98.848701,-0.20589474,98.836006,-29.463604,-96.947021
4030312500,-30.374355,105.10456,-0.2054158,98.763702,-0.20398541,98.77964,-29.503824,-96.851807
4030625000,-30.403603,104.67754,-0.20537552,98.688446,-0.20657916,98.68576,-29.546436,-96.742546
4030937500,-30.381029,104.38531,-0.20649232,98.589607,-0.20498203,98.622948,-29.537569,-97.165024
4031250000,-30.375877,104.16544,-0.20534113,98.51091,-0.20656024,98.542633,-29.54409,-96.800423
4031562500,-30.462635,104.1231,-0.20766136,98.454262,-0.20464371,98.45816,-29.510662,-96.912895
4031875000,-30.437464,104.23447,-0.20662864,98.379639,-0.20797485,98.393456,-29.486694,-96.960114
4032187500,-30.499367,104.01649,-0.20663692,98.307198,-0.21130656,98.319321,-29.438389,-97.00901
4032500000,-30.497078,104.40578,-0.20592426,98.228088,-0.21046437,98.236778,-29.448929,-97.044945
4032812500,-30.49173,104.16969,-0.20680445,98.153191,-0.20281222,98.167137,-29.435658,-97.200676
4033125000,-30.46125,104.10643,-0.20701306,98.086441,-0.20457071,98.094299,-29.425159,-97.083557
4033437500,-30.418419,104.19532,-0.20527692,97.98867,-0.20524131,98.021149,-29.430803,-97.206573
4033750000,-30.414404,104.09866,-0.20743747,97.922569,-0.20675334,97.918198,-29.449049,-97.494728
4034062500,-30.373661,104.32676,-0.2077138,97.845909,-0.20814833,97.842484,-29.445681,-97.49588
4034375000,-30.392859,103.91287,-0.20620278,97.7789,-0.20462273,97.772957,-29.458437,-97.734177
4034687500,-30.395519,103.77553,-0.20792703,97.692726,-0.20287639,97.709808,-29.410526,-98.07769
4035000000,-30.373657,103.5579,-0.20383041,97.628624,-0.20492771,97.627762,-29.422136,-98.357697
4035312500,-30.384315,103.34135,-0.20462698,97.532906,-0.20367439,97.543022,-29.39843,-98.447289
4035625000,-30.381971,103.3654,-0.20683534,97.496941,-0.2050868,97.482834,-29.419683,-98.472534
4035937500,-30.346663,103.32877,-0.20585331,97.40451,-0.20618112,97.408356,-29.421659,-98.358467
4036250000,-30.345032,103.37738,-0.20774889,97.328636,-0.20718902,97.334175,-29.402477,-98.528221
4036562500,-30.329815,103.31048,-0.20624578,97.242699,-0.2045404,97.255539,-29.389956,-98.496933
4036875000,-30.292027,103.20287,-0.20373236,97.163193,-0.2039675,97.177498,-29.359659,-98.440872
4037187500,-30.281361,103.06253,-0.20657091,97.113182,-0.20754209,97.110878,-29.364849,-98.249298
4037500000,-30.265036,103.14362,-0.20682736,97.019279,-0.20377396,97.023849,-29.298132,-98.418434
4037812500,-30.214672,103.12434,-0.2054868,96.935646,-0.20701328,96.956001,-29.263655,-98.240776
4038125000,-30.210493,102.9628,-0.206533,96.862656,-0.20780084,96.864555,-29.241732,-98.258743
4038437500,-30.214073,102.63895,-0.20632336,96.784729,-0.20507687,96.789345,-29.204195,-97.928207
4038750000,-30.230833,102.66309,-0.20859075,96.715652,-0.2066817,96.709984,-29.209759,-97.798157
4039062500,-30.242826,102.30599,-0.20839223,96.631088,-0.20801638,96.623756,-29.269257,-97.7071
4039375000,-30.255278,101.92861,-0.20970494,96.555809,-0.20557475,96.534218,-29.2908,-97.434128
4039687500,-30.297909,101.62189,-0.20709603,96.503693,-0.20464617,96.462646,-29.311708,-97.526031
4040000000,-30.37273,101.6115,-0.20649432,96.411552,-0.20494132,96.3955,-29.342468,-97.497375
4040312500,-30.296087,101.4305,-0.20672788,96.331825,-0.20493574,96.32132,-29.353344,-97.874962
4040625000,-30.221239,101.31254,-0.20721699,96.250893,-0.20602502,96.252998,-29.372622,-98.292267
4040937500,-30.257425,101.62233,-0.20454773,96.179939,-0.20523381,96.167328,-29.334669,-98.532272
4041250000,-30.205044,101.20593,-0.20806409,96.109543,-0.20538424,96.089531,-29.283186,-98.725853
4041562500,-30.172043,101.39859,-0.20693555,96.014214,-0.20528623,96.018044,-29.265541,-98.762276
4041875000,-30.164436,101.16991,-0.20790863,95.935745,-0.20467533,95.950233,-29.268305,-98.351547
4042187500,-30.12973,100.53023,-0.21078204,95.877403,-0.20184277,95.883293,-29.250443,-98.608383
4042500000,-30.162901,100.22359,-0.20717494,95.782227,-0.20104268,95.79805,-29.230165,-98.541901
4042812500,-30.14082,99.764023,-0.20821245,95.715782,-0.20457447,95.719284,-29.223289,-98.377541
4043125000,-30.118654,99.102486,-0.20531146,95.642723,-0.20593727,95.654419,-29.19841,-98.461662
4043437500,-30.087563,99.321411,-0.20420745,95.563606,-0.20708549,95.569687,-29.204386,-98.544632
4043750000,-30.066378,99.47731,-0.20307973,95.517365,-0.2067374,95.491287,-29.211294,-98.640076
4044062500,-30.089148,99.737244,-0.20268786,95.426781,-0.20955101,95.410751,-29.186035,-98.726059
4044375000,-30.074373,99.825043,-0.20231698,95.363419,-0.20978329,95.320625,-29.225079,-98.929626
4044687500,-30.090122,99.649849,-0.20568919,95.278404,-0.20634598,95.287079,-29.162493,-98.86377
4045000000,-30.108175,99.575142,-0.20495725,95.196381,-0.20882109,95.199722,-29.150503,-98.966972
4045312500,-30.180805,99.407333,-0.20560727,95.128716,-0.20859551,95.110947,-29.076874,-99.093979
4045625000,-30.220585,99.100525,-0.20567551,95.061577,-0.20831022,95.05043,-29.051477,-99.346886
4045937500,-30.23571,98.982521,-0.20844318,94.969803,-0.2048687,94.974632,-29.083015,-99.121399
4046250000,-30.182306,98.865631,-0.20761414,94.891411,-0.20810655,94.903076,-29.037249,-99.020805
4046562500,-30.159559,99.288116,-0.20792165,94.799988,-0.20468226,94.828056,-29.075928,-98.705833
4046875000,-30.094595,99.582481,-0.20854709,94.738213,-0.20284912,94.746017,-29.129263,-98.655838
4047187500,-30.07234,99.952057,-0.20937765,94.65081,-0.20309068,94.683952,-29.1408,-98.758362
4047500000,-30.030647,99.68779,-0.20850514,94.596642,-0.20568019,94.602783,-29.132948,-98.628555
4047812500,-30.04183,99.727745,-0.20953423,94.494614,-0.20743397,94.525948,-29.113169,-98.822334
4048125000,-30.044991,99.308449,-0.2069819,94.447029,-0.2057115,94.451538,-29.02972,-99.194313
4048437500,-30.067976,98.687637,-0.20623115,94.390091,-0.20385766,94.380104,-28.997368,-99.36364
4048750000,-30.098497,98.332214,-0.2051197,94.287041,-0.20464139,94.293251,-28.953625,-99.604851
4049062500,-30.085621,97.983238,-0.20570447,94.22493,-0.2069023,94.222786,-28.952702,-99.166367
4049375000,-30.046808,97.97493,-0.20246251,94.129776,-0.20788912,94.126732,-28.987377,-98.909294
4049687500,-29.976635,97.871483,-0.2045695,94.073494,-0.20707731,94.051056,-29.049152,-98.302086
4050000000,-29.907579,98.036369,-0.20584121,93.966454,-0.20455232,93.995941,-29.055456,-98.183945
4050312500,-29.830887,98.051849,-0.2069082,93.886223,-0.20439243,93.898315,-29.105213,-98.166687
4050625000,-29.864876,98.059998,-0.20505677,93.817375,-0.20565654,93.805809,-29.142176,-98.996941
4050937500,-29.860216,98.066856,-0.20505287,93.737411,-0.20571506,93.74231,-29.130781,-99.34153
4051250000,-29.842653,98.303871,-0.2073663,93.679688,-0.20402411,93.679169,-29.073612,-99.600861
4051562500,-29.866936,98.199257,-0.2067209,93.610191,-0.20487264,93.586205,-29.075693,-100.0177
4051875000,-29.881252,98.253754,-0.20318221,93.53833,-0.20597182,93.521759,-29.046745,-100.5394
4052187500,-29.86371,97.889954,-0.20531334,93.452469,-0.20406915,93.425713,-29.018242,-100.21404
4052500000,-29.821217,97.907761,-0.20440172,93.361015,-0.20329711,93.361221,-28.982534,-100.1211
4052812500,-29.831406,97.669441,-0.20671049,93.266098,-0.20383288,93.28614,-28.979826,-100.18456
4053125000,-29.8025,97.145393,-0.20715623,93.194702,-0.20379108,93.20916,-28.978527,-100.08788
4053437500,-29.813158,96.935242,-0.20814535,93.133636,-0.20481536,93.121437,-28.957439,-100.30096
4053750000,-29.803419,96.745659,-0.20845015,93.060089,-0.20524448,93.050545,-28.918234,-100.09367
4054062500,-29.802851,96.684395,-0.20734322,92.972115,-0.20425482,93.002968,-28.857578,-100.0247
4054375000,-29.829214,96.415733,-0.20723298,92.919205,-0.20701207,92.909447,-28.813349,-99.896072
4054687500,-29.84185,96.234428,-0.20602678,92.837944,-0.20716742,92.846291,-28.781425,-100.11026
4055000000,-29.844591,96.205589,-0.20501651,92.769279,-0.20645145,92.768578,-28.805414,-100.19421
4055312500,-29.830002,95.945244,-0.20599037,92.695038,-0.2038043,92.696861,-28.79878,-100.48373
4055625000,-29.832434,95.818604,-0.20919009,92.613701,-0.20341553,92.610687,-28.86944,-100.74776
4055937500,-29.812107,95.780952,-0.20891316,92.541481,-0.20596099,92.526871,-28.9147,-100.74016
4056250000,-29.840599,95.400635,-0.20893104,92.469162,-0.20709385,92.442345,-28.942947,-100.83633
4056562500,-29.835005,95.257195,-0.20776412,92.388741,-0.20554411,92.374649,-28.889261,-100.64304
4056875000,-29.83353,95.474144,-0.20761998,92.303253,-0.20647907,92.276031,-28.862978,-100.55589
4057187500,-29.814816,95.416733,-0.20547438,92.248543,-0.20486227,92.218384,-28.879574,-100.8437
4057500000,-29.86175,95.415199,-0.2035386,92.163742,-0.20978412,92.135147,-28.834984,-101.00339
4057812500,-29.849436,95.338951,-0.20791015,92.078171,-0.21032965,92.061394,-28.83374,-101.09964
4058125000,-29.812323,95.051178,-0.20808862,91.992752,-0.20634872,92.010132,-28.87693,-101.03119
4058437500,-29.807779,94.737747,-0.20650592,91.923798,-0.2056828,91.938805,-28.829473,-101.00539
4058750000,-29.834307,94.74263,-0.20604771,91.845291,-0.20909321,91.866287,-28.875259,-100.93558
4059062500,-29.808558,94.72979,-0.20708415,91.776009,-0.20509379,91.778328,-28.868422,-100.98064
4059375000,-29.799131,94.618698,-0.20831288,91.703049,-0.20519215,91.699692,-28.908453,-100.79122
4059687500,-29.717146,94.553795,-0.20629427,91.623825,-0.20531335,91.637047,-28.837341,-100.57652
4060000000,-29.710081,94.655228,-0.20763288,91.527832,-0.20547767,91.553406,-28.864922,-100.46073
4060312500,-29.685122,94.693222,-0.20635469,91.456642,-0.20606153,91.467171,-28.800579,-100.05334
4060625000,-29.624382,94.637016,-0.20830826,91.389,-0.2022903,91.393906,-28.801935,-100.12193
4060937500,-29.625925,94.632202,-0.20870237,91.286667,-0.204464,91.332436,-28.840357,-100.31128
4061250000,-29.649052,94.523933,-0.20721556,91.242157,-0.20378564,91.238541,-28.844971,-100.32828
4061562500,-29.658615,94.572441,-0.20722471,91.162781,-0.20628704,91.15937,-28.876165,-100.73133
4061875000,-29.691488,94.452209,-0.20593329,91.099236,-0.20462708,91.086525,-28.856365,-100.72151
4062187500,-29.700569,94.366096,-0.20670812,91.000511,-0.20708771,91.01506,-28.878771,-100.80112
4062500000,-29.680199,94.294983,-0.20612398,90.928345,-0.20599425,90.945168,-28.823383,-101.10612
