!CSV A.01.01
!Agilent Technologies,N5222A,MY51421451,A.09.90.02
!Agilent N5222A: A.09.90.02
!Date: Friday, July 31, 2015 14:48:11
!Source: Standard

BEGIN CH3_DATA
Freq(Hz),S33(DB),S33(DEG),S34(DB),S34(DEG),S43(DB),S43(DEG),S44(DB),S44(DEG)
4000000000,-31.351204,114.09245,-0.20005295,106.35361,-0.20626009,106.34488,-30.331123,-89.321243
4000312500,-31.018929,114.5641,-0.23302473,104.53051,-0.19252375,106.29092,-30.422054,-91.265106
4000625000,-31.021738,114.30018,-0.2249191,104.9928,-0.19826685,106.19566,-30.434008,-91.016457
4000937500,-31.021015,113.76437,-0.21249232,105.46147,-0.20137112,106.10426,-30.414118,-90.652611
4001250000,-31.036913,113.17102,-0.20555834,105.84244,-0.20595893,106.03819,-30.373341,-90.467697
4001562500,-31.062849,112.91702,-0.20403375,105.98915,-0.20667152,105.95884,-30.391953,-89.928383
4001875000,-31.098633,112.83304,-0.20622998,105.97725,-0.21024038,105.88265,-30.361395,-90.05011
4002187500,-31.199394,112.46605,-0.20135425,105.88586,-0.20986931,105.80229,-30.325272,-89.967522
4002500000,-31.227463,112.47244,-0.20255852,105.72718,-0.21003342,105.7246,-30.253916,-89.926353
4002812500,-31.232437,112.47596,-0.20536494,105.58152,-0.20919855,105.64848,-30.256655,-90.158295
4003125000,-31.219702,112.38962,-0.20444606,105.51746,-0.20932485,105.59259,-30.202892,-89.832504
4003437500,-31.264366,112.55016,-0.20596923,105.43822,-0.20849001,105.49821,-30.176497,-89.86412
4003750000,-31.234926,112.5134,-0.2096439,105.37202,-0.20822297,105.4213,-30.218464,-89.693794
4004062500,-31.25016,112.53227,-0.20745926,105.27206,-0.20536277,105.35306,-30.146643,-89.591576
4004375000,-31.164248,112.44136,-0.20684466,105.20924,-0.20698921,105.2888,-30.155016,-89.708649
4004687500,-31.157784,111.92036,-0.20878415,105.13392,-0.20627755,105.18498,-30.142256,-89.760017
4005000000,-31.110172,111.96407,-0.20665905,105.06123,-0.20366468,105.11869,-30.086588,-89.990646
4005312500,-31.121864,111.48626,-0.20917284,105.01314,-0.20398283,105.05589,-30.026266,-89.798424
4005625000,-31.114878,111.3576,-0.208744,104.92999,-0.20485128,104.96268,-29.992033,-90.294807
4005937500,-31.09971,111.19568,-0.20598933,104.87167,-0.20588869,104.89031,-29.981323,-90.129639
4006250000,-31.185074,111.15777,-0.20332381,104.77457,-0.20553052,104.81646,-29.974901,-90.192802
4006562500,-31.215754,110.8904,-0.20553575,104.7,-0.20827106,104.74847,-29.957033,-89.921272
4006875000,-31.205223,110.88062,-0.20370658,104.61935,-0.21158075,104.68018,-29.969296,-90.105003
4007187500,-31.211994,111.07079,-0.20613447,104.54745,-0.20807961,104.59283,-29.972776,-90.08046
4007500000,-31.231483,110.97162,-0.2022168,104.4456,-0.20875281,104.52097,-29.963865,-90.082062
4007812500,-31.112513,111.17631,-0.20548156,104.36881,-0.20913535,104.4481,-29.944519,-90.025154
4008125000,-31.024002,111.40166,-0.20461042,104.28409,-0.20740975,104.36139,-29.95463,-90.029106
4008437500,-30.892052,111.30387,-0.20361264,104.23606,-0.20966798,104.2745,-29.989729,-89.829521
4008750000,-30.820562,111.01654,-0.20469683,104.14008,-0.20803174,104.18752,-29.953457,-90.082047
4009062500,-30.809923,110.2894,-0.20458798,104.07938,-0.20809372,104.11419,-29.965912,-90.271301
4009375000,-30.841681,110.23959,-0.20403312,103.99239,-0.20820187,104.03391,-29.960688,-90.603813
4009687500,-30.813225,109.69173,-0.20448211,103.91321,-0.20763305,103.97937,-29.983622,-90.337456
4010000000,-30.866047,109.44077,-0.20650303,103.85355,-0.20777328,103.89618,-29.996386,-90.488083
4010312500,-30.866175,109.56522,-0.20252956,103.76849,-0.2075294,103.82012,-29.945858,-90.387413
4010625000,-30.813435,109.47292,-0.20674334,103.7028,-0.20758033,103.737,-29.932596,-90.56414
4010937500,-30.812023,109.64711,-0.20720731,103.62267,-0.20613846,103.6611,-29.904812,-90.882881
4011250000,-30.760366,109.69769,-0.2049125,103.54025,-0.20731375,103.59478,-29.9016,-90.969116
4011562500,-30.726503,109.98756,-0.207193,103.46663,-0.20523517,103.51372,-29.804432,-90.922905
4011875000,-30.703388,109.87106,-0.20563915,103.38953,-0.20413066,103.44421,-29.812433,-91.278481
4012187500,-30.69775,110.02196,-0.20608568,103.30732,-0.206642,103.36236,-29.824751,-91.356628
4012500000,-30.701586,110.31983,-0.20347065,103.22441,-0.20958707,103.28577,-29.797155,-91.511696
4012812500,-30.689058,110.59913,-0.2033246,103.13612,-0.20851697,103.21055,-29.840933,-91.436119
4013125000,-30.646807,110.42211,-0.20483062,103.0665,-0.2087993,103.14706,-29.825706,-91.714241
4013437500,-30.60144,110.58024,-0.20518236,103.00963,-0.20769218,103.05795,-29.841557,-91.450104
4013750000,-30.63106,110.23222,-0.20451285,102.92856,-0.20643735,102.9763,-29.735582,-91.581924
4014062500,-30.549017,110.1658,-0.20732942,102.86176,-0.20674603,102.89587,-29.730192,-91.602455
4014375000,-30.524324,109.95836,-0.20566183,102.79611,-0.20482796,102.82365,-29.638462,-91.746407
4014687500,-30.584141,109.64902,-0.20311707,102.71161,-0.20633097,102.75482,-29.615023,-91.685226
4015000000,-30.542179,109.56951,-0.2049901,102.64851,-0.20780054,102.67209,-29.615725,-91.322456
4015312500,-30.568668,109.11321,-0.20523424,102.57849,-0.20762102,102.58734,-29.557968,-91.57943
4015625000,-30.549337,108.81281,-0.20548706,102.4846,-0.20571822,102.52342,-29.540697,-91.276222
4015937500,-30.573454,108.64977,-0.20599011,102.40845,-0.20456663,102.45393,-29.483,-91.3909
4016250000,-30.618109,108.42772,-0.20820841,102.34137,-0.20764209,102.3839,-29.514973,-91.492989
4016562500,-30.583025,108.48096,-0.20689583,102.26242,-0.20643798,102.31255,-29.535088,-91.342163
4016875000,-30.545994,108.07197,-0.20571724,102.18685,-0.20837542,102.21287,-29.539629,-91.340714
4017187500,-30.523275,107.91528,-0.20628196,102.09821,-0.20848681,102.15623,-29.59074,-91.801674
4017500000,-30.433567,107.85311,-0.20232336,102.01553,-0.20750901,102.06762,-29.594484,-91.575836
4017812500,-30.462994,107.52708,-0.20362815,101.94904,-0.2074655,101.9734,-29.602161,-91.777603
4018125000,-30.468832,107.44967,-0.20403843,101.88284,-0.21098457,101.90858,-29.560154,-91.530586
4018437500,-30.430904,107.27483,-0.20456713,101.79876,-0.2086854,101.81039,-29.581022,-91.426231
4018750000,-30.402283,107.55329,-0.20503034,101.74097,-0.20873792,101.7636,-29.546524,-91.293205
4019062500,-30.457027,107.4999,-0.20814227,101.64999,-0.20799962,101.67451,-29.564772,-91.130455
4019375000,-30.448751,107.08059,-0.20586872,101.5687,-0.20851488,101.60706,-29.500523,-91.088669
4019687500,-30.438789,106.8549,-0.20400956,101.49238,-0.21121523,101.53011,-29.49556,-91.32312
4020000000,-30.445583,106.59513,-0.20325968,101.41655,-0.20856175,101.45303,-29.496355,-91.383247
4020312500,-30.493643,106.56469,-0.20450941,101.34316,-0.20928532,101.39695,-29.47003,-91.471397
4020625000,-30.490591,106.06619,-0.20186153,101.26401,-0.20720114,101.32204,-29.464359,-91.495102
4020937500,-30.487522,106.07516,-0.20408706,101.17446,-0.20731074,101.2474,-29.489489,-91.745384
4021250000,-30.471249,106.3046,-0.20305663,101.11469,-0.20568162,101.17626,-29.520645,-91.725273
4021562500,-30.434874,106.50514,-0.20536022,101.03188,-0.20772214,101.08924,-29.537964,-92.08226
4021875000,-30.398663,106.3903,-0.2059508,100.945,-0.2069798,101.0033,-29.504555,-92.210228
4022187500,-30.37635,106.58205,-0.20558305,100.87306,-0.20622042,100.93287,-29.523432,-92.330452
4022500000,-30.338289,106.18112,-0.20949462,100.80994,-0.20773882,100.86965,-29.46698,-92.354347
4022812500,-30.289677,105.83289,-0.20703557,100.72719,-0.20853718,100.7962,-29.38777,-92.141235
4023125000,-30.282785,105.11614,-0.20624489,100.66246,-0.20825742,100.71681,-29.408651,-92.106621
4023437500,-30.30847,104.86598,-0.20632716,100.58666,-0.20975642,100.62691,-29.394011,-91.661598
4023750000,-30.267565,104.45099,-0.20920762,100.51661,-0.20965554,100.55704,-29.367111,-91.817383
4024062500,-30.248766,104.85766,-0.20582704,100.42576,-0.20952269,100.48474,-29.367823,-91.679733
4024375000,-30.219809,104.60542,-0.20619486,100.34738,-0.21003325,100.41583,-29.418911,-91.803925
4024687500,-30.202765,104.97609,-0.20782857,100.27781,-0.20815901,100.32666,-29.409611,-91.974991
4025000000,-30.182013,104.96716,-0.20485441,100.20609,-0.20945269,100.24988,-29.449436,-92.418472
4025312500,-30.216944,104.94214,-0.20579292,100.14088,-0.21012796,100.16843,-29.402294,-92.502396
4025625000,-30.215145,104.63965,-0.2074167,100.0564,-0.20347139,100.08504,-29.374912,-92.69252
4025937500,-30.187227,104.44822,-0.20686504,99.976524,-0.20778331,100.03158,-29.3578,-92.553566
4026250000,-30.148682,104.34657,-0.20493348,99.916718,-0.2086226,99.955902,-29.334288,-92.552513
4026562500,-30.213978,104.16331,-0.20536551,99.832932,-0.21022964,99.875183,-29.334545,-92.751762
4026875000,-30.257113,104.45887,-0.20623478,99.754288,-0.20818685,99.813377,-29.300869,-92.48468
4027187500,-30.321966,104.50172,-0.20282079,99.670975,-0.20707457,99.737175,-29.277533,-92.206924
4027500000,-30.342417,104.27521,-0.2064974,99.580231,-0.21001638,99.656219,-29.285797,-92.343109
4027812500,-30.372585,104.28297,-0.20585306,99.511223,-0.20892112,99.575844,-29.237179,-91.739067
4028125000,-30.341782,103.97672,-0.20640804,99.444206,-0.20780723,99.497307,-29.259016,-91.79306
4028437500,-30.293865,103.48393,-0.20459168,99.38974,-0.21070214,99.413818,-29.233423,-92.436264
4028750000,-30.197454,103.39181,-0.20366246,99.29921,-0.21017095,99.344971,-29.190863,-92.717926
4029062500,-30.105312,103.44496,-0.20446011,99.232491,-0.20825437,99.253448,-29.170977,-92.972908
4029375000,-30.001762,103.14182,-0.20350158,99.168961,-0.20884414,99.178574,-29.160336,-93.201843
4029687500,-29.963326,103.09335,-0.20615402,99.061501,-0.21110018,99.10807,-29.141695,-93.539108
4030000000,-29.903444,102.72541,-0.20324837,98.997757,-0.20930675,99.035751,-29.181944,-93.273781
4030312500,-29.881411,102.68732,-0.20624332,98.922203,-0.2095703,98.975136,-29.212936,-93.429245
4030625000,-29.870609,102.38684,-0.20535603,98.855934,-0.21128024,98.875717,-29.220966,-93.642761
4030937500,-29.901318,101.71111,-0.20880163,98.745628,-0.20862861,98.806702,-29.212353,-93.355789
4031250000,-29.9083,101.83218,-0.21068108,98.6726,-0.20997235,98.720337,-29.189497,-93.372879
4031562500,-29.924854,101.6784,-0.20647939,98.605797,-0.20892014,98.645378,-29.19433,-93.504211
4031875000,-29.954073,101.703,-0.20592745,98.52565,-0.21244061,98.571457,-29.145439,-93.34832
4032187500,-29.974592,101.59232,-0.20543814,98.476585,-0.21139589,98.501427,-29.126551,-93.484802
4032500000,-29.980982,101.59053,-0.2065586,98.399956,-0.2136925,98.43589,-29.08532,-93.58429
4032812500,-29.980877,101.71521,-0.20609091,98.319336,-0.21282329,98.339088,-29.1593,-93.550201
4033125000,-29.976637,101.48172,-0.20549656,98.230858,-0.21204253,98.274803,-29.096766,-93.808525
4033437500,-29.912979,101.67349,-0.20856518,98.147339,-0.20876771,98.182785,-29.107708,-93.962181
4033750000,-29.884539,101.8492,-0.20727064,98.067596,-0.21120273,98.114983,-29.075062,-93.924217
4034062500,-29.87385,101.59038,-0.20949276,98.014763,-0.21141745,98.042282,-29.106888,-93.886147
4034375000,-29.8524,101.44882,-0.20639279,97.925926,-0.20858699,97.966194,-29.059874,-94.324326
4034687500,-29.860891,101.24376,-0.20569733,97.868622,-0.20577149,97.898819,-29.086985,-94.594627
4035000000,-29.856958,100.92913,-0.20576061,97.781647,-0.20832528,97.813576,-29.089514,-94.585167
4035312500,-29.856955,100.80157,-0.20849089,97.700279,-0.20807174,97.74527,-29.049997,-94.830925
4035625000,-29.822517,100.60281,-0.2059799,97.640755,-0.20943065,97.675461,-29.074797,-94.939507
4035937500,-29.788219,100.52528,-0.20553271,97.530212,-0.20862755,97.601158,-29.056383,-94.938927
4036250000,-29.802391,100.47406,-0.20897964,97.49044,-0.20951642,97.5,-29.030357,-94.817307
4036562500,-29.833067,100.96999,-0.20827566,97.415154,-0.2098338,97.448708,-29.025621,-94.878036
4036875000,-29.730486,100.54558,-0.20695445,97.316231,-0.20775941,97.355629,-29.01577,-94.851768
4037187500,-29.789419,100.49299,-0.20632768,97.265396,-0.20816796,97.298325,-29.01531,-94.904808
4037500000,-29.738564,100.25755,-0.20905572,97.186935,-0.20795918,97.197762,-28.964611,-94.715324
4037812500,-29.730545,100.35323,-0.20564348,97.112732,-0.20935895,97.118164,-28.931459,-94.761673
4038125000,-29.706682,100.13881,-0.20681426,97.022697,-0.21120051,97.049416,-28.842796,-94.674927
4038437500,-29.692986,99.960503,-0.20786496,96.944427,-0.20855975,96.972992,-28.837461,-94.652199
4038750000,-29.646181,100.02171,-0.2074874,96.877708,-0.21007583,96.912971,-28.900566,-94.586342
4039062500,-29.701769,99.653778,-0.21065529,96.802376,-0.21037628,96.822762,-28.917368,-94.226318
4039375000,-29.705509,99.539803,-0.20763852,96.712547,-0.20941995,96.734711,-28.915846,-94.311401
4039687500,-29.778963,99.203728,-0.20993307,96.662071,-0.21008754,96.663696,-28.965292,-94.010925
4040000000,-29.77519,98.940536,-0.20780502,96.560593,-0.20982502,96.598328,-28.919397,-94.108215
4040312500,-29.722458,98.727303,-0.20745273,96.512566,-0.21126778,96.513496,-29.014841,-94.342812
4040625000,-29.697931,98.99556,-0.20439596,96.423264,-0.20927377,96.417496,-28.956652,-94.958412
4040937500,-29.706697,99.036621,-0.20899095,96.352417,-0.21033838,96.35836,-28.961302,-94.988205
4041250000,-29.627935,98.928253,-0.20915665,96.255447,-0.20689349,96.278473,-28.95191,-95.442314
4041562500,-29.668608,98.776329,-0.20689826,96.188538,-0.21043958,96.216873,-28.939762,-95.30735
4041875000,-29.630877,98.543594,-0.20778006,96.110619,-0.20709303,96.142487,-28.902597,-95.243126
4042187500,-29.623053,97.983986,-0.20711996,96.033409,-0.20804921,96.077286,-28.895267,-95.194359
4042500000,-29.596636,97.520096,-0.20740426,95.963249,-0.20872673,96.005875,-28.828459,-95.207779
4042812500,-29.556671,97.262421,-0.20760927,95.895073,-0.20861214,95.908325,-28.8323,-95.044426
4043125000,-29.54974,96.918839,-0.20802839,95.807152,-0.20913443,95.836952,-28.82625,-95.23745
4043437500,-29.559778,96.988647,-0.20604874,95.744171,-0.21151815,95.774002,-28.820076,-95.135178
4043750000,-29.563643,97.056801,-0.20559718,95.681908,-0.21351254,95.68438,-28.843817,-95.151665
4044062500,-29.543346,97.086067,-0.20515074,95.579559,-0.21080795,95.596046,-28.831324,-95.467415
4044375000,-29.51841,97.130363,-0.20447031,95.510391,-0.2129876,95.531715,-28.802713,-95.725174
4044687500,-29.563715,97.067841,-0.20481826,95.446503,-0.21290167,95.444038,-28.804277,-95.659874
4045000000,-29.56073,97.07251,-0.20603117,95.362785,-0.21219638,95.381691,-28.772545,-95.800552
4045312500,-29.619833,96.872261,-0.20883544,95.275902,-0.21118006,95.320923,-28.722902,-95.794601
4045625000,-29.653183,96.456718,-0.20616688,95.202507,-0.20941243,95.238823,-28.722401,-95.945808
4045937500,-29.671923,96.361023,-0.21004081,95.126068,-0.21164712,95.179131,-28.718378,-96.052429
4046250000,-29.6362,96.300041,-0.20664658,95.057106,-0.21280079,95.091995,-28.685091,-95.578239
4046562500,-29.573736,96.553734,-0.20834322,94.951187,-0.21012254,95.025726,-28.717999,-95.359375
4046875000,-29.531612,96.86657,-0.21099167,94.88063,-0.20823805,94.931313,-28.7696,-95.32737
4047187500,-29.540913,97.261917,-0.21011822,94.816383,-0.20957179,94.854385,-28.757839,-95.158653
4047500000,-29.480959,97.204742,-0.20846809,94.741234,-0.20856622,94.791695,-28.718716,-95.268211
4047812500,-29.496201,96.912888,-0.20824422,94.686104,-0.21102583,94.704857,-28.712837,-95.7938
4048125000,-29.537163,96.558098,-0.20715758,94.610336,-0.21019614,94.642075,-28.671848,-96.040779
4048437500,-29.567932,96.347443,-0.21017842,94.532326,-0.21290621,94.57943,-28.626682,-96.023819
4048750000,-29.555988,95.806633,-0.20780912,94.439743,-0.21221732,94.496773,-28.592506,-96.527489
4049062500,-29.51943,95.540695,-0.20809898,94.381706,-0.20858689,94.41626,-28.604195,-96.268631
4049375000,-29.467798,95.290123,-0.20555633,94.292816,-0.21082419,94.343552,-28.605446,-95.60675
4049687500,-29.435978,95.215714,-0.20864616,94.206947,-0.2108662,94.249535,-28.605364,-95.528847
4050000000,-29.37513,95.338654,-0.20839536,94.136147,-0.21084858,94.158089,-28.654879,-95.124695
4050312500,-29.351572,95.257027,-0.20674157,94.059052,-0.20933302,94.076767,-28.725605,-95.243744
4050625000,-29.332272,95.495285,-0.20880939,93.969856,-0.20793846,93.994659,-28.769758,-95.774445
4050937500,-29.354544,95.690811,-0.20966321,93.917618,-0.20930789,93.920303,-28.714134,-96.055618
4051250000,-29.31769,95.53421,-0.20797023,93.852882,-0.21015553,93.849426,-28.713488,-96.527145
4051562500,-29.317348,95.909698,-0.20253076,93.771278,-0.20991148,93.780281,-28.665417,-96.878998
4051875000,-29.339928,95.652946,-0.20442596,93.689095,-0.20972979,93.701065,-28.635708,-97.216171
4052187500,-29.296518,95.781822,-0.20669901,93.622238,-0.20930742,93.629967,-28.63427,-96.997208
4052500000,-29.290638,95.060173,-0.20947537,93.521591,-0.2094956,93.544525,-28.621647,-97.266487
4052812500,-29.276505,94.85759,-0.20895895,93.43399,-0.20854464,93.472656,-28.610744,-97.211884
4053125000,-29.290546,94.666405,-0.20837331,93.356819,-0.20731549,93.40889,-28.53562,-96.894516
4053437500,-29.251841,94.238297,-0.2077878,93.290466,-0.20781982,93.334526,-28.54384,-97.149338
4053750000,-29.278904,94.25972,-0.20821433,93.220184,-0.20865764,93.23629,-28.528631,-97.156334
4054062500,-29.279675,94.208527,-0.20816465,93.136627,-0.21174768,93.183449,-28.440113,-96.807266
4054375000,-29.333933,94.068695,-0.2052913,93.079834,-0.2113789,93.115494,-28.411509,-96.933571
4054687500,-29.313612,93.942993,-0.20771106,93.003403,-0.20969197,93.045547,-28.421259,-96.851181
4055000000,-29.30303,93.383362,-0.20488979,92.943283,-0.21022184,92.965233,-28.363781,-97.111984
4055312500,-29.277325,93.290497,-0.20995402,92.854004,-0.21063416,92.88443,-28.457636,-97.597061
4055625000,-29.280062,93.384384,-0.20631771,92.77639,-0.20753543,92.789566,-28.442472,-97.512367
4055937500,-29.250063,93.149216,-0.20997275,92.69632,-0.20885223,92.727615,-28.517698,-97.801743
4056250000,-29.304365,92.937149,-0.20881642,92.621574,-0.20879042,92.638351,-28.541212,-97.678436
4056562500,-29.288292,92.94928,-0.20669009,92.555038,-0.2084703,92.548203,-28.505077,-97.875053
4056875000,-29.272821,92.878334,-0.20814443,92.466965,-0.21071701,92.484367,-28.459654,-97.851662
4057187500,-29.309946,93.038116,-0.20808806,92.402847,-0.21201031,92.404808,-28.457167,-97.825882
4057500000,-29.309517,92.849937,-0.20841877,92.32058,-0.21325226,92.329918,-28.459393,-98.045357
4057812500,-29.301954,92.640862,-0.20861299,92.24041,-0.21168554,92.245193,-28.433117,-97.910301
4058125000,-29.288366,92.460976,-0.20661314,92.176125,-0.2132754,92.182831,-28.45089,-98.045853
4058437500,-29.269371,92.39621,-0.20677662,92.077545,-0.21251917,92.119835,-28.460354,-97.86927
4058750000,-29.2731,92.325264,-0.20750047,92.013817,-0.21133289,92.056618,-28.466265,-97.898506
4059062500,-29.25935,92.185066,-0.20924111,91.9384,-0.21141677,91.963631,-28.470703,-97.995689
4059375000,-29.252655,92.386978,-0.20657994,91.858131,-0.21123309,91.904755,-28.485331,-97.707207
4059687500,-29.227333,92.210114,-0.20521364,91.783836,-0.20871469,91.833496,-28.413542,-97.339958
4060000000,-29.197899,92.160446,-0.20854363,91.690178,-0.2086426,91.752647,-28.409929,-97.199059
4060312500,-29.133497,92.231651,-0.20871994,91.631973,-0.20825791,91.663956,-28.415602,-97.024155
4060625000,-29.095675,91.988876,-0.21019381,91.553436,-0.21044616,91.594879,-28.382177,-96.933029
4060937500,-29.093107,92.084389,-0.20775694,91.462708,-0.2107017,91.514458,-28.411467,-97.303375
4061250000,-29.127655,92.210091,-0.20836313,91.394554,-0.20944759,91.429153,-28.40419,-97.398705
4061562500,-29.105722,92.222427,-0.20784579,91.297356,-0.20976172,91.367195,-28.430956,-97.713051
4061875000,-29.114563,91.939789,-0.20806687,91.234695,-0.20882723,91.296227,-28.429747,-97.548302
4062187500,-29.161444,92.036583,-0.20959853,91.155777,-0.21022609,91.209023,-28.458317,-97.893661
4062500000,-29.149931,92.040298,-0.20781316,91.084381,-0.20968875,91.126244,-28.4242,-98.081482
