!CSV A.01.01
!Agilent Technologies,N5222A,MY51421451,A.09.90.02
!Agilent N5222A: A.09.90.02
!Date: Friday, July 31, 2015 14:52:29
!Source: Standard

BEGIN CH3_DATA
Freq(Hz),S33(DB),S33(DEG),S34(DB),S34(DEG),S43(DB),S43(DEG),S44(DB),S44(DEG)
1000000000,-36.72913,37.68108,-0.097631738,116.29213,-0.093685299,116.29571,-35.551838,-8.1008501
1001484375,-36.653179,38.524227,-0.098095708,115.92081,-0.098461494,115.91248,-35.723038,-5.4736629
1002968750,-36.704624,37.655678,-0.09880811,115.57024,-0.095592879,115.55718,-35.465042,-7.9431901
1004453125,-36.575073,37.535603,-0.097230218,115.2093,-0.094612837,115.20254,-35.728764,-9.7572098
1005937500,-36.802761,35.525845,-0.10099702,114.84438,-0.097663254,114.84569,-35.629631,-8.6220274
1007421875,-36.667248,36.049129,-0.097248666,114.4799,-0.096146695,114.48463,-35.665245,-8.3884888
1008906250,-36.740456,37.073948,-0.095223397,114.09446,-0.098086692,114.11387,-35.60532,-10.257053
1010390625,-36.922428,35.989109,-0.096856646,113.7535,-0.094530411,113.78084,-36.025536,-10.412759
1011875000,-36.78323,36.47543,-0.099196635,113.40396,-0.094217025,113.37441,-35.745434,-9.720911
1013359375,-36.645741,33.357517,-0.093184218,113.01549,-0.097257532,113.03542,-35.88723,-10.186248
1014843750,-36.607178,33.529797,-0.097721592,112.65369,-0.10050713,112.69053,-35.790985,-9.1000767
1016328125,-36.446266,33.034573,-0.099199466,112.30523,-0.096253201,112.3199,-35.842968,-9.5752029
1017812500,-36.509758,34.433277,-0.099458225,111.93652,-0.096349612,111.9235,-35.62085,-10.796166
1019296875,-36.343403,32.625511,-0.097031459,111.57623,-0.098213747,111.60023,-35.840271,-10.866083
1020781250,-36.867615,33.069466,-0.096819639,111.2251,-0.098379724,111.22935,-35.973625,-12.844528
1022265625,-36.335464,32.858746,-0.098561049,110.8477,-0.098825343,110.90502,-35.754879,-10.528834
1023750000,-37.000526,31.434782,-0.10302673,110.47882,-0.094502456,110.50868,-35.730782,-13.191729
1025234375,-36.4991,33.181248,-0.098673329,110.12343,-0.098681062,110.15536,-35.848991,-11.850731
1026718750,-36.601471,32.439114,-0.10025023,109.75965,-0.10050208,109.7952,-35.916019,-12.032978
1028203125,-36.885254,31.476204,-0.09762869,109.41354,-0.094914325,109.41027,-35.395027,-13.675445
1029687500,-36.744652,29.971922,-0.10123225,109.05228,-0.096268862,109.04835,-36.044407,-11.030744
1031171875,-36.665394,29.31662,-0.10007153,108.69803,-0.094775498,108.71126,-35.867168,-13.19084
1032656250,-36.606808,29.458961,-0.10007627,108.31381,-0.10026727,108.31419,-35.715904,-12.005402
1034140625,-36.904137,28.458668,-0.10059226,107.97583,-0.097211152,107.98143,-35.739765,-11.878438
1035625000,-36.705719,28.133091,-0.098790415,107.6125,-0.092544436,107.59959,-35.773266,-13.27979
1037109375,-36.714573,27.853962,-0.098482437,107.23895,-0.096578568,107.27425,-36.083538,-13.228645
1038593750,-36.657639,27.976521,-0.098557882,106.88569,-0.099305347,106.89866,-35.896015,-14.681232
1040078125,-36.974796,27.402472,-0.099112384,106.52791,-0.09777227,106.53851,-35.633007,-14.894234
1041562500,-36.738243,26.661911,-0.09664005,106.16679,-0.097737081,106.17541,-35.872044,-14.442973
1043046875,-36.827908,26.636623,-0.099960662,105.81098,-0.096950583,105.79657,-35.979485,-16.678436
1044531250,-36.677944,26.759928,-0.097845919,105.43623,-0.10015785,105.45274,-35.988644,-12.870899
1046015625,-36.697292,24.655222,-0.10155702,105.06992,-0.098176539,105.09143,-35.944565,-15.557786
1047500000,-36.541946,24.344463,-0.098929986,104.70921,-0.096406676,104.72395,-35.679501,-15.658526
1048984375,-36.620445,23.944109,-0.097544491,104.36649,-0.09628363,104.3332,-35.825016,-13.892756
1050468750,-36.87936,25.281374,-0.10162912,103.99738,-0.094475865,104.0106,-35.825272,-15.05914
1051953125,-36.615078,25.09091,-0.099248797,103.61631,-0.097258292,103.64816,-35.960636,-16.876156
1053437500,-37.101589,23.49486,-0.10032512,103.27264,-0.094090417,103.25842,-35.964016,-16.601078
1054921875,-36.597752,22.419294,-0.10223917,102.92081,-0.09931875,102.93581,-35.996952,-15.758213
1056406250,-36.882767,22.347851,-0.10421193,102.57237,-0.094507046,102.544,-35.766212,-16.461758
1057890625,-36.838181,19.686905,-0.099528126,102.19014,-0.098862536,102.20983,-35.883095,-16.269644
1059375000,-36.753811,19.803991,-0.10246126,101.83961,-0.096274905,101.8308,-36.18581,-18.076916
1060859375,-36.585381,21.283272,-0.099182278,101.474,-0.098989084,101.46729,-36.1945,-17.195446
1062343750,-36.842175,22.335119,-0.099167734,101.11945,-0.098778665,101.10442,-35.939445,-16.799046
1063828125,-36.912136,19.00959,-0.098146982,100.71904,-0.09697365,100.76675,-36.178627,-17.9573
1065312500,-37.056244,20.122744,-0.10060213,100.36577,-0.098117553,100.39908,-36.100113,-16.576473
1066796875,-36.868343,18.533892,-0.099837929,100.02844,-0.10021228,100.01635,-35.761677,-18.165382
1068281250,-37.006538,18.451233,-0.099590026,99.662041,-0.098062076,99.666847,-36.180565,-16.448389
1069765625,-36.932552,18.014395,-0.10354371,99.309502,-0.099991769,99.309814,-36.046364,-19.384998
1071250000,-36.541801,17.285255,-0.10397375,98.919647,-0.10005633,98.943413,-35.961929,-19.492844
1072734375,-36.796356,17.363384,-0.10093631,98.567917,-0.097178437,98.574127,-35.992653,-17.269629
1074218750,-36.729668,15.282232,-0.10140175,98.215057,-0.10142726,98.233452,-35.935013,-19.039656
1075703125,-36.863895,16.008091,-0.097888082,97.856926,-0.10127633,97.856133,-36.347054,-19.13769
1077187500,-36.909889,14.643919,-0.10054512,97.501869,-0.101288,97.504288,-36.267555,-20.480534
1078671875,-37.132526,13.336009,-0.10127144,97.131516,-0.096292853,97.134186,-36.424328,-21.29178
1080156250,-36.889854,15.449854,-0.10145015,96.785812,-0.098763913,96.762039,-36.160042,-21.581369
1081640625,-37.156418,12.145269,-0.1073157,96.392914,-0.098215267,96.414688,-36.093613,-18.85533
1083125000,-36.876446,11.210007,-0.099800952,96.042633,-0.09880168,96.073944,-36.228092,-19.894619
1084609375,-36.906773,13.181611,-0.10242605,95.67852,-0.1016752,95.683701,-36.482609,-22.328388
1086093750,-36.720364,10.987444,-0.10006215,95.327682,-0.099484034,95.325485,-36.330879,-22.131596
1087578125,-36.713459,11.400157,-0.10293106,94.965103,-0.099642411,94.958069,-36.154903,-21.029423
1089062500,-36.789768,11.675567,-0.10151193,94.614052,-0.099538542,94.622826,-36.328171,-20.786823
1090546875,-36.92831,12.974198,-0.1014497,94.250862,-0.098159075,94.244476,-36.339478,-20.000868
1092031250,-37.131153,9.6341228,-0.10309257,93.893227,-0.098532103,93.883095,-36.336563,-21.585697
1093515625,-37.234322,8.2806988,-0.105156,93.528221,-0.09925925,93.557579,-36.416386,-22.019543
1095000000,-36.886387,9.9708748,-0.10219773,93.162651,-0.10356677,93.153046,-36.347023,-21.558678
1096484375,-37.236885,9.5569963,-0.10336221,92.785774,-0.10080691,92.83979,-36.896763,-22.941965
1097968750,-37.143307,8.4834747,-0.10424522,92.43148,-0.09803354,92.436974,-36.628105,-21.940506
1099453125,-36.943573,6.505549,-0.10123494,92.086166,-0.10261251,92.067574,-36.717819,-22.153595
1100937500,-37.123432,6.4840488,-0.10362539,91.735405,-0.1035321,91.726479,-36.387913,-22.441477
1102421875,-37.150719,7.6148815,-0.10226741,91.354034,-0.10167804,91.346085,-36.769688,-21.471142
1103906250,-37.142254,7.5590582,-0.10392536,90.983307,-0.10095051,90.987495,-36.379776,-23.324451
1105390625,-37.109638,6.4845204,-0.10053878,90.611023,-0.10087445,90.628021,-36.869629,-21.307062
1106875000,-37.502167,4.6554313,-0.10490928,90.318115,-0.10285043,90.295822,-36.772091,-25.849421
1108359375,-37.074627,6.1196012,-0.1003583,89.918785,-0.10107298,89.892601,-36.683762,-23.610716
1109843750,-37.282532,4.5122933,-0.10893697,89.55265,-0.10444552,89.545509,-36.506584,-23.397966
1111328125,-37.31884,2.9838586,-0.10279866,89.202812,-0.10139314,89.176704,-36.675663,-22.6105
1112812500,-37.354881,4.0471578,-0.10541118,88.81971,-0.1000291,88.828064,-36.663109,-23.918556
1114296875,-36.933117,3.9136775,-0.1018924,88.46637,-0.096021794,88.479599,-36.712784,-24.701475
1115781250,-37.49942,2.1574979,-0.10208393,88.112854,-0.10550293,88.129829,-36.847652,-25.600985
1117265625,-37.019943,1.7706369,-0.10510567,87.723595,-0.1017196,87.748451,-36.699028,-23.287653
1118750000,-37.32383,0.99398828,-0.10380144,87.36895,-0.10437914,87.394104,-36.912807,-24.526787
1120234375,-37.470776,2.3868272,-0.10717784,87.020134,-0.10272403,87.042358,-36.814308,-24.627775
1121718750,-37.349495,-0.10027635,-0.10413018,86.652061,-0.10192218,86.655533,-36.909878,-24.512976
1123203125,-36.993889,0.99896675,-0.10196982,86.290482,-0.10379899,86.286438,-36.618248,-26.509142
1124687500,-37.688118,-0.88776094,-0.10658574,85.94162,-0.10167457,85.946381,-36.844303,-26.566729
1126171875,-37.353191,-0.20019443,-0.10824957,85.579002,-0.10240945,85.574051,-36.632954,-26.000481
1127656250,-36.931038,-1.1076735,-0.10214174,85.198448,-0.10413942,85.227386,-37.095543,-25.444088
1129140625,-37.286537,-0.099772133,-0.1054441,84.840721,-0.10266052,84.847786,-36.760509,-26.980776
1130625000,-37.307613,-1.4418792,-0.1034829,84.471962,-0.10464103,84.516205,-36.915001,-27.519573
1132109375,-37.380531,-0.83159232,-0.10120299,84.123459,-0.10323129,84.139603,-37.027298,-28.435722
1133593750,-37.383308,-1.6323823,-0.10281724,83.774727,-0.10324652,83.78476,-37.071129,-26.230019
1135078125,-37.331367,-2.9598122,-0.10329974,83.41761,-0.099576384,83.399353,-37.079777,-27.890652
1136562500,-37.336349,-2.3071756,-0.10322993,83.045143,-0.10266878,83.03521,-36.940418,-27.770281
1138046875,-37.292725,-3.3629258,-0.10800712,82.675209,-0.10084564,82.683563,-36.869003,-27.092346
1139531250,-37.515022,-3.6302865,-0.10911144,82.330032,-0.10162386,82.325409,-36.923794,-28.397755
1141015625,-37.500374,-3.1159642,-0.11056377,81.960396,-0.10181373,81.978065,-36.773617,-29.129736
1142500000,-37.204861,-5.1466074,-0.10402779,81.582748,-0.10470802,81.622444,-37.101215,-30.933674
1143984375,-37.653225,-5.8362637,-0.10452648,81.250969,-0.10027438,81.242043,-37.34737,-29.370316
1145468750,-37.646103,-6.4403481,-0.10474027,80.871056,-0.10682343,80.891182,-37.241173,-28.758253
1146953125,-37.4641,-4.6057296,-0.10543959,80.510162,-0.099612795,80.512245,-36.618465,-32.089596
1148437500,-37.75956,-6.8600941,-0.10675354,80.165169,-0.10439552,80.174507,-36.956345,-31.066702
1149921875,-37.568344,-9.6245842,-0.1075158,79.795738,-0.1036874,79.778847,-37.148472,-32.273884
1151406250,-37.594315,-6.3756499,-0.1036891,79.424561,-0.10432865,79.461967,-37.111115,-30.525721
1152890625,-37.641315,-10.233686,-0.10246667,79.080963,-0.10259856,79.101013,-37.258579,-30.859331
1154375000,-37.785053,-5.4407783,-0.1058955,78.695847,-0.10110965,78.718201,-37.253975,-33.144386
1155859375,-37.380074,-9.4441643,-0.10277043,78.368477,-0.10252428,78.36409,-37.479885,-33.450935
1157343750,-37.774624,-9.8500776,-0.10582753,77.981567,-0.10298524,78.005447,-37.270782,-34.567356
1158828125,-37.554085,-8.2512569,-0.10744689,77.633171,-0.10217227,77.635933,-37.232128,-34.471069
1160312500,-37.900799,-9.9432678,-0.10414359,77.273956,-0.10486012,77.28508,-37.114998,-30.895746
1161796875,-37.246876,-12.263945,-0.10311621,76.893288,-0.10588381,76.917633,-37.101906,-33.508835
1163281250,-38.106499,-10.145526,-0.10513648,76.541351,-0.099575117,76.556953,-37.133389,-32.484272
1164765625,-37.854149,-9.7822065,-0.10438263,76.195496,-0.1053513,76.191994,-37.479996,-34.515396
1166250000,-37.690094,-12.159453,-0.10605781,75.820152,-0.10731757,75.827179,-37.405823,-35.57452
1167734375,-38.116695,-11.94567,-0.10800224,75.469582,-0.10277341,75.469147,-37.26741,-33.624481
1169218750,-37.959377,-13.066821,-0.10735185,75.103699,-0.10152129,75.129784,-37.057125,-38.834915
1170703125,-37.830845,-11.205819,-0.10479815,74.748795,-0.10508285,74.751091,-37.769547,-35.176308
1172187500,-38.157131,-10.393556,-0.10820394,74.359764,-0.10156522,74.388046,-37.779934,-34.378086
1173671875,-37.882805,-15.516298,-0.10478044,74.035019,-0.10380323,74.02037,-37.593754,-35.003071
1175156250,-37.812546,-14.149543,-0.10428295,73.648117,-0.10994798,73.669769,-37.506618,-35.071232
1176640625,-38.036423,-13.412223,-0.10516199,73.281807,-0.10800296,73.30336,-37.306099,-37.020641
1178125000,-38.106216,-14.790551,-0.10888363,72.891594,-0.10564904,72.946709,-37.312958,-36.668739
1179609375,-38.121159,-13.283647,-0.10665718,72.583931,-0.10725018,72.56543,-37.713646,-36.170895
1181093750,-38.102226,-13.678059,-0.1069297,72.213463,-0.10225669,72.212029,-37.831566,-38.00869
1182578125,-37.941265,-14.239113,-0.10668263,71.833893,-0.10305796,71.878708,-37.403133,-37.377731
1184062500,-38.39558,-17.637087,-0.10673902,71.468987,-0.10660026,71.507553,-37.818672,-38.428867
1185546875,-38.200455,-16.529835,-0.10754603,71.125175,-0.10243523,71.144341,-37.725006,-38.237099
1187031250,-38.462334,-15.970234,-0.10300273,70.75045,-0.10451496,70.76207,-37.752098,-37.888653
1188515625,-38.242645,-18.15448,-0.10675834,70.397537,-0.10590777,70.418839,-37.852528,-37.740185
1190000000,-38.363461,-14.346311,-0.10919018,70.046165,-0.10252825,70.015244,-37.571556,-40.540047
1191484375,-38.418831,-16.803968,-0.10654631,69.682182,-0.10311983,69.681244,-37.765461,-36.982872
1192968750,-38.252369,-17.880136,-0.10982242,69.314835,-0.10536819,69.342293,-37.695633,-36.542229
1194453125,-37.913395,-17.106104,-0.11025678,68.96788,-0.10790182,68.96508,-37.945663,-40.490421
1195937500,-38.088318,-18.922348,-0.1073462,68.602005,-0.10678519,68.604706,-38.017616,-39.264763
1197421875,-38.249798,-18.916906,-0.10707256,68.233253,-0.10336669,68.233543,-38.20694,-40.167618
1198906250,-38.241825,-20.309624,-0.10880127,67.867592,-0.10758951,67.862396,-37.991047,-39.960526
1200390625,-38.54644,-20.088533,-0.10871939,67.492722,-0.10687954,67.541679,-38.208931,-37.944008
1201875000,-38.20591,-19.342056,-0.10484666,67.156013,-0.1091848,67.145973,-37.952839,-40.323273
1203359375,-38.564316,-21.037548,-0.10934218,66.801292,-0.10365693,66.791893,-37.695503,-41.325417
1204843750,-38.582504,-19.923473,-0.10644279,66.44458,-0.10569768,66.43605,-37.960407,-41.875046
1206328125,-38.369949,-21.024437,-0.10768777,66.066231,-0.10454741,66.078041,-38.0895,-40.697918
1207812500,-38.384632,-20.030554,-0.10590827,65.708015,-0.10760472,65.711189,-38.105846,-41.038261
1209296875,-38.479866,-22.372149,-0.10939327,65.335258,-0.10485237,65.363647,-37.79369,-40.486759
1210781250,-38.678116,-20.490431,-0.10562969,64.995415,-0.10342509,64.978859,-38.855358,-41.043678
1212265625,-38.128174,-21.314896,-0.10740633,64.625908,-0.10746567,64.627678,-37.96944,-41.26627
1213750000,-38.602234,-21.559277,-0.1076867,64.250664,-0.10550103,64.27552,-38.013103,-41.273285
1215234375,-38.631149,-22.902075,-0.10735749,63.906681,-0.10667741,63.889515,-38.495876,-41.680782
1216718750,-38.264793,-25.811319,-0.10569539,63.542324,-0.10829945,63.551884,-38.676041,-41.414082
1218203125,-38.437496,-23.840509,-0.10502315,63.166935,-0.1060486,63.175987,-38.5695,-42.836185
1219687500,-38.956387,-25.176546,-0.10783698,62.820099,-0.10689576,62.816929,-38.629246,-40.674538
1221171875,-38.274723,-26.367067,-0.11081988,62.454063,-0.10576277,62.470387,-38.266758,-43.182728
1222656250,-38.703156,-25.692055,-0.1063519,62.085663,-0.1047652,62.092937,-38.597336,-43.384888
1224140625,-38.987766,-27.175505,-0.11050037,61.73299,-0.10647321,61.733974,-38.406509,-41.00742
1225625000,-38.470253,-28.552784,-0.10859085,61.373268,-0.10853637,61.357044,-38.593857,-41.529072
1227109375,-38.61974,-28.556761,-0.10971525,61.003029,-0.10685334,61.02298,-38.529495,-42.40889
1228593750,-38.788212,-27.608053,-0.10815968,60.654984,-0.10929378,60.633072,-38.945412,-41.493843
1230078125,-39.087223,-30.98148,-0.10857593,60.276966,-0.10594786,60.313057,-38.350231,-42.195786
1231562500,-38.842369,-29.124512,-0.10869724,59.920944,-0.10567778,59.935028,-38.918488,-43.499577
1233046875,-38.72448,-30.082014,-0.1105101,59.574455,-0.10715875,59.586735,-38.53854,-42.763256
1234531250,-38.895565,-29.042662,-0.10511221,59.222126,-0.11002513,59.207714,-38.92593,-43.596256
1236015625,-38.67178,-31.874805,-0.10873467,58.849361,-0.10584296,58.854763,-39.070145,-41.449009
1237500000,-39.407234,-32.804031,-0.10819917,58.470539,-0.10656898,58.497929,-38.780178,-37.749512
1238984375,-38.935574,-34.084446,-0.10877576,58.128597,-0.10534136,58.134335,-38.574265,-42.48027
1240468750,-38.609013,-33.647392,-0.11053228,57.781685,-0.10811577,57.746861,-38.957924,-43.040798
1241953125,-38.945602,-32.662613,-0.10979103,57.404755,-0.10769983,57.402695,-38.860931,-40.82267
1243437500,-39.102909,-33.390247,-0.1089361,57.055378,-0.10686336,57.040768,-39.374699,-43.841778
1244921875,-39.337944,-38.434967,-0.11057314,56.673466,-0.11154313,56.690838,-38.996933,-42.234077
1246406250,-39.057854,-33.779026,-0.10815588,56.311756,-0.1086421,56.300037,-38.893265,-42.47496
1247890625,-39.227848,-33.099644,-0.11305968,55.968094,-0.10924766,55.946732,-39.153461,-43.384186
1249375000,-38.95792,-35.839199,-0.10971843,55.580036,-0.10520753,55.611778,-39.244255,-41.071518
1250859375,-39.35125,-38.515743,-0.1101188,55.240841,-0.10802853,55.24873,-39.204727,-41.714821
1252343750,-39.335991,-38.30933,-0.11117372,54.877594,-0.10702741,54.874001,-39.51268,-42.918144
1253828125,-39.22298,-38.476131,-0.10964946,54.514561,-0.10944971,54.533115,-39.210003,-43.916622
1255312500,-39.471622,-36.919712,-0.1114157,54.147133,-0.11010581,54.147655,-39.759815,-43.456085
1256796875,-39.072826,-39.77634,-0.11199059,53.792164,-0.10904554,53.797775,-39.194633,-45.086098
1258281250,-39.395023,-40.733875,-0.10916696,53.430477,-0.10806691,53.437504,-39.188923,-43.49659
1259765625,-39.516464,-40.447659,-0.11297341,53.053623,-0.10631908,53.058105,-39.175266,-42.693768
1261250000,-38.995724,-39.801277,-0.10840938,52.710854,-0.10944538,52.708916,-38.905983,-46.271942
1262734375,-39.770012,-40.677853,-0.11150855,52.334381,-0.10513103,52.358227,-39.265598,-45.152031
1264218750,-39.476925,-40.478352,-0.10953148,51.97617,-0.10984376,51.996212,-39.324337,-42.765381
1265703125,-39.410465,-40.251106,-0.11292961,51.619358,-0.1077885,51.623699,-39.543911,-42.687958
1267187500,-39.742424,-42.020199,-0.10865766,51.262211,-0.10884734,51.262508,-39.569534,-41.012535
1268671875,-39.2183,-44.126694,-0.10927279,50.888798,-0.11054233,50.900795,-39.407364,-42.667183
1270156250,-39.523979,-43.046452,-0.1115338,50.513645,-0.11171439,50.559868,-39.410805,-45.115887
1271640625,-39.281315,-42.816841,-0.11230549,50.182056,-0.10577162,50.172421,-39.836998,-43.216808
1273125000,-40.004082,-43.84951,-0.11014692,49.823135,-0.1100939,49.849144,-39.175728,-43.4925
1274609375,-39.727417,-45.172092,-0.11238674,49.447536,-0.10461486,49.449432,-39.524609,-44.385971
1276093750,-39.590355,-46.639561,-0.11347044,49.077095,-0.10676787,49.096458,-39.962013,-44.762329
1277578125,-39.858814,-49.646557,-0.11087284,48.731236,-0.11314542,48.754272,-39.906586,-44.517136
1279062500,-39.835079,-47.219704,-0.11482794,48.378632,-0.10735899,48.386631,-39.697086,-44.079739
1280546875,-39.797611,-48.504997,-0.1132995,48.014259,-0.10857936,48.023148,-40.134506,-42.619644
1282031250,-40.177235,-47.988029,-0.11308182,47.676369,-0.11004464,47.650135,-40.013996,-42.277874
1283515625,-39.771702,-47.71447,-0.11123853,47.289204,-0.10686519,47.297016,-39.908401,-41.332825
1285000000,-40.073345,-49.790066,-0.1110459,46.932404,-0.1110708,46.929131,-39.823997,-41.415928
1286484375,-40.218666,-50.241478,-0.11153226,46.573277,-0.10998186,46.558411,-40.435455,-43.908367
1287968750,-40.001488,-53.459122,-0.11251334,46.193192,-0.1095083,46.229702,-40.023651,-41.365387
1289453125,-40.188351,-51.937008,-0.11349342,45.847015,-0.10880771,45.84444,-39.988571,-43.44038
1290937500,-40.468079,-51.521786,-0.11137696,45.474701,-0.10995207,45.493191,-39.933037,-42.715912
1292421875,-40.268509,-51.808865,-0.11052302,45.118366,-0.10978905,45.120293,-40.231266,-42.962292
1293906250,-40.210033,-53.802643,-0.11332453,44.759518,-0.10790613,44.766254,-40.41666,-42.0396
