!CSV A.01.01
!Agilent Technologies,N5222A,MY51421451,A.09.90.02
!Agilent N5222A: A.09.90.02
!Date: Friday, July 31, 2015 15:13:19
!Source: Standard

BEGIN CH3_DATA
Freq(Hz),S33(DB),S33(DEG),S34(DB),S34(DEG),S43(DB),S43(DEG),S44(DB),S44(DEG)
4000000000,-45.016895,75.587669,-0.45007834,162.2981,-0.45728886,162.27258,-45.619789,90.638649
4000312500,-46.659595,78.049461,-0.48128355,160.33078,-0.43926978,162.09087,-46.203876,89.470032
4000625000,-46.781597,82.119926,-0.47283813,160.72267,-0.44352278,161.90961,-46.526058,87.590805
4000937500,-46.394321,83.376175,-0.46113843,161.0755,-0.45072627,161.72513,-46.765293,87.549355
4001250000,-46.266075,86.745705,-0.45693728,161.34213,-0.45482367,161.52322,-47.678658,88.69165
4001562500,-46.206131,86.438652,-0.45496857,161.37326,-0.45635837,161.33727,-47.966515,86.421654
4001875000,-46.019577,87.983078,-0.45639122,161.25851,-0.45532274,161.14395,-47.922951,86.158722
4002187500,-45.842266,87.329399,-0.45426446,161.04495,-0.45574206,160.96375,-47.902603,83.11232
4002500000,-45.746246,88.134399,-0.45374906,160.80089,-0.45827952,160.79947,-47.286484,81.674362
4002812500,-45.765743,87.832413,-0.45529187,160.56216,-0.45758617,160.59747,-47.503731,78.301598
4003125000,-45.981045,87.621544,-0.45356652,160.36096,-0.45513219,160.41217,-47.845711,79.681831
4003437500,-46.052258,84.313881,-0.45569873,160.19362,-0.45642179,160.23413,-47.55304,78.863991
4003750000,-46.117977,84.065987,-0.45478573,160.00407,-0.45621538,160.05681,-47.682751,76.149254
4004062500,-46.093994,85.024399,-0.45692855,159.83139,-0.45533174,159.86833,-47.735733,76.81292
4004375000,-46.153214,85.636841,-0.45337206,159.64474,-0.45422146,159.68645,-47.746628,74.452614
4004687500,-46.167068,88.800446,-0.46026072,159.46642,-0.45022839,159.50325,-47.965309,72.535683
4005000000,-46.045479,91.321404,-0.45973563,159.27211,-0.45288625,159.31346,-48.382416,67.55069
4005312500,-46.206844,94.116371,-0.45824328,159.11853,-0.45578578,159.12065,-48.577457,63.461685
4005625000,-46.217995,96.719276,-0.45675895,158.92743,-0.45316419,158.93317,-48.431602,63.66774
4005937500,-46.256195,95.670425,-0.45400617,158.73648,-0.45340902,158.75989,-48.828686,60.267391
4006250000,-46.349667,96.36467,-0.45627072,158.5562,-0.45394197,158.56422,-48.669598,56.565601
4006562500,-46.054722,97.067581,-0.45577595,158.35364,-0.45560342,158.39519,-48.809586,57.249153
4006875000,-46.140331,94.26429,-0.45414138,158.19223,-0.45942283,158.21802,-49.05172,56.694401
4007187500,-46.357056,94.833458,-0.45117864,157.99356,-0.4567616,158.04152,-49.718258,56.455772
4007500000,-46.143139,95.69841,-0.45207423,157.79323,-0.45796436,157.85568,-49.824661,54.351612
4007812500,-46.794472,96.061829,-0.45257476,157.6149,-0.45638126,157.66765,-49.744865,55.357224
4008125000,-47.091553,101.37551,-0.45177609,157.43948,-0.45524958,157.46172,-49.716351,52.630535
4008437500,-47.582073,104.60399,-0.45463926,157.25551,-0.45327407,157.29256,-49.541214,52.893578
4008750000,-47.296391,107.20259,-0.45121008,157.06915,-0.45767358,157.10622,-50.217491,50.34716
4009062500,-47.178455,110.57694,-0.45226282,156.88564,-0.4566347,156.91193,-50.335949,52.297455
4009375000,-46.880714,112.33928,-0.45291579,156.68494,-0.45652243,156.71803,-51.345692,46.698063
4009687500,-46.718388,113.11782,-0.45396721,156.51086,-0.45752192,156.54463,-51.402576,47.741081
4010000000,-46.659248,113.2165,-0.45395166,156.31845,-0.45726004,156.34097,-51.842747,44.352398
4010312500,-46.454655,114.08532,-0.45650128,156.12819,-0.45756164,156.18121,-51.721237,43.319489
4010625000,-46.791733,114.64653,-0.45436594,155.95006,-0.45581785,156.00638,-51.514797,35.663429
4010937500,-47.123379,116.25397,-0.45605582,155.77063,-0.45745885,155.81247,-51.596657,32.182957
4011250000,-47.462524,118.09136,-0.45728886,155.5936,-0.45564967,155.62926,-51.753471,28.144995
4011562500,-47.468494,118.94231,-0.45357889,155.4088,-0.45734996,155.44037,-50.868332,19.801741
4011875000,-47.518024,120.94581,-0.45587969,155.23769,-0.45472628,155.24911,-51.690849,17.724102
4012187500,-47.794891,123.21509,-0.45519137,155.034,-0.45833722,155.05879,-51.829651,15.525907
4012500000,-47.865993,124.59033,-0.45502245,154.84569,-0.45517239,154.90028,-51.945892,17.239611
4012812500,-48.239933,124.37526,-0.45460588,154.66766,-0.45725119,154.70885,-52.145081,9.2383747
4013125000,-48.08149,127.87687,-0.45250016,154.48206,-0.45633459,154.52029,-52.812355,7.4035034
4013437500,-48.109997,128.19275,-0.45756456,154.28165,-0.45834386,154.33508,-52.499863,8.4845533
4013750000,-47.985764,130.0199,-0.45257574,154.10852,-0.45863831,154.16342,-52.035851,6.8261724
4014062500,-47.781281,129.74782,-0.45598957,153.94601,-0.45720091,153.95967,-51.633682,4.162106
4014375000,-47.726814,131.23441,-0.45091665,153.77147,-0.45560414,153.76627,-51.352066,-1.9720145
4014687500,-47.491177,132.03302,-0.45481747,153.59024,-0.45454994,153.58727,-51.176895,-2.8844135
4015000000,-46.910255,132.3811,-0.45160508,153.40306,-0.4541474,153.4166,-50.302128,-4.4419312
4015312500,-47.310837,133.02385,-0.45566028,153.22433,-0.45731273,153.22244,-49.722347,-3.5884409
4015625000,-47.092083,134.80974,-0.45619094,153.03133,-0.45384672,153.05792,-49.412586,-5.3572822
4015937500,-46.877995,134.24991,-0.45485863,152.84706,-0.4570795,152.87035,-49.036449,-4.4847651
4016250000,-46.858723,135.72264,-0.45470747,152.64523,-0.45581552,152.68857,-48.798679,-8.9274616
4016562500,-46.840763,137.4299,-0.45542923,152.46124,-0.45733529,152.50098,-49.212559,-9.7593889
4016875000,-46.488262,136.18672,-0.45327914,152.28978,-0.45870355,152.31432,-49.849545,-10.577061
4017187500,-46.196526,137.28479,-0.45617956,152.09512,-0.45831811,152.13545,-49.737366,-14.28433
4017500000,-45.948673,138.64519,-0.45338741,151.90659,-0.4566806,151.95049,-50.16132,-16.967005
4017812500,-45.87365,140.92067,-0.45367166,151.73433,-0.45782831,151.76076,-50.115227,-17.765284
4018125000,-45.551876,139.39735,-0.45468256,151.54166,-0.45570743,151.57224,-49.623539,-18.897503
4018437500,-45.860558,139.69519,-0.45465025,151.35553,-0.45873222,151.37489,-49.251633,-22.788
4018750000,-45.621826,138.48753,-0.4554204,151.1859,-0.45801514,151.18817,-49.616978,-18.661316
4019062500,-45.684605,139.17908,-0.45721632,151.01347,-0.455248,151.01064,-49.249714,-19.881983
4019375000,-45.792248,140.20348,-0.45329642,150.82243,-0.45721471,150.8401,-48.817337,-22.666811
4019687500,-45.372841,140.82733,-0.45617425,150.62477,-0.45595676,150.66547,-48.650608,-22.048397
4020000000,-45.422859,139.80769,-0.45439965,150.44037,-0.45796528,150.48761,-48.625229,-23.459194
4020312500,-45.116627,140.5791,-0.45345327,150.25221,-0.4575828,150.29799,-48.423992,-25.535425
4020625000,-44.928314,141.21822,-0.45137769,150.06381,-0.45604715,150.10976,-47.921192,-29.294361
4020937500,-44.854767,144.15634,-0.45291448,149.87436,-0.45982099,149.92772,-48.367561,-32.033619
4021250000,-44.992432,143.47807,-0.45347998,149.68974,-0.45560575,149.74876,-48.226246,-32.368042
4021562500,-45.10545,144.56172,-0.45545116,149.50107,-0.45311901,149.55457,-47.890377,-39.112514
4021875000,-44.853661,144.27124,-0.45623881,149.3231,-0.4571155,149.37413,-47.569813,-40.059315
4022187500,-44.857761,148.077,-0.45686582,149.1403,-0.4531028,149.20189,-47.547417,-41.310341
4022500000,-44.867516,148.22815,-0.45493725,148.97658,-0.45333397,148.98959,-47.213722,-39.252575
4022812500,-44.392628,146.72333,-0.45542014,148.7811,-0.45691484,148.82172,-47.254543,-39.838287
4023125000,-44.23391,145.60036,-0.45471647,148.60207,-0.4549402,148.65285,-46.684959,-38.536236
4023437500,-43.966343,145.24939,-0.45684949,148.39719,-0.45732027,148.45457,-46.849907,-38.660561
4023750000,-43.963486,145.83142,-0.45688599,148.21475,-0.45602396,148.28822,-46.828995,-36.831917
4024062500,-43.888702,146.6313,-0.45494413,148.06889,-0.45816702,148.07861,-46.952518,-40.023949
4024375000,-43.577507,148.93465,-0.45499524,147.86002,-0.45670328,147.88501,-46.939686,-43.039555
4024687500,-43.761574,149.66101,-0.45332864,147.68008,-0.45882532,147.71309,-46.878128,-45.576256
4025000000,-43.824501,151.74541,-0.45259395,147.50182,-0.45626518,147.52876,-46.299892,-47.742195
4025312500,-43.71854,151.89175,-0.45512158,147.3291,-0.45821026,147.34314,-46.128635,-49.059036
4025625000,-43.573738,150.20074,-0.45608774,147.14015,-0.45525721,147.15442,-45.973011,-48.192154
4025937500,-43.565552,152.32568,-0.45593959,146.95097,-0.45571977,146.97417,-45.359905,-47.033772
4026250000,-43.485313,150.65471,-0.4553031,146.78615,-0.45794764,146.82843,-45.063679,-47.894138
4026562500,-43.532417,150.7283,-0.45351693,146.56393,-0.45665744,146.63719,-44.980545,-46.938828
4026875000,-43.622581,151.46294,-0.4569827,146.3968,-0.45719466,146.43535,-44.951878,-49.650692
4027187500,-43.867916,151.64107,-0.45594764,146.21286,-0.45700258,146.25276,-45.280064,-48.891979
4027500000,-43.91024,152.08266,-0.46162456,146.01526,-0.45651108,146.06766,-45.392021,-49.039234
4027812500,-44.048946,150.4814,-0.45629984,145.82747,-0.4596962,145.88583,-45.235394,-49.776436
4028125000,-43.899811,149.9919,-0.45466831,145.6609,-0.45819864,145.67061,-45.251926,-49.256775
4028437500,-43.60527,150.20761,-0.45555738,145.46832,-0.4579747,145.49323,-44.717617,-49.885933
4028750000,-43.305069,152.52638,-0.45278832,145.28641,-0.45718649,145.30208,-44.243973,-51.589653
4029062500,-42.95715,152.91025,-0.45502424,145.11189,-0.45798668,145.1244,-44.202087,-52.76469
4029375000,-42.511795,155.29025,-0.45059657,144.91843,-0.45729041,144.92871,-43.801022,-54.682762
4029687500,-42.264839,155.52637,-0.45365515,144.73653,-0.45905432,144.75508,-43.875549,-55.883381
4030000000,-41.93058,156.51582,-0.45486549,144.56285,-0.45673588,144.57454,-43.982716,-55.437714
4030312500,-41.828728,155.86234,-0.45827746,144.35458,-0.45887256,144.3813,-43.667683,-57.433388
4030625000,-41.605755,155.03621,-0.45622689,144.17651,-0.45870936,144.20882,-43.570282,-58.101635
4030937500,-41.434872,154.87192,-0.45965913,143.97827,-0.45815414,144.02255,-43.522873,-58.294552
4031250000,-41.38929,155.33713,-0.45773596,143.80222,-0.45701966,143.85483,-43.464516,-59.653057
4031562500,-41.559395,154.70802,-0.45534357,143.62407,-0.45961055,143.6489,-43.242607,-61.026348
4031875000,-41.406887,155.31406,-0.45598197,143.44527,-0.45983618,143.49365,-43.035046,-59.813244
4032187500,-41.511051,156.08015,-0.45715392,143.25505,-0.46091583,143.29338,-42.993092,-61.662544
4032500000,-41.599186,155.91106,-0.4549129,143.08009,-0.4629961,143.10164,-42.925526,-60.463348
4032812500,-41.598824,156.51772,-0.45449001,142.88908,-0.4603833,142.92349,-42.791218,-60.869473
4033125000,-41.674664,157.61443,-0.45734444,142.69624,-0.45979413,142.73952,-42.625813,-62.097717
4033437500,-41.538696,157.38304,-0.45779583,142.50429,-0.45915258,142.54137,-42.527084,-62.409073
4033750000,-41.369682,159.66119,-0.45746499,142.32344,-0.45798734,142.36476,-42.350868,-63.537487
4034062500,-41.288334,159.68057,-0.46046892,142.14253,-0.45604274,142.17644,-42.310425,-63.935829
4034375000,-41.230564,160.15448,-0.45699325,141.96677,-0.45697287,141.98857,-42.046093,-64.320801
4034687500,-41.185642,159.59309,-0.45571414,141.7789,-0.4564575,141.80725,-42.028015,-64.710297
4035000000,-41.07198,159.58171,-0.4546169,141.60275,-0.45792803,141.62479,-41.829506,-65.473915
4035312500,-40.901733,158.55855,-0.45532763,141.4119,-0.45524848,141.44038,-41.907841,-65.877037
4035625000,-40.823906,158.55368,-0.45544288,141.22101,-0.4574526,141.26295,-41.617439,-67.478653
4035937500,-40.656013,158.9183,-0.45492044,141.05978,-0.45599097,141.07716,-41.516438,-67.664917
4036250000,-40.649342,159.41316,-0.45899689,140.87334,-0.45624849,140.894,-41.582367,-68.539246
4036562500,-40.613869,160.15013,-0.45668218,140.70149,-0.45689088,140.72011,-41.469936,-68.118294
4036875000,-40.501072,160.75085,-0.45863855,140.50276,-0.4562237,140.52338,-41.457977,-68.405083
4037187500,-40.549141,161.59464,-0.45391628,140.33189,-0.45615429,140.33223,-41.217682,-68.498276
4037500000,-40.416924,161.42227,-0.45769852,140.12199,-0.45672503,140.16988,-41.184601,-68.66436
4037812500,-40.278637,161.43378,-0.4549008,139.96129,-0.46135613,139.97473,-41.132343,-68.905724
4038125000,-40.260895,160.86522,-0.4584038,139.75798,-0.45890674,139.77905,-40.933811,-68.330765
4038437500,-40.130573,160.84714,-0.45707956,139.56604,-0.45852315,139.6046,-40.900238,-67.957985
4038750000,-40.177021,161.42238,-0.45788491,139.39285,-0.45831233,139.42404,-41.071266,-68.004982
4039062500,-40.180122,160.01109,-0.45641375,139.19626,-0.45862421,139.22296,-40.912334,-67.474442
4039375000,-40.132118,159.20627,-0.4588781,139.02858,-0.45990306,139.04597,-40.91465,-68.906471
4039687500,-40.15836,158.03564,-0.45842519,138.84749,-0.45886463,138.85347,-40.989315,-70.023216
4040000000,-40.176472,158.12367,-0.45895025,138.67708,-0.45919031,138.687,-40.862602,-71.035828
4040312500,-40.012676,158.12323,-0.45576647,138.49712,-0.45810431,138.49713,-40.671429,-72.74482
4040625000,-39.898369,158.99481,-0.45782176,138.30078,-0.45669693,138.29942,-40.590702,-73.15786
4040937500,-39.799465,160.16139,-0.45772362,138.09436,-0.45790124,138.11758,-40.379253,-74.245621
4041250000,-39.824848,160.15546,-0.45901653,137.90741,-0.45752612,137.93016,-40.281738,-75.064415
4041562500,-39.596439,160.19385,-0.45599681,137.73039,-0.45786637,137.7616,-40.208057,-75.175224
4041875000,-39.675835,159.25739,-0.45762771,137.54706,-0.45768088,137.57947,-40.11195,-74.592155
4042187500,-39.475231,158.51326,-0.45565879,137.36009,-0.45676872,137.39572,-40.258148,-74.002487
4042500000,-39.401375,158.29181,-0.45854884,137.18619,-0.458617,137.2045,-40.02523,-73.59726
4042812500,-39.282623,157.75929,-0.45742375,136.98593,-0.45442304,137.01234,-40.020668,-74.190056
4043125000,-39.106712,157.65796,-0.45748481,136.81572,-0.45779341,136.83066,-39.9739,-74.919258
4043437500,-39.090122,157.05067,-0.4553155,136.63783,-0.45859033,136.65152,-40.008888,-75.348045
4043750000,-39.131519,158.14914,-0.45543367,136.45958,-0.45849064,136.46675,-39.95985,-75.987076
4044062500,-38.977901,158.32683,-0.45343855,136.26749,-0.46093917,136.29576,-39.758041,-76.553032
4044375000,-39.048679,158.40164,-0.45310342,136.09689,-0.46270216,136.0728,-39.720737,-76.969803
4044687500,-39.059635,158.32416,-0.45546246,135.91057,-0.45875734,135.91826,-39.514347,-76.6315
4045000000,-39.081276,158.23112,-0.45613587,135.7291,-0.46139795,135.72319,-39.484795,-76.630798
4045312500,-39.111889,156.9068,-0.45908228,135.55013,-0.45892897,135.56017,-39.247093,-76.620651
4045625000,-39.247807,158.10075,-0.45797861,135.34378,-0.45962924,135.36839,-39.171413,-77.551453
4045937500,-39.140285,157.2216,-0.45893469,135.16362,-0.45791242,135.18759,-39.032173,-77.400337
4046250000,-39.054222,158.1088,-0.45923242,134.94795,-0.45870775,135.0148,-39.107853,-77.045197
4046562500,-38.945728,158.94089,-0.45691484,134.80766,-0.45862332,134.82208,-39.191483,-77.845581
4046875000,-38.773708,160.51503,-0.46092939,134.60785,-0.45743454,134.63448,-39.276463,-77.988846
4047187500,-38.73838,161.46672,-0.46273309,134.42188,-0.45698738,134.47449,-39.165386,-78.898888
4047500000,-38.664688,161.80901,-0.45826048,134.2326,-0.45505702,134.26251,-39.185089,-78.566406
4047812500,-38.702187,161.79303,-0.45873594,134.06064,-0.4562332,134.06252,-39.042923,-79.93248
4048125000,-38.622547,160.41658,-0.46047044,133.88367,-0.45810524,133.89351,-38.708714,-79.237656
4048437500,-38.688408,159.24107,-0.45815599,133.69795,-0.4586798,133.72935,-38.459106,-79.658691
4048750000,-38.647636,158.44763,-0.45764643,133.5098,-0.46152717,133.53816,-38.284611,-79.632858
4049062500,-38.502289,158.22415,-0.45768175,133.33115,-0.45827508,133.34711,-38.402359,-79.77552
4049375000,-38.379578,158.91394,-0.45668951,133.12804,-0.45997259,133.15613,-38.548084,-79.204025
4049687500,-38.206692,158.79358,-0.45823455,132.93993,-0.45928296,132.96054,-38.643967,-79.875542
4050000000,-38.070873,158.79753,-0.45926121,132.77501,-0.45772344,132.80228,-38.854328,-80.476799
4050312500,-37.984055,159.11688,-0.45643041,132.57175,-0.45889539,132.60107,-38.901066,-81.942879
4050625000,-37.885216,160.06107,-0.45740989,132.37949,-0.45976919,132.42374,-38.662403,-83.054649
4050937500,-37.969635,160.60886,-0.45684826,132.21333,-0.46089807,132.2368,-38.44389,-83.696533
4051250000,-37.828163,160.81625,-0.45860016,132.03024,-0.45796326,132.0616,-38.139332,-84.681625
4051562500,-37.860256,161.41321,-0.45513111,131.85197,-0.45799229,131.86307,-38.048073,-85.00975
4051875000,-37.841671,161.75999,-0.4580237,131.68323,-0.4589242,131.69043,-37.832779,-84.866676
4052187500,-37.805889,161.62253,-0.45877698,131.4669,-0.4559691,131.49806,-37.856518,-85.737206
4052500000,-37.814434,160.73557,-0.45805219,131.30194,-0.45931992,131.30653,-37.776264,-84.36451
4052812500,-37.628361,160.12645,-0.46018586,131.10973,-0.45598611,131.11565,-37.725544,-85.454422
4053125000,-37.588501,159.75722,-0.45881924,130.91089,-0.4568764,130.92294,-37.735031,-85.354462
4053437500,-37.518406,159.03804,-0.4584572,130.70409,-0.45879808,130.75296,-37.659924,-84.548401
4053750000,-37.545593,158.22879,-0.46016446,130.53903,-0.45796293,130.58228,-37.570335,-84.646667
4054062500,-37.527287,158.39145,-0.45853552,130.36354,-0.46034086,130.38974,-37.463581,-83.802567
4054375000,-37.588894,157.9619,-0.45592093,130.18753,-0.46095183,130.20676,-37.477375,-83.433517
4054687500,-37.515209,158.10826,-0.45832658,129.99144,-0.45775315,130.03624,-37.360432,-83.818726
4055000000,-37.505905,158.58449,-0.45696199,129.81541,-0.46229526,129.86531,-37.298199,-84.221352
4055312500,-37.468376,157.99969,-0.45882094,129.63972,-0.46052173,129.66739,-37.207729,-85.248573
4055625000,-37.350811,157.74142,-0.45911118,129.45879,-0.45699573,129.46745,-37.146694,-86.688667
4055937500,-37.426746,157.89886,-0.46002463,129.29761,-0.45718506,129.28951,-37.122597,-87.739449
4056250000,-37.403461,157.75887,-0.45817283,129.08548,-0.45625985,129.10817,-37.161495,-88.302361
4056562500,-37.276585,157.77409,-0.45776033,128.89505,-0.45825997,128.91069,-37.063778,-88.081352
4056875000,-37.300106,158.01376,-0.4575251,128.72595,-0.4593696,128.73608,-37.058323,-87.943436
4057187500,-37.273762,157.25607,-0.4580372,128.53177,-0.46258232,128.55725,-36.934277,-88.54464
4057500000,-37.25544,158.0269,-0.4565376,128.35341,-0.46148628,128.35878,-36.877323,-88.694305
4057812500,-37.27626,157.87762,-0.45703766,128.15535,-0.46215063,128.18909,-36.970669,-88.376144
4058125000,-37.272259,157.53522,-0.45834994,127.97838,-0.46090519,128.00484,-36.899052,-88.665344
4058437500,-37.26265,157.94661,-0.45712575,127.79652,-0.4619633,127.81207,-36.826672,-89.108162
4058750000,-37.108158,157.31052,-0.45928875,127.6069,-0.45956385,127.64681,-36.781471,-89.683784
4059062500,-37.071877,156.61983,-0.45673427,127.43816,-0.45800999,127.46364,-36.728294,-90.202538
4059375000,-37.1068,156.70532,-0.45830792,127.23396,-0.45904556,127.28953,-36.73101,-89.465332
4059687500,-37.002617,157.18694,-0.45867679,127.05588,-0.4582324,127.08755,-36.911411,-89.145416
4060000000,-36.872772,157.60426,-0.45780715,126.86668,-0.45834106,126.92715,-36.827713,-89.718559
4060312500,-36.795734,157.58981,-0.45972875,126.68601,-0.45707378,126.70425,-36.831707,-89.838997
4060625000,-36.77496,157.83588,-0.45990849,126.49289,-0.45653525,126.54379,-36.816662,-89.864349
4060937500,-36.595623,158.0641,-0.45955366,126.30379,-0.45778328,126.35448,-36.783348,-89.955109
4061250000,-36.595993,157.58272,-0.4598892,126.12809,-0.45865715,126.16348,-36.769196,-90.567589
4061562500,-36.661949,157.16006,-0.45895639,125.94921,-0.45928422,125.98526,-36.65926,-91.011238
4061875000,-36.625488,157.43495,-0.45652583,125.769,-0.45988256,125.78608,-36.642181,-92.211754
4062187500,-36.635624,157.3855,-0.45571584,125.58808,-0.45820335,125.61113,-36.590096,-92.394318
4062500000,-36.683887,157.35435,-0.45731536,125.39265,-0.46044454,125.4363,-36.399757,-92.668427
