!CSV A.01.01
!Agilent Technologies,N5222A,MY51421451,A.09.90.02
!Agilent N5222A: A.09.90.02
!Date: Friday, July 31, 2015 15:01:53
!Source: Standard

BEGIN CH3_DATA
Freq(Hz),S33(DB),S33(DEG),S34(DB),S34(DEG),S43(DB),S43(DEG),S44(DB),S44(DEG)
1000000000,-40.717251,42.219933,-0.09294419,120.0962,-0.094572656,120.0701,-38.649517,-14.023658
1001484375,-40.574848,43.359196,-0.093106396,119.72106,-0.092149116,119.71616,-39.023338,-10.909122
1002968750,-40.660385,41.892822,-0.094477795,119.36898,-0.091102868,119.35283,-38.563366,-13.754799
1004453125,-40.417294,42.806332,-0.091218725,119.01234,-0.094339959,118.99214,-38.795395,-16.398197
1005937500,-40.758907,39.912334,-0.094339699,118.63089,-0.096880771,118.66315,-38.658382,-15.465186
1007421875,-40.590248,41.578941,-0.093215667,118.29464,-0.094344608,118.2947,-38.786003,-14.865868
1008906250,-40.632923,43.345337,-0.091937862,117.93584,-0.095170006,117.94411,-38.606644,-16.590635
1010390625,-40.959835,40.841049,-0.092340939,117.59245,-0.093374535,117.59794,-39.191681,-17.86614
1011875000,-40.628525,42.214752,-0.095457517,117.23653,-0.093632855,117.19592,-38.865902,-17.006214
1013359375,-40.344833,38.253967,-0.090027258,116.87386,-0.095707826,116.87925,-38.939114,-16.88291
1014843750,-40.337643,38.694546,-0.094038539,116.50731,-0.095692001,116.54625,-38.849331,-15.301718
1016328125,-40.080441,38.427715,-0.094814777,116.16712,-0.093375057,116.17689,-38.891933,-16.053539
1017812500,-40.200874,41.344604,-0.095284574,115.78097,-0.097220138,115.78793,-38.540974,-17.164091
1019296875,-39.784859,38.856651,-0.09154167,115.45256,-0.098044939,115.49332,-38.788837,-17.961208
1020781250,-40.686386,39.498276,-0.094441511,115.09077,-0.091342442,115.12305,-38.840279,-20.915653
1022265625,-39.887123,39.268505,-0.094770707,114.73516,-0.096767709,114.73824,-38.640182,-16.572451
1023750000,-40.864548,38.80904,-0.096066728,114.36428,-0.093059748,114.40562,-38.533352,-19.705227
1025234375,-40.043339,40.79496,-0.092288047,114.03411,-0.095534176,114.05122,-38.73328,-18.296494
1026718750,-40.208244,38.407101,-0.097142816,113.65919,-0.095303684,113.66032,-38.886257,-18.953896
1028203125,-40.637039,37.924202,-0.096058957,113.31985,-0.093985945,113.31284,-38.132225,-19.55254
1029687500,-40.372795,35.496552,-0.096146919,112.96261,-0.090288125,112.93993,-38.988564,-18.341522
1031171875,-40.25016,35.291279,-0.094722755,112.59512,-0.094787456,112.62114,-38.714878,-19.47719
1032656250,-40.207951,35.535049,-0.094284959,112.25287,-0.095554844,112.23093,-38.554283,-17.582027
1034140625,-40.509525,35.07449,-0.095879599,111.91183,-0.09438175,111.89702,-38.650429,-18.172573
1035625000,-40.182812,33.777885,-0.094980881,111.52646,-0.090873547,111.53265,-38.579426,-19.781103
1037109375,-40.220203,33.812843,-0.094593517,111.19877,-0.094092473,111.22187,-39.04277,-20.03931
1038593750,-40.103371,34.714275,-0.095411092,110.8474,-0.094805285,110.84695,-38.743877,-21.261385
1040078125,-40.699455,33.827717,-0.093165502,110.451,-0.0955498,110.49889,-38.388077,-20.576754
1041562500,-40.224293,32.389412,-0.093743458,110.12892,-0.093477555,110.12169,-38.622608,-20.789124
1043046875,-40.245922,32.699963,-0.094434164,109.75797,-0.094904162,109.74931,-38.643852,-23.822674
1044531250,-40.164043,32.577518,-0.096025579,109.4006,-0.097440474,109.39462,-38.922745,-18.960802
1046015625,-40.068657,29.852407,-0.09379518,109.04494,-0.095752098,109.06412,-38.658691,-21.110512
1047500000,-39.901806,29.623112,-0.097333506,108.69225,-0.090765074,108.71024,-38.331402,-21.178556
1048984375,-40.021069,30.048349,-0.09310215,108.35034,-0.097144179,108.32166,-38.664925,-18.947739
1050468750,-40.230839,31.190042,-0.095103726,107.97926,-0.09152706,108.00402,-38.499241,-20.458067
1051953125,-39.825726,31.409229,-0.09497454,107.63051,-0.098009914,107.63702,-38.647343,-23.38677
1053437500,-40.583305,28.889996,-0.096270666,107.25445,-0.092146263,107.26007,-38.609509,-23.199148
1054921875,-39.844067,27.561836,-0.095849767,106.93786,-0.096184336,106.93324,-38.687618,-20.741869
1056406250,-40.190212,28.442614,-0.10149632,106.58372,-0.092495695,106.55461,-38.506279,-21.622425
1057890625,-40.061367,23.812298,-0.09602607,106.20283,-0.096608393,106.22293,-38.601494,-21.901489
1059375000,-40.030293,24.667095,-0.10062351,105.84474,-0.092515685,105.85271,-38.892208,-24.304911
1060859375,-39.695438,26.311293,-0.094629794,105.50381,-0.093807429,105.50412,-38.994385,-22.848869
1062343750,-40.031754,27.804869,-0.095239989,105.15187,-0.098223463,105.12541,-38.576382,-21.694624
1063828125,-40.038834,23.753101,-0.096734427,104.75174,-0.0958222,104.8149,-38.793316,-23.831175
1065312500,-40.256405,25.392246,-0.095595323,104.425,-0.093603693,104.42371,-38.873623,-21.333372
1066796875,-40.008854,23.064934,-0.097068749,104.07847,-0.0965501,104.06228,-38.302773,-23.030098
1068281250,-40.169739,23.998075,-0.095431358,103.70009,-0.097857617,103.72254,-38.902557,-21.172558
1069765625,-40.059616,22.876348,-0.09526822,103.38434,-0.099156506,103.35529,-38.682842,-24.680666
1071250000,-39.519562,22.845272,-0.094465621,102.99587,-0.099521942,102.99678,-38.554749,-23.353485
1072734375,-39.772594,22.47298,-0.097957805,102.64208,-0.097092122,102.65808,-38.662319,-21.145334
1074218750,-39.780327,20.255322,-0.09568467,102.28765,-0.099427156,102.31324,-38.449772,-23.458778
1075703125,-39.878036,20.766706,-0.094609663,101.95261,-0.097420089,101.96824,-38.955509,-24.596558
1077187500,-39.930256,19.434343,-0.097496904,101.59604,-0.095168144,101.59011,-38.750225,-25.108374
1078671875,-40.211586,17.378996,-0.099045195,101.20074,-0.093549237,101.24506,-38.950611,-26.517023
1080156250,-39.860817,20.648157,-0.096016698,100.87743,-0.096728727,100.86774,-38.581036,-26.050591
1081640625,-40.174187,16.766186,-0.10259083,100.50002,-0.096990697,100.50909,-38.666561,-23.142767
1083125000,-39.709091,15.868582,-0.094040424,100.15128,-0.098290309,100.16199,-38.733429,-23.899942
1084609375,-39.85046,18.132383,-0.096918017,99.808487,-0.093591996,99.801445,-39.068916,-28.060141
1086093750,-39.458084,15.847506,-0.098306559,99.461746,-0.097498573,99.437157,-38.880146,-26.978992
1087578125,-39.36414,16.438725,-0.098851398,99.090065,-0.10053695,99.078156,-38.627026,-24.922459
1089062500,-39.460224,16.595901,-0.096287481,98.743904,-0.098586753,98.74614,-38.886486,-24.706112
1090546875,-39.673317,18.808764,-0.096308276,98.384872,-0.09154065,98.379723,-38.891685,-22.96438
1092031250,-40.018276,14.288486,-0.098517202,98.036179,-0.098533817,98.000267,-38.866535,-25.74571
1093515625,-39.93742,12.839989,-0.099765129,97.663101,-0.095881976,97.685211,-38.924503,-26.191444
1095000000,-39.515282,14.972897,-0.099754266,97.317413,-0.09877605,97.290886,-38.741783,-24.8004
1096484375,-39.974655,14.710273,-0.096419506,96.971344,-0.097124979,96.989716,-39.430771,-28.195906
1097968750,-39.822075,13.994631,-0.099827066,96.596786,-0.097139418,96.603783,-39.191448,-26.229692
1099453125,-39.571342,11.874029,-0.095340952,96.259468,-0.099663034,96.238052,-39.250893,-25.726021
1100937500,-39.745274,10.486044,-0.099820204,95.892357,-0.098146267,95.893051,-38.782608,-25.758644
1102421875,-39.802189,13.122231,-0.097410694,95.546509,-0.097462103,95.54702,-39.370575,-24.579441
1103906250,-39.699169,13.193458,-0.10171404,95.17791,-0.096751526,95.176178,-38.713005,-26.59271
1105390625,-39.642227,12.191875,-0.095114946,94.799339,-0.095336773,94.832306,-39.504524,-25.108429
1106875000,-40.128407,9.1266451,-0.09930148,94.473549,-0.097451687,94.490959,-39.198605,-30.263422
1108359375,-39.610134,11.723175,-0.097815819,94.126152,-0.096056595,94.120132,-39.142574,-27.588364
1109843750,-39.745258,9.00809,-0.10555314,93.75499,-0.10010701,93.754166,-38.837883,-26.433388
1111328125,-39.897564,7.6103148,-0.099982768,93.391769,-0.10288794,93.411827,-39.014133,-26.405457
1112812500,-39.850945,8.774128,-0.10117823,93.065948,-0.10016675,93.036964,-39.107929,-27.158987
1114296875,-39.267559,9.3917112,-0.098990731,92.693123,-0.096220747,92.711708,-38.972584,-28.136776
1115781250,-39.968121,7.8888693,-0.097706176,92.333977,-0.10124824,92.328186,-39.201256,-30.032885
1117265625,-39.440594,7.3710608,-0.098839737,91.978691,-0.099292867,91.989189,-39.113903,-26.204662
1118750000,-39.656487,6.8780217,-0.098352313,91.618172,-0.099960588,91.630722,-39.352222,-28.415867
1120234375,-39.944252,8.0188541,-0.10181104,91.284393,-0.10159161,91.270256,-39.191963,-28.283285
1121718750,-39.775726,5.150702,-0.096970029,90.910622,-0.097948551,90.910454,-39.235001,-27.735502
1123203125,-39.202766,6.6255045,-0.099463217,90.543701,-0.10080784,90.549751,-38.740681,-30.028957
1124687500,-40.193153,5.3563981,-0.10168398,90.20549,-0.10153235,90.224365,-39.029587,-30.702322
1126171875,-39.770374,5.7944393,-0.10144252,89.846352,-0.099546716,89.850662,-38.811569,-29.369835
1127656250,-39.099621,5.0619898,-0.09742742,89.480591,-0.099752806,89.480858,-39.37249,-29.470833
1129140625,-39.596191,6.4800148,-0.097813413,89.142822,-0.097352028,89.141174,-38.976757,-31.32482
1130625000,-39.656208,5.1332273,-0.098682962,88.793449,-0.10043312,88.804703,-39.188023,-32.12965
1132109375,-39.754726,6.0253391,-0.098975718,88.425987,-0.099953428,88.439156,-39.274586,-32.979839
1133593750,-39.64883,5.4206996,-0.098007083,88.065804,-0.097586147,88.065445,-39.272671,-30.922604
1135078125,-39.503311,4.1078844,-0.099420965,87.700737,-0.096418947,87.730194,-39.298946,-31.921446
1136562500,-39.580257,4.6824365,-0.10021493,87.368095,-0.099063545,87.338524,-39.041801,-32.608894
1138046875,-39.469002,3.8513098,-0.10024545,86.995293,-0.099352919,87.010628,-39.149761,-31.051201
1139531250,-39.777939,2.9142265,-0.10363382,86.637024,-0.097024605,86.642227,-39.116989,-32.840488
1141015625,-39.725311,5.2829971,-0.10323826,86.283981,-0.10013955,86.303474,-38.888493,-33.876373
1142500000,-39.301895,2.5166504,-0.099626772,85.913666,-0.098964341,85.943794,-39.119499,-35.993542
1143984375,-39.956474,1.8770612,-0.10141003,85.576241,-0.098416664,85.598167,-39.43047,-34.926422
1145468750,-39.829063,1.4399338,-0.098612398,85.236389,-0.10344127,85.23217,-39.423077,-33.870186
1146953125,-39.532959,4.4599447,-0.10468237,84.868477,-0.099167101,84.875061,-38.657589,-36.995495
1148437500,-39.880291,1.6206084,-0.099449754,84.508812,-0.10204092,84.526077,-39.036335,-37.008625
1149921875,-39.703907,-0.97797871,-0.10328307,84.167946,-0.099110037,84.155014,-39.129818,-38.25639
1151406250,-39.729664,2.7905636,-0.099691063,83.776375,-0.099044845,83.813934,-39.154598,-36.306911
1152890625,-39.718395,-1.4737436,-0.099208564,83.445473,-0.10063008,83.468742,-39.435444,-36.59021
1154375000,-39.844795,4.2548776,-0.10158192,83.101448,-0.097870924,83.111061,-39.044834,-39.849403
1155859375,-39.406944,-0.0020751227,-0.10065283,82.743759,-0.10073225,82.749603,-39.341316,-40.101688
1157343750,-39.882225,-0.43335414,-0.10090292,82.382774,-0.10026029,82.389236,-38.960838,-40.98423
1158828125,-39.55407,1.4854047,-0.10204122,82.022408,-0.096479654,82.031654,-39.098145,-41.584709
1160312500,-39.961563,-0.061689962,-0.1035879,81.666985,-0.10053879,81.682831,-39.120407,-37.106174
1161796875,-39.171173,-2.7044859,-0.10065471,81.323112,-0.10450604,81.327827,-38.961296,-40.026482
1163281250,-40.17691,0.9301734,-0.097409889,80.958649,-0.10062993,80.957962,-39.035183,-39.071869
1164765625,-39.794426,0.99109983,-0.099794284,80.612122,-0.1038699,80.614029,-39.283352,-41.947563
1166250000,-39.590454,-1.7018986,-0.10033184,80.261681,-0.10297057,80.242523,-39.213524,-43.312145
1167734375,-40.032921,-0.34818038,-0.10225236,79.894958,-0.099011719,79.908447,-39.122391,-40.868069
1169218750,-39.879276,-1.8265561,-0.10206165,79.539276,-0.099031799,79.563759,-38.625275,-46.489166
1170703125,-39.720722,0.75828969,-0.099982366,79.175972,-0.10370456,79.191574,-39.568344,-43.704266
1172187500,-40.111393,2.7424812,-0.10211539,78.802513,-0.099561311,78.845238,-39.665779,-43.108677
1173671875,-39.725086,-3.7220173,-0.099708378,78.478195,-0.10003947,78.486069,-39.412533,-43.586151
1175156250,-39.628529,-1.6622276,-0.10254764,78.105812,-0.10725151,78.146576,-39.258278,-43.1703
1176640625,-39.849449,-0.57227302,-0.099694818,77.761299,-0.10347057,77.777473,-38.951054,-44.781422
1178125000,-40.0583,-2.2793899,-0.10297751,77.392799,-0.10060408,77.411987,-38.901226,-44.816734
1179609375,-39.938553,0.18197417,-0.10241348,77.052132,-0.10050615,77.026482,-39.383865,-45.625977
1181093750,-39.938736,-0.77271092,-0.10331629,76.69001,-0.10050208,76.673584,-39.4328,-47.621834
1182578125,-39.664375,-0.59696341,-0.1002828,76.327942,-0.10158849,76.358849,-38.930077,-45.701683
1184062500,-40.196583,-5.5818524,-0.10178195,75.968361,-0.10293353,75.989647,-39.395252,-48.381287
1185546875,-39.872963,-2.690798,-0.10540177,75.619385,-0.10060371,75.626434,-39.206139,-48.177055
1187031250,-40.260418,-1.5704026,-0.098650567,75.262405,-0.1014234,75.264717,-39.285141,-47.798859
1188515625,-40.010574,-2.8967164,-0.10194364,74.908005,-0.10141806,74.926506,-39.243019,-47.349106
1190000000,-40.039726,0.61587417,-0.10396167,74.57328,-0.097798489,74.541359,-38.948467,-50.25132
1191484375,-40.003899,-2.4543445,-0.10127713,74.199387,-0.1006961,74.221191,-39.29211,-47.015121
1192968750,-39.834167,-3.750675,-0.10417111,73.84314,-0.104475,73.866585,-39.203686,-46.43351
1194453125,-39.412067,-2.5804648,-0.10471043,73.503372,-0.099524692,73.492073,-39.262959,-51.559311
1195937500,-39.671097,-4.2133126,-0.10142329,73.151711,-0.10094523,73.145447,-39.406521,-50.596638
1197421875,-39.831375,-3.9744129,-0.10114708,72.793747,-0.10161929,72.784554,-39.467873,-50.793896
1198906250,-39.757454,-5.2564063,-0.1018257,72.419243,-0.1051915,72.426369,-39.256207,-51.076546
1200390625,-40.015644,-4.2322111,-0.10462788,72.057961,-0.10419395,72.111267,-39.625233,-49.611027
1201875000,-39.600693,-3.5468349,-0.10175715,71.719643,-0.10514908,71.717674,-39.22876,-51.653076
1203359375,-40.039421,-5.0205364,-0.10328427,71.36393,-0.10289194,71.351662,-38.856899,-52.39431
1204843750,-40.045975,-3.1936436,-0.10204778,71.017609,-0.10287921,70.995216,-39.153965,-53.168911
1206328125,-39.80912,-5.1838384,-0.10298413,70.647987,-0.10100281,70.680351,-39.332832,-52.33239
1207812500,-39.751686,-3.3403659,-0.10407711,70.295578,-0.102452,70.283348,-39.293446,-52.369709
1209296875,-39.892715,-5.2503777,-0.10479738,69.928703,-0.10090596,69.96685,-38.988319,-50.741344
1210781250,-39.965965,-3.068666,-0.09892682,69.579498,-0.10056514,69.563087,-39.951389,-54.620979
1212265625,-39.31625,-3.4468348,-0.10399395,69.231361,-0.10738917,69.237251,-39.100475,-52.355644
1213750000,-39.794479,-4.5450225,-0.10415678,68.876953,-0.10643488,68.874733,-39.11665,-53.234226
1215234375,-39.84325,-4.9382153,-0.10302388,68.514519,-0.10573803,68.493431,-39.572857,-53.579205
1216718750,-39.499668,-8.1062565,-0.10130341,68.143127,-0.10632487,68.161514,-39.72245,-53.954853
1218203125,-39.57793,-6.298285,-0.10507704,67.804146,-0.10292588,67.796501,-39.556446,-55.693233
1219687500,-40.213367,-6.8341479,-0.10325205,67.449127,-0.099295668,67.453873,-39.684486,-54.006741
1221171875,-39.301151,-8.4342766,-0.10327824,67.089394,-0.10578839,67.095261,-39.159092,-54.900452
1222656250,-39.796432,-7.2177768,-0.1019512,66.741508,-0.10483593,66.737488,-39.471043,-55.997601
1224140625,-39.958168,-8.4329567,-0.10159853,66.389526,-0.10037886,66.391281,-39.325542,-53.33865
1225625000,-39.604214,-10.520368,-0.10446364,66.014206,-0.10677063,66.027275,-39.519333,-54.533119
1227109375,-39.635357,-10.252888,-0.10456125,65.658134,-0.10287274,65.674858,-39.426411,-55.574322
1228593750,-39.62331,-9.1103868,-0.10328964,65.315605,-0.10216184,65.317314,-39.896759,-55.818348
1230078125,-40.067814,-12.456213,-0.10598671,64.936752,-0.10144536,64.968491,-39.163788,-53.563583
1231562500,-39.789902,-10.78814,-0.10373472,64.591225,-0.10312945,64.610695,-39.533802,-56.789745
1233046875,-39.592751,-11.282216,-0.10643143,64.257431,-0.1036032,64.251465,-39.245872,-55.031502
1234531250,-39.757832,-10.32602,-0.10070314,63.910046,-0.10622426,63.904617,-39.589245,-56.703571
1236015625,-39.573746,-13.203745,-0.1046622,63.542076,-0.10301876,63.527721,-39.820793,-55.613583
1237500000,-40.226776,-13.365489,-0.1039503,63.165195,-0.10084037,63.205841,-39.700603,-50.926746
1238984375,-39.760117,-15.260156,-0.10224855,62.843163,-0.10330892,62.827839,-39.183983,-55.459785
1240468750,-39.257645,-15.347444,-0.10365698,62.4757,-0.10309414,62.464607,-39.454082,-56.479137
1241953125,-39.580757,-13.607466,-0.10776243,62.129818,-0.10607336,62.124458,-39.706367,-54.41111
1243437500,-39.724091,-14.727599,-0.10566184,61.781357,-0.10454334,61.772293,-39.763981,-58.849224
1244921875,-40.069485,-19.367392,-0.10321808,61.396255,-0.10587376,61.416637,-39.604141,-56.361938
1246406250,-39.510456,-14.246949,-0.099849403,61.055328,-0.10428992,61.051853,-39.423927,-55.63702
1247890625,-39.628418,-13.810282,-0.10769296,60.714005,-0.10634701,60.689053,-39.593697,-56.687611
1249375000,-39.426273,-17.026199,-0.10450035,60.328133,-0.10300346,60.348415,-39.694893,-56.017033
1250859375,-39.891735,-18.415672,-0.10700093,59.993095,-0.10369782,59.995789,-39.544983,-55.585091
1252343750,-39.844234,-18.87969,-0.10390273,59.643814,-0.10429944,59.633808,-39.82859,-56.850922
1253828125,-39.676826,-19.115038,-0.10360395,59.274521,-0.10628197,59.288452,-39.422977,-57.458046
1255312500,-39.83971,-16.718237,-0.10410631,58.916763,-0.10603497,58.913605,-39.915043,-58.475342
1256796875,-39.412773,-20.218672,-0.10344807,58.550301,-0.10488634,58.573517,-39.461151,-57.977432
1258281250,-39.704395,-21.435379,-0.10420512,58.214195,-0.10645398,58.20583,-39.402328,-57.471672
1259765625,-39.785706,-20.880058,-0.10908913,57.849224,-0.10562678,57.85033,-39.410793,-56.461105
1261250000,-39.202667,-20.844719,-0.10561526,57.486069,-0.10650153,57.489429,-39.037373,-58.758636
1262734375,-40.078701,-20.512766,-0.10959297,57.137154,-0.10378196,57.154263,-39.366261,-59.422817
1264218750,-39.615875,-20.735672,-0.10667285,56.782036,-0.10442495,56.789925,-39.551117,-56.321308
1265703125,-39.495197,-20.309429,-0.10483688,56.421307,-0.10492409,56.423225,-39.673176,-56.607845
1267187500,-39.815514,-22.014286,-0.10565847,56.069305,-0.10894837,56.074696,-39.835331,-55.10257
1268671875,-39.368656,-24.77722,-0.10500591,55.705284,-0.10900045,55.731392,-39.549236,-56.890415
1270156250,-39.496002,-23.637455,-0.10585614,55.348953,-0.10877438,55.369072,-39.398506,-58.276001
1271640625,-39.239395,-22.727991,-0.10637261,54.997753,-0.10497998,55.002583,-39.817436,-58.564583
1273125000,-39.934914,-22.456318,-0.10503975,54.647991,-0.10897796,54.67828,-39.22646,-56.018265
1274609375,-39.661572,-24.904634,-0.10948916,54.292572,-0.10138159,54.299641,-39.470295,-57.967674
1276093750,-39.498081,-26.878174,-0.11058462,53.931671,-0.10767224,53.947151,-39.64217,-59.841438
1277578125,-39.692394,-28.45594,-0.10757688,53.59417,-0.10779183,53.57085,-39.700027,-58.947273
1279062500,-39.698429,-26.60244,-0.10867193,53.246078,-0.10528678,53.236347,-39.626709,-58.205021
1280546875,-39.616383,-27.843727,-0.10821409,52.888329,-0.10592788,52.873409,-40.070339,-58.401615
1282031250,-39.872665,-26.830765,-0.10886899,52.534279,-0.10697153,52.514915,-39.877251,-57.283146
1283515625,-39.499115,-27.602797,-0.10849088,52.151173,-0.10463166,52.155655,-39.737759,-56.159138
1285000000,-39.654842,-28.626102,-0.1022797,51.794365,-0.10622276,51.806717,-39.680611,-55.828648
1286484375,-39.864227,-28.042618,-0.1072234,51.436245,-0.10351222,51.448101,-40.024384,-59.650043
1287968750,-39.717358,-32.023144,-0.10684147,51.095596,-0.10450358,51.115231,-39.860485,-56.212444
1289453125,-39.702454,-29.997276,-0.10851555,50.739578,-0.10724871,50.741745,-39.739613,-58.133919
1290937500,-39.930042,-29.417191,-0.10637802,50.368961,-0.10856925,50.414135,-39.696949,-57.133175
