!CSV A.01.01
!Agilent Technologies,N5222A,MY51421451,A.09.90.02
!Agilent N5222A: A.09.90.02
!Date: Saturday, March 15, 2014 18:00:34
!Source: Standard

BEGIN CH1_DATA
Freq(Hz),S11(DB),S11(DEG),S12(DB),S12(DEG),S21(DB),S21(DEG),S22(DB),S22(DEG)
1000000000,-44.637573,20.690119,-71.695999,-19.078293,-31.379532,160.38246,-11.619023,8.1962643
1001093750,-44.439106,17.602419,-73.995056,116.31468,-31.398266,158.55881,-11.623811,5.4222293
1002187500,-44.504513,12.442364,-74.41404,119.38844,-31.348993,155.73814,-11.64967,2.6379039
1003281250,-43.910973,14.895007,-87.770378,55.108978,-31.46125,153.66599,-11.630931,-0.1747095
1004375000,-43.81554,15.022912,-74.777916,150.55971,-31.385057,149.78548,-11.629859,-2.9508295
1005468750,-44.039352,12.365099,-78.557869,-50.270287,-31.142136,145.76526,-11.621385,-5.761065
1006562500,-43.704739,12.169888,-76.944595,65.125259,-31.231646,143.96025,-11.644906,-8.3542767
1007656250,-43.633869,12.816069,-69.725204,72.173264,-31.485224,141.54617,-11.638124,-11.082451
1008750000,-43.643238,14.866827,-89.068306,50.671143,-31.34215,138.73906,-11.635452,-13.66652
1009843750,-42.95462,12.136477,-68.483917,27.849396,-31.318422,134.83443,-11.646218,-16.362486
1010937500,-43.302711,15.540682,-75.589493,-7.5118628,-31.336859,132.53214,-11.629898,-19.124609
1012031250,-43.186562,17.959238,-71.289978,40.688873,-31.304605,128.92651,-11.640047,-21.756231
1013125000,-43.284119,15.810351,-71.635567,-166.69417,-31.342836,127.23309,-11.656093,-24.284496
1014218750,-43.01276,16.309656,-86.499321,-29.067892,-31.310726,124.46923,-11.654717,-27.008055
1015312500,-43.243877,18.58371,-77.831444,150.4567,-31.211899,121.14536,-11.676541,-29.501459
1016406250,-43.013294,19.215574,-73.643341,-1.6219509,-31.335333,118.28675,-11.669076,-32.338173
1017500000,-43.712429,20.909103,-75.142853,-77.814735,-31.237253,115.32448,-11.703752,-34.904526
1018593750,-43.948795,21.157085,-83.353218,53.446583,-31.299223,113.10014,-11.725268,-37.669968
1019687500,-43.795994,23.063381,-70.670166,119.11983,-31.209311,110.11778,-11.739973,-40.414288
1020781250,-43.885559,20.975332,-79.256264,-113.3437,-31.119194,107.51164,-11.747085,-43.194138
1021875000,-43.879997,21.417246,-76.019882,-20.838928,-31.345726,104.92814,-11.754665,-45.863926
1022968750,-44.67979,21.163839,-71.256905,-133.83595,-31.366007,102.26603,-11.753738,-48.614746
1024062500,-44.429012,22.110367,-78.073227,-82.877403,-31.282358,98.854767,-11.771036,-51.377453
1025156250,-44.760242,18.104717,-75.054207,-165.59807,-31.276287,95.849617,-11.779387,-54.065239
1026250000,-44.480999,19.474766,-75.627281,-7.6555963,-31.24238,93.01902,-11.760098,-56.959133
1027343750,-44.778397,13.571719,-70.313667,127.43867,-31.328089,90.025436,-11.761408,-59.65667
1028437500,-44.744663,10.926633,-73.771408,-174.91838,-31.217169,87.872162,-11.755437,-62.340996
1029531250,-44.857525,8.8895359,-71.317055,149.02519,-31.241144,83.730293,-11.773538,-65.028214
1030625000,-43.923553,10.304553,-77.294937,9.1639729,-31.269863,80.68792,-11.764203,-67.807602
1031718750,-44.0588,7.6710558,-73.739128,96.417206,-31.262581,79.967865,-11.743734,-70.363266
1032812500,-43.514465,10.679024,-67.253777,-63.980316,-31.144779,75.324837,-11.760929,-72.971619
1033906250,-43.340202,8.8826189,-77.210236,-97.555405,-31.269226,73.379883,-11.737808,-75.504921
1035000000,-43.06184,6.5150719,-73.824013,166.91452,-31.194805,70.251198,-11.754618,-78.188431
1036093750,-42.713661,7.5349445,-66.333893,-58.643764,-31.219303,68.576477,-11.73381,-80.759796
1037187500,-42.85675,11.156801,-77.304741,82.99086,-31.085436,64.071869,-11.771297,-83.341873
1038281250,-42.263966,10.588901,-70.735832,132.52434,-31.14732,61.99749,-11.763821,-85.855347
1039375000,-42.209251,15.416661,-67.598366,-32.116974,-31.140854,59.073746,-11.773506,-88.433807
1040468750,-42.008686,11.713747,-71.815102,148.56442,-31.214651,57.0518,-11.801576,-91.091331
1041562500,-41.803391,13.331973,-69.021088,-158.44432,-31.283443,53.902397,-11.79907,-93.72625
1042656250,-42.140804,14.897528,-67.539742,-99.649643,-31.215761,50.953804,-11.816938,-96.435547
1043750000,-42.110821,17.381773,-70.203735,-110.34855,-31.120533,47.291264,-11.822753,-99.046394
1044843750,-42.421085,19.225235,-70.944962,158.08533,-31.215157,44.679928,-11.845412,-101.7281
1045937500,-41.918602,20.820681,-72.205421,-65.016235,-31.221621,42.241917,-11.848769,-104.37354
1047031250,-42.256691,23.29895,-76.785133,-10.292678,-31.290876,39.166862,-11.87214,-107.1039
1048125000,-42.659702,23.712856,-68.957222,-51.802025,-31.136133,36.952393,-11.842492,-109.77715
1049218750,-43.065174,21.917147,-72.403648,-121.72044,-31.185965,33.869793,-11.873284,-112.57063
1050312500,-42.578331,26.293644,-68.446434,-26.658701,-31.257496,31.386889,-11.883047,-115.2972
1051406250,-42.961098,23.215103,-75.999825,-44.849583,-31.116854,28.293909,-11.875505,-117.90856
1052500000,-43.518661,26.05595,-74.021912,79.823578,-31.126825,24.591637,-11.866374,-120.61867
1053593750,-43.405403,20.716377,-75.046288,62.482864,-31.192835,21.684399,-11.861997,-123.10057
1054687500,-43.915951,21.376947,-76.550049,-117.65777,-31.215748,19.213064,-11.88158,-125.76086
1055781250,-44.269199,18.983372,-77.859093,-108.50719,-31.198563,16.907402,-11.876535,-128.45946
1056875000,-43.940819,18.619432,-71.50399,76.508949,-31.007084,13.519519,-11.849796,-130.8356
1057968750,-43.758427,15.149632,-72.806389,55.930653,-31.147713,10.858411,-11.867539,-133.46677
1059062500,-43.981556,17.452393,-74.80883,58.95348,-31.127964,7.9457989,-11.856777,-136.08493
1060156250,-44.273758,16.329155,-72.877121,32.454563,-31.072023,5.9239163,-11.872117,-138.54781
1061250000,-43.875229,14.857041,-75.031189,-163.4052,-31.112242,1.7451646,-11.882746,-141.18552
1062343750,-43.071041,15.494225,-78.311272,67.586754,-31.257534,-0.73800397,-11.886727,-143.7525
1063437500,-43.597359,13.923741,-72.138481,16.994347,-31.19615,-3.16414,-11.921436,-146.19067
1064531250,-43.238827,14.60359,-72.376038,6.0550075,-31.086882,-6.1788011,-11.924798,-148.77296
1065625000,-42.80518,12.679624,-79.673302,-43.368008,-31.093794,-8.9551411,-11.970125,-151.33543
1066718750,-42.606091,13.087195,-75.025597,166.04694,-31.160583,-12.508633,-11.974702,-153.94264
1067812500,-42.644547,12.981311,-68.159851,-27.603991,-31.266449,-15.063947,-12.003093,-156.73029
1068906250,-42.480995,17.255913,-85.099579,77.981056,-31.130793,-18.497271,-12.030427,-159.29518
1070000000,-42.186428,16.517717,-77.32695,-89.862572,-31.109373,-20.121227,-12.031527,-161.83186
1071093750,-42.379597,19.406811,-70.140594,41.154099,-31.044559,-22.714197,-12.047115,-164.59317
1072187500,-42.802349,16.964495,-81.021461,-109.99871,-31.071259,-26.060171,-12.071856,-167.23335
1073281250,-42.6591,20.875887,-74.119316,-88.537659,-31.125507,-29.485117,-12.062167,-169.96104
1074375000,-42.344753,24.118452,-73.200531,131.94795,-31.060688,-30.923515,-12.08662,-172.63449
1075468750,-42.717495,23.167755,-75.958542,-138.28035,-31.065357,-35.387959,-12.084125,-175.29233
1076562500,-42.63274,22.044357,-71.39225,-155.1721,-31.061646,-37.65567,-12.102015,-177.9171
1077656250,-43.676414,25.973785,-77.638374,48.983868,-31.158667,-41.045513,-12.084407,179.44881
1078750000,-43.198383,22.839039,-77.868904,157.38953,-31.034288,-43.856586,-12.091937,176.85558
1079843750,-43.387566,24.115259,-89.270073,-2.8002262,-31.101875,-46.473804,-12.084899,174.28644
1080937500,-43.681835,27.495411,-72.123344,-115.74227,-31.044537,-48.297062,-12.107395,171.57494
1082031250,-44.110958,23.731556,-79.449913,-17.333008,-31.013802,-52.671391,-12.105504,169.12451
1083125000,-43.984043,20.850376,-73.954636,-109.80122,-31.007708,-54.440376,-12.110226,166.71089
1084218750,-44.256062,22.953619,-70.407158,-159.04208,-31.075626,-57.266365,-12.114104,164.08127
1085312500,-44.007195,16.652313,-69.837341,35.733322,-31.284094,-59.990166,-12.134734,161.51628
1086406250,-43.766159,17.516537,-71.526146,-159.0638,-31.188465,-63.342197,-12.153752,159.01219
1087500000,-44.11721,16.305,-74.539841,162.80385,-31.226103,-66.169678,-12.175133,156.51169
1088593750,-44.223259,12.261935,-69.099884,-61.178005,-31.062729,-69.53598,-12.182055,153.97018
1089687500,-44.009769,10.87963,-78.169411,-143.46762,-31.079327,-71.75647,-12.215692,151.34401
1090781250,-43.435204,15.207184,-74.182991,138.63951,-30.93779,-74.190407,-12.232498,148.61763
1091875000,-43.444576,11.679063,-72.837082,-35.105156,-31.113895,-76.717796,-12.258868,146.08907
1092968750,-43.194584,11.774158,-77.277199,112.10451,-31.120419,-80.584991,-12.287189,143.50053
1094062500,-42.83289,12.828179,-78.348015,-23.678658,-31.098309,-82.341187,-12.311131,140.75114
1095156250,-42.767052,12.551229,-80.54068,-59.460335,-31.047779,-85.640663,-12.346693,138.08598
1096250000,-42.576145,14.105141,-70.574303,2.6682286,-30.99601,-88.857819,-12.327353,135.34996
1097343750,-42.387444,13.86983,-68.999809,60.707588,-31.019213,-91.448341,-12.367579,132.77428
1098437500,-42.599007,17.817707,-80.343536,-79.886604,-31.007292,-94.85788,-12.389651,130.00099
1099531250,-42.721436,16.562559,-73.359009,-23.787611,-31.064415,-97.246544,-12.399863,127.39956
1100625000,-42.637688,16.600578,-75.259781,92.3396,-30.978785,-99.112221,-12.359398,124.67918
1101718750,-42.634029,19.011499,-83.860123,-114.70692,-31.023369,-104.12836,-12.380183,122.02024
1102812500,-43.011467,20.139284,-72.754585,135.86185,-30.96142,-106.29081,-12.412821,119.40472
1103906250,-42.942608,21.421919,-68.171982,146.15947,-30.923456,-108.8252,-12.396507,116.87093
1105000000,-43.005268,22.340815,-88.049309,-6.1253986,-30.949299,-112.10316,-12.390611,114.2574
1106093750,-42.960289,23.227076,-68.347748,71.417618,-31.015856,-113.62466,-12.408625,111.70901
1107187500,-43.075527,21.093313,-71.19841,14.090036,-30.986345,-117.12676,-12.404534,109.30737
1108281250,-43.503922,19.740225,-83.188362,140.76247,-30.968754,-119.60839,-12.434494,106.9629
1109375000,-43.711243,22.657257,-80.013725,-144.81897,-31.066957,-121.5646,-12.460917,104.10949
1110468750,-43.809017,21.291748,-68.27066,67.479172,-31.179865,-125.74605,-12.461085,101.71705
1111562500,-44.29446,18.189915,-72.206993,11.400585,-30.878746,-127.85612,-12.505,99.311447
1112656250,-44.219421,19.552736,-80.44886,-144.78841,-30.992243,-130.67442,-12.517547,96.594978
1113750000,-44.03817,17.033108,-83.433838,89.199112,-30.885853,-134.22849,-12.556674,94.099648
1114843750,-43.923431,11.879762,-70.973083,171.8349,-31.096962,-136.03448,-12.582346,91.257568
1115937500,-43.812408,12.656417,-73.785461,161.0766,-30.93289,-139.54378,-12.619814,88.800346
1117031250,-44.023357,9.9067631,-71.217819,138.39078,-30.998272,-142.01004,-12.635498,86.01722
1118125000,-43.353088,9.3509607,-70.338341,-176.49367,-31.121168,-145.24959,-12.660126,83.29229
1119218750,-43.423428,10.419819,-80.399216,50.555885,-30.876431,-147.83148,-12.672709,80.676811
1120312500,-43.399933,6.9945669,-73.390602,-155.55565,-30.976221,-151.57248,-12.71107,77.968147
1121406250,-42.948181,9.5741072,-78.937424,7.8210826,-31.075672,-154.7415,-12.715661,75.148041
1122500000,-42.602634,9.9217091,-68.546425,58.732216,-30.875616,-157.4012,-12.716832,72.594727
1123593750,-42.664124,11.943599,-78.889549,-174.30724,-30.946388,-159.95168,-12.696344,69.780098
1124687500,-41.943138,11.714571,-73.043625,-111.40245,-30.907276,-162.67619,-12.722631,67.133774
1125781250,-42.127445,13.928789,-72.279602,-7.4153137,-30.921637,-165.65283,-12.715295,64.412979
1126875000,-42.115711,13.166448,-73.138397,27.94409,-31.030743,-168.39392,-12.718722,61.851311
1127968750,-41.606216,13.051027,-69.731567,-152.93935,-30.963442,-171.42992,-12.735808,59.245388
1129062500,-41.817673,16.601391,-72.607086,-63.695908,-30.839964,-174.57419,-12.731263,56.747093
1130156250,-41.90374,18.659641,-70.261658,-114.33749,-30.845041,-177.05611,-12.75151,54.126423
1131250000,-41.727158,20.446609,-75.687584,-177.7486,-30.911253,-179.15877,-12.740437,51.675907
1132343750,-42.074436,18.488894,-75.701309,-68.964912,-30.864557,178.43393,-12.741857,49.043697
1133437500,-41.781059,24.179197,-72.904137,-69.36232,-30.895754,174.36757,-12.742625,46.571976
1134531250,-42.053108,22.626913,-78.706329,160.18678,-30.999956,172.26749,-12.773941,44.025921
1135625000,-42.539463,24.469345,-74.152977,133.21812,-30.946135,169.16821,-12.791898,41.459873
1136718750,-42.482414,27.979052,-67.253929,-43.129078,-30.930927,167.06892,-12.801596,39.009418
1137812500,-42.947338,25.470818,-75.917778,-127.79282,-30.824108,162.13995,-12.841269,36.400761
1138906250,-43.678154,23.635181,-69.895935,-126.12499,-30.850994,161.345,-12.867748,33.683704
1140000000,-43.477016,25.286341,-72.148407,35.878212,-30.994823,158.77112,-12.892875,31.114357
1141093750,-43.845016,23.916975,-77.348602,-100.45171,-30.866028,154.39018,-12.907592,28.583218
1142187500,-44.141598,21.804264,-73.547516,12.69362,-30.862411,152.85199,-12.9412,25.854546
1143281250,-44.545376,24.450621,-86.963882,64.269691,-30.919506,149.2668,-12.957236,23.230829
1144375000,-44.025047,19.926706,-72.642067,-115.60679,-30.975485,146.77921,-12.984878,20.551798
1145468750,-43.901833,14.760155,-72.038261,-120.26063,-30.820074,142.72757,-12.996722,17.780376
1146562500,-43.718929,14.387147,-73.014046,-117.48512,-30.758192,140.70972,-12.994591,15.08263
1147656250,-43.857189,12.881773,-76.277969,172.76422,-30.901421,138.40208,-13.013026,12.384804
1148750000,-43.53009,12.601584,-72.554955,-173.1954,-30.863674,134.63983,-13.014462,9.749217
1149843750,-43.310852,11.50421,-83.026955,36.797821,-30.969215,132.59851,-13.004155,7.1093802
1150937500,-43.065712,9.5772486,-71.313416,133.17279,-30.821136,129.21133,-13.012862,4.5004315
1152031250,-42.50761,14.709847,-91.053909,33.082561,-30.876047,126.92924,-12.988738,1.9100398
1153125000,-42.817337,13.355463,-73.987541,56.173157,-30.861912,123.50595,-13.011082,-0.66249377
1154218750,-42.472477,12.941748,-79.419853,47.819977,-30.875795,121.1364,-12.994791,-3.2592664
1155312500,-42.111736,13.655731,-65.672478,155.13232,-30.871567,118.42812,-13.026614,-5.706903
1156406250,-41.985847,14.707971,-79.09008,-0.13217744,-30.800314,114.98299,-13.011067,-8.0877705
1157500000,-42.410618,14.598078,-77.830917,-87.035416,-31.018047,112.11137,-13.030752,-10.757461
1158593750,-41.843491,18.260206,-73.956429,-126.06423,-30.680254,109.25368,-13.055472,-13.155604
1159687500,-42.017708,18.38039,-67.71685,-44.522987,-30.773386,106.61585,-13.061975,-15.686674
1160781250,-41.875256,20.161026,-72.026665,6.8190751,-30.901163,103.98167,-13.104539,-18.028061
1161875000,-42.033875,20.39053,-76.278038,-152.57944,-30.864899,101.30013,-13.13131,-20.679594
1162968750,-41.897793,22.254843,-80.850899,179.46233,-30.878443,98.672089,-13.170072,-23.322351
1164062500,-42.169987,22.519024,-70.449295,-86.506073,-30.976305,96.023773,-13.185648,-26.000347
1165156250,-42.490269,25.293184,-64.680466,138.78749,-30.809036,92.258682,-13.231416,-28.442844
1166250000,-42.472336,21.230988,-68.466927,-51.046921,-30.780947,90.012054,-13.25372,-31.169193
1167343750,-43.158375,28.255285,-72.132355,-4.0561581,-30.732573,87.379105,-13.293945,-33.864399
1168437500,-43.31794,23.689165,-76.842133,84.965187,-30.976549,83.674904,-13.29854,-36.472664
1169531250,-43.787373,26.134027,-73.523689,24.931715,-30.86179,81.092056,-13.294375,-39.236191
1170625000,-43.486271,25.622469,-76.065025,2.9586475,-30.906317,78.105598,-13.328938,-41.952442
1171718750,-43.128441,22.226694,-80.960022,-20.410078,-30.786457,74.473763,-13.317608,-44.623672
1172812500,-43.746353,19.75186,-76.586472,-160.33661,-30.724463,71.679771,-13.321901,-47.18158
1173906250,-43.72546,20.715626,-77.041962,164.54865,-30.867659,70.180725,-13.34172,-49.905582
1175000000,-43.622505,19.088295,-68.716805,-157.56833,-30.766806,66.674469,-13.328094,-52.647221
1176093750,-43.754467,18.166004,-75.46447,-139.72343,-30.854187,64.821396,-13.329916,-55.06921
1177187500,-43.535435,18.54896,-84.479607,113.31769,-30.770069,61.739407,-13.33761,-57.880417
1178281250,-43.605,19.411413,-68.439255,-93.945938,-30.738329,57.97966,-13.338058,-60.109013
1179375000,-43.643589,18.558672,-71.155357,-169.59933,-30.824524,55.544281,-13.326463,-62.70451
1180468750,-43.490505,18.265898,-84.681961,-179.07227,-30.846436,52.877716,-13.344255,-65.380234
1181562500,-43.204014,17.269112,-78.149399,9.5382175,-30.66531,49.435825,-13.348452,-67.694527
1182656250,-42.949257,14.979675,-68.986992,-157.95073,-30.78883,46.431446,-13.377836,-70.009178
1183750000,-42.986492,18.053659,-71.127113,-24.983437,-30.941532,43.778168,-13.411267,-72.534119
1184843750,-42.990616,17.639051,-70.213631,14.5502,-30.896677,41.822788,-13.434963,-75.019196
1185937500,-42.787514,16.144964,-68.355484,-18.032925,-30.78281,38.361504,-13.457661,-77.448769
1187031250,-43.573986,19.499638,-68.735428,85.523643,-30.79627,35.023418,-13.480103,-80.100677
1188125000,-43.358463,20.271242,-82.063545,-54.926285,-30.75655,32.244053,-13.526313,-82.662598
1189218750,-43.604988,18.571138,-73.370491,142.14612,-30.664011,29.985085,-13.568328,-85.201721
1190312500,-43.614983,19.814814,-68.757614,-169.59232,-30.640678,26.878695,-13.589143,-87.733055
1191406250,-43.610367,20.058332,-74.830368,-30.3969,-30.767179,25.320082,-13.615234,-90.333656
1192500000,-43.783741,19.848524,-70.26535,-114.34412,-30.796074,21.418812,-13.633751,-92.987236
1193593750,-43.567638,20.622818,-71.800179,38.801441,-30.731888,18.05373,-13.683689,-95.760178
1194687500,-44.140949,21.487432,-75.888252,95.312469,-30.695385,15.462136,-13.701116,-98.367271
1195781250,-44.378693,19.81382,-78.313957,146.16661,-30.780388,13.410969,-13.695684,-100.82359
1196875000,-44.395138,15.475853,-69.301811,103.84419,-30.778517,10.265442,-13.711293,-103.70794
1197968750,-44.396721,14.488992,-73.570724,-56.425377,-30.760227,6.8944921,-13.732615,-106.17736
1199062500,-44.548698,12.763232,-70.750328,-49.289028,-30.679682,3.8591552,-13.748109,-108.78352
1200156250,-44.464458,10.638503,-83.446388,79.670082,-30.740669,1.3281052,-13.751893,-111.27976
1201250000,-43.50246,12.497646,-97.886108,-23.917194,-30.830736,-1.9514416,-13.770586,-113.78841
1202343750,-43.699574,8.5184565,-78.755318,-39.975113,-30.789143,-4.2884784,-13.775843,-116.47213
1203437500,-43.75745,7.1740918,-73.438454,-13.295583,-30.700647,-6.3889308,-13.78008,-118.92945
1204531250,-43.527035,6.6536579,-67.736282,80.268074,-30.782959,-10.251149,-13.783673,-121.39625
1205625000,-42.842598,7.4512234,-69.228867,-79.059639,-30.707899,-12.386832,-13.818686,-123.88974
1206718750,-42.447674,9.0602951,-75.125,36.169987,-30.871754,-15.357067,-13.848262,-126.34241
1207812500,-42.599762,7.8583503,-70.389771,68.646332,-30.650394,-19.068373,-13.869465,-128.84302
1208906250,-41.827,6.1606112,-80.704651,-41.016171,-30.728546,-21.079569,-13.906723,-131.30658
1210000000,-41.929844,9.390316,-80.373367,-112.71452,-30.904865,-24.738392,-13.955321,-133.82152
1211093750,-41.758263,12.018798,-71.553619,19.912109,-30.734732,-26.699615,-13.995089,-136.29662
1212187500,-41.420502,12.498914,-71.696487,-97.732414,-30.621897,-29.297157,-14.043531,-138.89253
1213281250,-41.467819,12.44365,-86.812881,-163.34361,-30.698988,-32.792706,-14.0994,-141.55205
1214375000,-41.564884,15.647503,-82.279823,-115.14412,-30.80217,-35.72929,-14.12664,-144.02425
1215468750,-41.310341,16.990582,-77.364471,-109.97883,-30.65852,-38.406658,-14.17662,-146.52606
1216562500,-41.336491,18.010046,-80.421021,-109.2456,-30.742069,-41.12447,-14.196058,-149.33923
1217656250,-41.485783,21.464003,-80.757416,136.07692,-30.620588,-44.242546,-14.227562,-151.92606
1218750000,-41.685555,22.556698,-71.865303,-116.94893,-30.591579,-46.653938,-14.270911,-154.74472
1219843750,-41.894699,24.215845,-79.878708,76.554375,-30.676611,-50.107189,-14.315887,-157.25131
1220937500,-41.966778,25.662912,-73.176216,66.773621,-30.51004,-51.575287,-14.311943,-159.98917
1222031250,-42.521717,23.602695,-80.425659,91.55233,-30.617418,-55.36594,-14.350746,-162.77502
