!CSV A.01.01
!Agilent Technologies,N5222A,MY51421451,A.09.90.02
!Agilent N5222A: A.09.90.02
!Date: Saturday, March 15, 2014 15:04:06
!Source: Standard

BEGIN CH1_DATA
Freq(Hz),S11(DB),S11(DEG),S12(DB),S12(DEG),S21(DB),S21(DEG),S22(DB),S22(DEG)
1000000000,-37.397095,-1.4501139,-0.83124566,88.36322,-0.83139229,88.366417,-39.1381,-52.318798
1001093750,-37.435917,0.6332162,-0.83261222,87.289742,-0.83225006,87.27478,-38.75787,-55.666485
1002187500,-37.396633,1.2044727,-0.83328557,86.207703,-0.8320334,86.198692,-38.327408,-58.04335
1003281250,-37.323811,1.7984272,-0.83287394,85.129028,-0.83457851,85.110741,-37.993912,-61.236313
1004375000,-37.338905,2.6816151,-0.83357877,84.035927,-0.83403647,84.034439,-37.589378,-61.699551
1005468750,-37.226746,2.8229065,-0.83385259,82.9692,-0.83557063,82.948364,-37.449963,-63.840126
1006562500,-37.02824,4.1787367,-0.83510679,81.881462,-0.83385694,81.869652,-37.201126,-64.559113
1007656250,-37.023445,4.110724,-0.83501101,80.79277,-0.83565986,80.78849,-36.888927,-65.261162
1008750000,-36.864014,4.6083212,-0.83525205,79.710022,-0.83604646,79.706703,-36.80275,-66.243553
1009843750,-36.981728,5.0327506,-0.8358683,78.631279,-0.83738267,78.630547,-36.587479,-67.541588
1010937500,-36.785229,5.3569803,-0.83697152,77.555054,-0.83729458,77.551033,-36.462486,-69.170471
1012031250,-36.85849,5.6603637,-0.83711475,76.477501,-0.83635896,76.458054,-36.572781,-71.413086
1013125000,-36.957138,5.9239764,-0.83753371,75.385834,-0.83745474,75.384628,-36.500919,-72.774498
1014218750,-37.065811,6.5534034,-0.83776593,74.304993,-0.83742684,74.300018,-36.459568,-74.51239
1015312500,-37.206932,7.4760861,-0.83721685,73.220207,-0.83997679,73.219086,-36.564182,-77.14682
1016406250,-37.287102,7.9742708,-0.83878881,72.1464,-0.83892614,72.135872,-36.346676,-79.634583
1017500000,-37.497154,9.5206003,-0.84005594,71.061806,-0.83916432,71.048103,-36.531979,-82.046967
1018593750,-37.624214,9.369235,-0.83858168,69.97834,-0.8408078,69.968475,-36.460949,-86.059715
1019687500,-37.792526,10.386889,-0.8401047,68.897316,-0.83954293,68.889641,-36.5742,-88.234825
1020781250,-37.792759,11.679186,-0.84066713,67.818939,-0.84096259,67.8078,-36.369324,-91.514214
1021875000,-37.918289,13.529014,-0.84059703,66.725693,-0.84304428,66.729729,-36.208725,-95.042831
1022968750,-37.955673,14.997651,-0.84158576,65.653992,-0.84047872,65.64637,-35.969521,-97.174858
1024062500,-37.965122,15.849126,-0.84211332,64.572075,-0.84225619,64.560951,-35.782341,-100.07495
1025156250,-37.87516,16.7565,-0.84214646,63.480873,-0.8423422,63.472069,-35.611099,-101.91969
1026250000,-37.752243,17.553392,-0.84320629,62.400806,-0.84357297,62.402397,-35.355942,-103.84511
1027343750,-37.688869,18.375244,-0.84381765,61.327942,-0.84308559,61.300682,-35.163864,-105.51618
1028437500,-37.415348,18.553873,-0.84414631,60.246983,-0.84463477,60.238274,-34.843945,-106.74877
1029531250,-37.351067,18.922806,-0.84467447,59.158249,-0.84396195,59.151985,-34.727547,-107.79278
1030625000,-37.050484,19.26248,-0.84433872,58.089592,-0.84427094,58.058529,-34.498306,-109.40417
1031718750,-36.926182,18.982204,-0.84576881,56.993935,-0.84593147,56.999813,-34.269859,-110.1047
1032812500,-36.631989,19.658447,-0.8453868,55.918583,-0.84700316,55.910484,-34.167152,-110.89227
1033906250,-36.487526,18.977219,-0.84572613,54.834969,-0.84654421,54.818619,-34.106743,-112.06535
1035000000,-36.361694,18.486191,-0.84662694,53.747585,-0.84763247,53.741169,-33.926968,-113.01725
1036093750,-36.19611,19.075024,-0.84727961,52.671776,-0.84692496,52.66082,-33.974575,-113.93194
1037187500,-36.178616,19.543888,-0.84914613,51.589714,-0.84785503,51.574837,-33.942654,-115.5706
1038281250,-36.04406,19.630144,-0.84893864,50.506187,-0.84713447,50.501976,-33.973438,-116.32103
1039375000,-36.025635,20.293009,-0.84875321,49.427521,-0.85034364,49.416988,-33.99057,-117.62184
1040468750,-36.052635,20.95682,-0.85000879,48.342438,-0.85004753,48.335674,-33.976624,-120.31052
1041562500,-36.07621,22.154276,-0.84993625,47.259197,-0.84967214,47.24651,-34.054611,-122.49387
1042656250,-36.12849,23.239141,-0.84947127,46.181427,-0.84934318,46.159409,-34.066353,-125.39362
1043750000,-36.132118,24.002987,-0.8515498,45.099945,-0.84989285,45.088219,-34.070328,-128.065
1044843750,-36.091694,25.89677,-0.85086668,44.015694,-0.85109943,44.007553,-34.03537,-130.39096
1045937500,-36.053997,27.031269,-0.85211617,42.930893,-0.85077566,42.923618,-34.021992,-133.28175
1047031250,-36.025475,27.753206,-0.85084242,41.852806,-0.85234052,41.839996,-33.972782,-135.95987
1048125000,-35.903694,28.756842,-0.85159719,40.765923,-0.85259378,40.76265,-33.864006,-138.03777
1049218750,-35.897591,29.662075,-0.85278076,39.697807,-0.85429507,39.67038,-33.778065,-141.03169
1050312500,-35.744122,30.542486,-0.85284191,38.602997,-0.85464489,38.598843,-33.705959,-142.88417
1051406250,-35.662952,31.441338,-0.85504085,37.5317,-0.85206288,37.516045,-33.483521,-144.85823
1052500000,-35.537025,31.10364,-0.85403055,36.437492,-0.85540247,36.434082,-33.370884,-147.02388
1053593750,-35.415829,31.433214,-0.8555885,35.360485,-0.85518438,35.354576,-33.231335,-148.50874
1054687500,-35.230133,30.797169,-0.85443777,34.275639,-0.85497338,34.272854,-33.18322,-149.8783
1055781250,-35.21833,30.544022,-0.85558945,33.192307,-0.85711008,33.187111,-33.013752,-150.72815
1056875000,-35.086613,29.825592,-0.8567996,32.117531,-0.85715503,32.115479,-32.976101,-151.92319
1057968750,-34.897953,29.429028,-0.8579365,31.031008,-0.85731077,31.014475,-32.894733,-153.04253
1059062500,-34.814289,28.856089,-0.8582325,29.956762,-0.85907006,29.939999,-32.829876,-153.66216
1060156250,-34.707375,28.200014,-0.85777909,28.872948,-0.85888064,28.864159,-32.84259,-154.91884
1061250000,-34.608749,27.093025,-0.85895884,27.788425,-0.85860062,27.783892,-32.815975,-156.22742
1062343750,-34.515377,27.278193,-0.85948408,26.704182,-0.85886341,26.702271,-32.83942,-157.04761
1063437500,-34.50193,26.646389,-0.85775524,25.625271,-0.85966384,25.613602,-32.876987,-157.87248
1064531250,-34.465553,26.789845,-0.85991699,24.546555,-0.86038172,24.52858,-32.99041,-159.70241
1065625000,-34.405117,26.457451,-0.86021864,23.46209,-0.85940683,23.451792,-33.066036,-161.76799
1066718750,-34.309135,26.935053,-0.85957146,22.382421,-0.86238676,22.372171,-33.154606,-163.70972
1067812500,-34.331379,27.216963,-0.86219531,21.296366,-0.86116087,21.289375,-33.21661,-165.69475
1068906250,-34.201397,28.071669,-0.86267614,20.228254,-0.86267042,20.217196,-33.243938,-168.15974
1070000000,-34.127785,28.181673,-0.86098963,19.13442,-0.86291307,19.129732,-33.346642,-170.59291
1071093750,-34.053265,29.486645,-0.86232764,18.049599,-0.8639493,18.048082,-33.380077,-173.74831
1072187500,-33.977116,30.330524,-0.86302513,16.980711,-0.86409879,16.956921,-33.218468,-176.63194
1073281250,-33.861843,30.7854,-0.86340564,15.889807,-0.86486387,15.880609,-33.252666,-178.73364
1074375000,-33.767689,31.290377,-0.86404139,14.814177,-0.86455262,14.794878,-33.130306,178.37987
1075468750,-33.641129,31.971123,-0.86541355,13.726638,-0.86420125,13.719421,-33.104576,175.91739
1076562500,-33.598999,31.759529,-0.86455458,12.644426,-0.86506838,12.629551,-32.986027,173.56738
1077656250,-33.432175,31.737669,-0.86503214,11.561314,-0.86685652,11.558738,-32.94614,171.57933
1078750000,-33.372604,32.095654,-0.86592197,10.505199,-0.86651003,10.475547,-32.848068,169.14264
1079843750,-33.271809,32.031647,-0.86621261,9.3967991,-0.86649734,9.3989916,-32.649742,168.21703
1080937500,-33.174797,31.867464,-0.86886275,8.3251152,-0.86720741,8.3189287,-32.695461,166.47974
1082031250,-33.092342,30.585814,-0.86799926,7.241538,-0.86812532,7.2270446,-32.609779,165.39876
1083125000,-33.027206,30.380873,-0.86827302,6.1538243,-0.86715049,6.1504025,-32.562313,163.56883
1084218750,-32.983292,29.807653,-0.86960536,5.0787396,-0.86943501,5.0689034,-32.550335,162.52287
1085312500,-32.948151,28.894648,-0.8698796,3.9939084,-0.86990601,3.9883742,-32.583141,161.34715
1086406250,-32.893883,28.156775,-0.86897284,2.9116704,-0.86973727,2.9021289,-32.642025,160.11491
1087500000,-32.805622,27.949221,-0.87082815,1.8364046,-0.87044877,1.8305769,-32.62006,159.04257
1088593750,-32.785622,27.17424,-0.87022865,0.75604051,-0.87173957,0.73934436,-32.826912,157.41348
1089687500,-32.788612,26.767439,-0.87092918,-0.32705927,-0.8714059,-0.33948094,-32.90731,155.94084
1090781250,-32.776524,26.555189,-0.8716132,-1.4159951,-0.87139887,-1.4056306,-32.929798,154.11198
1091875000,-32.660328,26.608835,-0.87146312,-2.4985764,-0.87364626,-2.4926565,-33.039486,152.31584
1092968750,-32.614819,26.414759,-0.87190825,-3.5766907,-0.87435126,-3.5788565,-33.139309,149.76018
1094062500,-32.545418,26.249863,-0.872329,-4.6595492,-0.8735407,-4.6563988,-33.214165,147.22992
1095156250,-32.481789,26.52076,-0.87308067,-5.7389765,-0.87385225,-5.7420363,-33.21904,144.40581
1096250000,-32.37796,27.053679,-0.87452871,-6.8189559,-0.87587738,-6.83006,-33.207588,142.11711
1097343750,-32.279987,27.043554,-0.87398237,-7.8980031,-0.87598908,-7.9090648,-33.126217,138.71249
1098437500,-32.135403,27.80695,-0.87469494,-8.9834776,-0.87467521,-8.983283,-33.122646,135.75714
1099531250,-32.118816,27.880083,-0.87548947,-10.063713,-0.8757807,-10.080934,-33.074856,133.35724
1100625000,-32.019241,27.780554,-0.87515551,-11.153152,-0.87637526,-11.150051,-33.085461,130.59879
1101718750,-31.921577,28.068663,-0.876149,-12.228307,-0.87601006,-12.231698,-32.913502,128.14299
1102812500,-31.857389,27.953953,-0.87764895,-13.304365,-0.87790728,-13.308176,-32.802322,126.30895
1103906250,-31.758175,27.763416,-0.87714899,-14.385458,-0.87737137,-14.400245,-32.727985,124.23501
1105000000,-31.661488,27.375891,-0.87635612,-15.472001,-0.87797338,-15.478678,-32.636852,122.66784
1106093750,-31.588696,27.042114,-0.87892693,-16.553135,-0.8789556,-16.56451,-32.534538,120.56097
1107187500,-31.600245,26.098427,-0.8777172,-17.635298,-0.87901264,-17.63674,-32.555862,119.44803
1108281250,-31.547096,25.290295,-0.87928784,-18.718891,-0.87877756,-18.721123,-32.522022,117.78082
1109375000,-31.527254,24.800787,-0.88036257,-19.797464,-0.87907547,-19.801077,-32.568485,116.70084
1110468750,-31.496971,24.035864,-0.88084805,-20.8708,-0.87948287,-20.886129,-32.575565,115.22968
1111562500,-31.500364,23.25461,-0.88082218,-21.958267,-0.88180208,-21.966959,-32.733925,114.00803
1112656250,-31.50701,22.349695,-0.88150388,-23.039318,-0.88113475,-23.050488,-32.785583,113.19772
1113750000,-31.524164,21.92075,-0.8817988,-24.12328,-0.88141668,-24.137375,-32.860638,111.21848
1114843750,-31.528872,21.113684,-0.88275564,-25.193949,-0.88243866,-25.203178,-33.003044,109.69402
1115937500,-31.538626,20.801817,-0.88171291,-26.282351,-0.88209105,-26.286783,-33.178841,107.66089
1117031250,-31.544752,20.567646,-0.88198799,-27.357332,-0.88469064,-27.367764,-33.281555,105.43668
1118125000,-31.475725,20.123804,-0.88341975,-28.441801,-0.88292938,-28.452026,-33.426388,102.82046
1119218750,-31.480339,20.086613,-0.88372755,-29.528133,-0.88401294,-29.524517,-33.471592,100.30338
1120312500,-31.427872,20.027275,-0.88451487,-30.603592,-0.88369471,-30.620161,-33.483643,97.021988
1121406250,-31.369984,19.892849,-0.8846935,-31.693335,-0.88420296,-31.697174,-33.492393,93.987503
1122500000,-31.280226,20.301502,-0.88582814,-32.767906,-0.88574958,-32.780762,-33.428078,90.975693
1123593750,-31.137981,20.431883,-0.88541549,-33.85611,-0.88579571,-33.862396,-33.292278,87.883766
1124687500,-31.045019,20.97813,-0.88602602,-34.936825,-0.88648337,-34.93829,-33.132721,84.786934
1125781250,-30.956356,21.047523,-0.88643217,-36.010277,-0.88703543,-36.02187,-32.998814,82.044884
1126875000,-30.896048,20.825798,-0.88662809,-37.101364,-0.886935,-37.10006,-32.928101,79.635452
1127968750,-30.747389,20.782207,-0.88710392,-38.169952,-0.88890666,-38.184959,-32.710094,76.429787
1129062500,-30.686476,20.989923,-0.88794291,-39.248512,-0.88923907,-39.268864,-32.697582,74.454323
1130156250,-30.630789,21.014029,-0.89009476,-40.344349,-0.88777226,-40.340328,-32.480877,72.416176
1131250000,-30.540998,20.564215,-0.88921857,-41.426308,-0.88899755,-41.432625,-32.430737,70.859566
1132343750,-30.504049,20.110962,-0.88930953,-42.495903,-0.88962853,-42.511612,-32.306248,68.346672
1133437500,-30.459776,19.889837,-0.89116764,-43.581562,-0.89056873,-43.598953,-32.313786,66.879555
1134531250,-30.430019,19.687391,-0.88988763,-44.656807,-0.89189291,-44.666126,-32.286644,65.241714
1135625000,-30.453365,18.637949,-0.89122951,-45.740845,-0.89131904,-45.74913,-32.352364,63.9529
1136718750,-30.481224,18.374184,-0.89131612,-46.823578,-0.89157254,-46.83123,-32.43063,62.329521
1137812500,-30.54616,18.066076,-0.8923521,-47.906288,-0.89198709,-47.911537,-32.452454,60.753262
1138906250,-30.570896,17.052271,-0.89284319,-48.980595,-0.89132392,-48.990486,-32.57011,58.79565
1140000000,-30.648466,16.621304,-0.89248109,-50.066444,-0.89085108,-50.079681,-32.725109,57.107891
1141093750,-30.724997,16.07196,-0.89298058,-51.149105,-0.89332628,-51.158913,-32.801113,55.245941
1142187500,-30.77211,15.77202,-0.89248896,-52.229267,-0.89321589,-52.237972,-32.844391,52.830563
1143281250,-30.775492,15.416832,-0.89417928,-53.314625,-0.89542669,-53.327175,-32.848282,50.186604
1144375000,-30.803452,14.971399,-0.8943218,-54.392914,-0.89361209,-54.416885,-33.003315,47.473854
1145468750,-30.806114,14.761958,-0.89351445,-55.483845,-0.89472675,-55.484287,-32.977001,44.953709
1146562500,-30.762106,14.597466,-0.89422584,-56.563141,-0.89494812,-56.573921,-33.018795,42.2691
1147656250,-30.746716,14.450268,-0.8963322,-57.63102,-0.89670306,-57.642807,-32.90929,39.02713
1148750000,-30.647516,14.328998,-0.89515001,-58.71331,-0.89629048,-58.72435,-32.806099,36.14476
1149843750,-30.559622,14.057043,-0.89631081,-59.796974,-0.89785671,-59.810322,-32.715786,33.478062
1150937500,-30.542158,14.019332,-0.89631432,-60.882381,-0.89869314,-60.898193,-32.506184,31.378145
1152031250,-30.388935,13.737424,-0.89544821,-61.960514,-0.89741069,-61.983162,-32.370708,28.745327
1153125000,-30.313095,13.416388,-0.89779645,-63.052223,-0.89792919,-63.044575,-32.183807,26.866262
1154218750,-30.178167,13.428336,-0.89700258,-64.130402,-0.89919585,-64.143181,-31.986071,25.121284
1155312500,-30.146339,12.824624,-0.8995803,-65.20401,-0.89766878,-65.216286,-31.860189,23.16736
1156406250,-30.031435,12.645913,-0.89867187,-66.281555,-0.89882028,-66.296379,-31.707415,21.50425
1157500000,-29.975346,11.858031,-0.89978331,-67.366287,-0.89935303,-67.368484,-31.565575,20.179964
1158593750,-29.969955,11.991431,-0.89961541,-68.449791,-0.90016454,-68.463539,-31.517212,19.089695
1159687500,-29.892637,11.190581,-0.90011251,-69.537819,-0.9017902,-69.52639,-31.53792,17.675594
1160781250,-29.909943,10.57856,-0.90099454,-70.604836,-0.90162486,-70.620697,-31.522289,15.158623
1161875000,-29.986256,10.230659,-0.90248096,-71.685722,-0.90189266,-71.706047,-31.542789,14.205874
1162968750,-29.994614,9.8335829,-0.90249228,-72.764053,-0.90480322,-72.775383,-31.534128,12.555133
1164062500,-30.034422,9.5984306,-0.90404314,-73.853004,-0.90268213,-73.864967,-31.621511,10.934543
1165156250,-30.107218,9.0005684,-0.9044193,-74.942314,-0.90317976,-74.940506,-31.750261,8.9224415
1166250000,-30.185808,8.8142223,-0.90397245,-76.003639,-0.90380561,-76.021881,-31.805136,6.7753029
1167343750,-30.290251,8.3902788,-0.90289265,-77.088348,-0.9042744,-77.106987,-31.985001,4.6820207
1168437500,-30.290054,8.1047001,-0.9032768,-78.175797,-0.90547591,-78.19136,-32.039104,2.3697515
1169531250,-30.388073,8.3960066,-0.90538555,-79.253738,-0.90330452,-79.264526,-32.086872,-0.62970316
1170625000,-30.39151,8.1167336,-0.90510315,-80.337227,-0.90485263,-80.353317,-32.097897,-3.1754327
1171718750,-30.473354,7.9613533,-0.90469617,-81.425423,-0.90520638,-81.424026,-32.051914,-6.5893464
1172812500,-30.471899,8.328517,-0.90479338,-82.495407,-0.90420812,-82.516647,-32.02985,-9.1249075
1173906250,-30.436293,8.1397581,-0.90556115,-83.582405,-0.90694225,-83.591881,-31.985041,-11.674298
1175000000,-30.390865,8.3499594,-0.90571135,-84.668373,-0.90670419,-84.675201,-31.850969,-14.516076
1176093750,-30.393223,8.0858345,-0.90776151,-85.753357,-0.90561807,-85.757629,-31.633501,-17.0383
1177187500,-30.26713,8.1999502,-0.90746534,-86.827522,-0.90732819,-86.846741,-31.51008,-19.471399
1178281250,-30.263891,8.1180611,-0.90736574,-87.912109,-0.90881056,-87.917953,-31.328602,-20.984402
1179375000,-30.194948,8.1534986,-0.90831745,-88.991798,-0.90886152,-89.003372,-31.177795,-23.322449
1180468750,-30.125135,7.5257435,-0.90914214,-90.07135,-0.9096005,-90.086899,-31.040224,-24.575396
1181562500,-30.062773,7.4165559,-0.9098593,-91.159218,-0.91014397,-91.163513,-30.859957,-26.174299
1182656250,-30.031691,7.2214274,-0.90900642,-92.238419,-0.91018379,-92.245941,-30.736912,-27.66753
1183750000,-29.994385,6.5329065,-0.91138393,-93.323883,-0.91107392,-93.303299,-30.625763,-28.735357
1184843750,-29.92547,5.9095531,-0.90943909,-94.398705,-0.91146666,-94.405571,-30.59445,-30.294996
1185937500,-29.888906,5.639843,-0.91105586,-95.47982,-0.91196674,-95.495857,-30.536478,-31.51828
1187031250,-29.995924,5.1961403,-0.91201013,-96.557732,-0.9119097,-96.570358,-30.570644,-33.246815
1188125000,-29.951435,4.3870406,-0.91206795,-97.645752,-0.91072732,-97.651505,-30.616001,-34.230389
1189218750,-30.044752,4.1534324,-0.91192925,-98.720062,-0.91230464,-98.731888,-30.628771,-36.007767
1190312500,-30.104181,3.3113875,-0.91226494,-99.799835,-0.91322935,-99.807709,-30.679863,-37.7267
1191406250,-30.129974,3.0446968,-0.91294169,-100.89476,-0.91191602,-100.88089,-30.712797,-39.015793
1192500000,-30.145321,2.6730485,-0.91430032,-101.971,-0.91305381,-101.98413,-30.764479,-40.93845
1193593750,-30.257153,2.5517445,-0.91412443,-103.04679,-0.91270125,-103.0588,-30.847822,-43.037731
1194687500,-30.269594,2.2956798,-0.91333973,-104.12638,-0.91445166,-104.14262,-30.838842,-45.547756
1195781250,-30.313574,2.1821196,-0.91307271,-105.2053,-0.91452855,-105.22508,-30.923138,-47.782215
1196875000,-30.328203,1.9847924,-0.91389918,-106.29837,-0.91465431,-106.30618,-30.890764,-49.977009
1197968750,-30.303469,1.6012341,-0.91665035,-107.37611,-0.91619438,-107.37818,-30.763393,-52.323112
1199062500,-30.328739,1.4542617,-0.91590548,-108.46241,-0.91564769,-108.46561,-30.739998,-54.515347
1200156250,-30.231541,1.1805385,-0.91493177,-109.54412,-0.91739988,-109.5475,-30.693951,-56.890862
1201250000,-30.129763,1.3658382,-0.91751486,-110.61987,-0.91693026,-110.63137,-30.522169,-58.998348
1202343750,-30.088446,1.3663723,-0.91598117,-111.69803,-0.91810048,-111.70951,-30.391411,-60.690685
1203437500,-30.008957,1.2335138,-0.91771352,-112.77839,-0.91903323,-112.78516,-30.156712,-62.97541
1204531250,-29.90304,0.87017053,-0.91748756,-113.85832,-0.91888577,-113.8711,-30.104616,-64.75164
1205625000,-29.854139,0.70912045,-0.918185,-114.93886,-0.9187566,-114.95456,-29.90271,-66.419212
1206718750,-29.736942,0.70203978,-0.91958106,-116.01992,-0.9198963,-116.03088,-29.817265,-67.817177
1207812500,-29.69013,0.258266,-0.91997552,-117.10319,-0.92014951,-117.11036,-29.638672,-69.05587
1208906250,-29.623787,0.34418622,-0.92100602,-118.18305,-0.92309803,-118.18912,-29.605244,-70.824287
1210000000,-29.597092,-0.035662856,-0.92167085,-119.26505,-0.92020541,-119.28728,-29.518404,-72.070465
1211093750,-29.558052,-0.013482494,-0.92123348,-120.34004,-0.92184436,-120.34948,-29.478659,-73.255898
1212187500,-29.536453,-0.38045779,-0.92240703,-121.42522,-0.92308998,-121.43507,-29.498125,-74.792847
1213281250,-29.583527,-0.62592441,-0.92300802,-122.50587,-0.92218375,-122.51996,-29.48131,-76.584183
1214375000,-29.615698,-0.92375267,-0.92234206,-123.57819,-0.9228636,-123.59712,-29.480419,-78.042702
1215468750,-29.663218,-0.96137315,-0.92168736,-124.66821,-0.92281717,-124.68184,-29.60302,-79.258614
1216562500,-29.736834,-1.0571154,-0.92302096,-125.74673,-0.92376447,-125.75667,-29.598816,-81.036659
