!CSV A.01.01
!Agilent Technologies,N5222A,MY51421451,A.09.90.02
!Agilent N5222A: A.09.90.02
!Date: Saturday, March 15, 2014 16:26:59
!Source: Standard

BEGIN CH1_DATA
Freq(Hz),S11(DB),S11(DEG),S12(DB),S12(DEG),S21(DB),S21(DEG),S22(DB),S22(DEG)
1000000000,-36.587513,-7.3418531,-23.774361,41.314075,-23.765631,41.305229,-30.851967,-54.661079
1001093750,-36.565189,-7.3387957,-23.772955,40.180046,-23.76795,40.157684,-30.787325,-55.765568
1002187500,-36.474205,-7.4342966,-23.768927,39.055595,-23.770052,39.017689,-30.72142,-56.80827
1003281250,-36.45261,-7.5330091,-23.775352,37.911289,-23.769081,37.882584,-30.657187,-57.774467
1004375000,-36.380627,-7.7676363,-23.776091,36.778942,-23.769253,36.759064,-30.583708,-58.524075
1005468750,-36.37534,-7.5623217,-23.777239,35.651131,-23.767878,35.628368,-30.542498,-59.21423
1006562500,-36.347641,-7.3619142,-23.775686,34.510818,-23.769567,34.491112,-30.514221,-59.805813
1007656250,-36.32415,-6.9889746,-23.776167,33.374454,-23.773335,33.368744,-30.504684,-60.308201
1008750000,-36.31451,-6.8612366,-23.779819,32.248943,-23.771723,32.20924,-30.502926,-60.858982
1009843750,-36.293484,-6.5557542,-23.777697,31.121628,-23.76898,31.128929,-30.532818,-61.308586
1010937500,-36.308044,-6.2389741,-23.779413,29.986692,-23.772213,29.947889,-30.59144,-61.927837
1012031250,-36.338615,-6.0997806,-23.779802,28.840979,-23.77416,28.831688,-30.658159,-62.543591
1013125000,-36.360348,-5.8308654,-23.776237,27.706633,-23.774189,27.671381,-30.732363,-63.195061
1014218750,-36.384708,-5.7636318,-23.780735,26.588675,-23.773836,26.566378,-30.80031,-64.007965
1015312500,-36.447983,-5.669754,-23.775499,25.452272,-23.77421,25.420193,-30.913534,-64.891083
1016406250,-36.479664,-5.6178646,-23.779325,24.328051,-23.774393,24.307535,-31.001659,-65.92704
1017500000,-36.549328,-5.8483729,-23.780239,23.186913,-23.775885,23.167677,-31.10251,-67.031593
1018593750,-36.596092,-6.0352788,-23.778906,22.048052,-23.778654,22.035294,-31.191561,-68.433006
1019687500,-36.648361,-6.2533197,-23.78022,20.924726,-23.778414,20.891697,-31.271366,-69.827728
1020781250,-36.667049,-6.6299944,-23.786688,19.771627,-23.776581,19.752037,-31.326874,-71.302338
1021875000,-36.671028,-7.0065298,-23.783562,18.645924,-23.779011,18.64576,-31.354794,-72.892815
1022968750,-36.699226,-7.3964915,-23.785862,17.51893,-23.777193,17.496782,-31.369576,-74.333687
1024062500,-36.6717,-7.7248425,-23.787352,16.379414,-23.780025,16.352348,-31.36268,-75.905624
1025156250,-36.656746,-8.1178904,-23.781404,15.268948,-23.774403,15.197492,-31.330666,-77.322891
1026250000,-36.638199,-8.5768843,-23.789602,14.11409,-23.77944,14.110795,-31.301258,-78.58017
1027343750,-36.590847,-9.1319332,-23.784901,12.998724,-23.782133,12.964011,-31.230961,-79.709023
1028437500,-36.490612,-8.9563704,-23.784918,11.891715,-23.782747,11.845346,-31.191454,-80.844978
1029531250,-36.45829,-9.2900305,-23.788765,10.715041,-23.776802,10.692209,-31.112825,-81.708382
1030625000,-36.379356,-9.4198465,-23.784256,9.5799913,-23.776739,9.5631647,-31.067003,-82.452477
1031718750,-36.315777,-9.2614603,-23.787605,8.4547167,-23.783722,8.4385691,-31.035822,-83.118225
1032812500,-36.248245,-9.1438017,-23.78405,7.3340907,-23.785164,7.2789745,-30.993536,-83.633881
1033906250,-36.173485,-9.0204325,-23.785742,6.178896,-23.781626,6.1665359,-30.968843,-84.045311
1035000000,-36.129642,-8.6907825,-23.785789,5.0719657,-23.787081,5.0475345,-30.987185,-84.601845
1036093750,-36.101685,-8.2689028,-23.785975,3.9300661,-23.786488,3.9075167,-31.012215,-84.924522
1037187500,-36.08329,-7.6854382,-23.789238,2.7896597,-23.786098,2.7625911,-31.07111,-85.35762
1038281250,-36.09655,-7.3506966,-23.793154,1.6482427,-23.781076,1.6342385,-31.126806,-85.695381
1039375000,-36.123055,-6.8607025,-23.794615,0.5388388,-23.786108,0.51436478,-31.22086,-86.194016
1040468750,-36.102112,-6.5722032,-23.792274,-0.61382604,-23.780077,-0.64829272,-31.316732,-86.809746
1041562500,-36.158859,-6.1763201,-23.794743,-1.7162585,-23.782417,-1.7483813,-31.439346,-87.429901
1042656250,-36.192043,-6.026299,-23.792822,-2.8604004,-23.785587,-2.8722222,-31.537405,-88.340042
1043750000,-36.242104,-5.7295222,-23.795929,-3.9876411,-23.783279,-4.015728,-31.657024,-89.305008
1044843750,-36.332664,-5.6217113,-23.7925,-5.1292353,-23.787214,-5.1736274,-31.76652,-90.443924
1045937500,-36.391445,-5.6744199,-23.794233,-6.2638941,-23.789354,-6.3223872,-31.876225,-91.696579
1047031250,-36.427082,-5.8333511,-23.793051,-7.385293,-23.786316,-7.4262805,-31.961378,-93.114426
1048125000,-36.513775,-5.9663606,-23.79402,-8.5398102,-23.785725,-8.5759325,-32.026016,-94.530792
1049218750,-36.566784,-6.1125803,-23.793486,-9.6657906,-23.78968,-9.6909933,-32.078754,-96.012703
1050312500,-36.609543,-6.4414797,-23.797209,-10.806067,-23.787132,-10.814013,-32.090378,-97.322182
1051406250,-36.641552,-6.8324366,-23.794044,-11.941749,-23.785294,-11.967376,-32.098515,-98.808418
1052500000,-36.659832,-7.1386023,-23.794712,-13.072641,-23.791739,-13.059679,-32.072002,-100.18991
1053593750,-36.638863,-7.5543599,-23.794477,-14.216693,-23.794281,-14.193862,-32.03281,-101.28536
1054687500,-36.640682,-8.0010767,-23.803596,-15.334907,-23.789509,-15.368176,-31.992792,-102.41248
1055781250,-36.60743,-8.5476017,-23.795486,-16.48918,-23.79446,-16.483711,-31.943035,-103.28601
1056875000,-36.58358,-9.0159283,-23.797983,-17.584642,-23.795994,-17.635574,-31.894213,-103.98695
1057968750,-36.507412,-9.0849762,-23.799969,-18.736401,-23.789845,-18.753414,-31.84268,-104.55463
1059062500,-36.456738,-9.1317577,-23.798134,-19.86508,-23.795717,-19.888201,-31.82608,-105.07092
1060156250,-36.399239,-9.2732983,-23.800941,-20.967461,-23.795418,-21.000441,-31.784891,-105.46259
1061250000,-36.323463,-9.2982864,-23.802343,-22.125868,-23.795681,-22.157412,-31.799513,-105.74152
1062343750,-36.290577,-9.1383505,-23.801075,-23.249222,-23.79631,-23.282347,-31.825682,-105.99159
1063437500,-36.276054,-9.0928183,-23.798805,-24.352903,-23.793186,-24.432415,-31.875019,-106.1133
1064531250,-36.20113,-8.6887302,-23.803827,-25.523119,-23.798,-25.559317,-31.949579,-106.37837
1065625000,-36.159424,-8.3993788,-23.803123,-26.659651,-23.796057,-26.666981,-32.0322,-106.67346
1066718750,-36.158215,-8.0951805,-23.800379,-27.768595,-23.797119,-27.816208,-32.133698,-107.01506
1067812500,-36.150806,-7.6867404,-23.801296,-28.914677,-23.796585,-28.955986,-32.255447,-107.5416
1068906250,-36.152981,-7.3341532,-23.804176,-30.048925,-23.799374,-30.092443,-32.39106,-107.93414
1070000000,-36.185268,-7.0543823,-23.799379,-31.216928,-23.79797,-31.1819,-32.530754,-108.74175
1071093750,-36.233536,-6.7575426,-23.80475,-32.315773,-23.802618,-32.335548,-32.685528,-109.6073
1072187500,-36.240326,-6.4646678,-23.800892,-33.450974,-23.799816,-33.507477,-32.828392,-110.53642
1073281250,-36.331356,-6.383955,-23.803923,-34.591156,-23.801277,-34.610142,-32.959702,-111.80992
1074375000,-36.371189,-6.3378963,-23.807341,-35.70961,-23.802792,-35.756386,-33.073143,-113.12359
1075468750,-36.423244,-6.3286018,-23.807587,-36.84296,-23.801868,-36.858971,-33.146767,-114.53178
1076562500,-36.502941,-6.6524301,-23.807068,-37.986832,-23.800901,-38.019829,-33.223778,-115.97261
1077656250,-36.553635,-6.8593087,-23.811396,-39.088398,-23.800568,-39.134178,-33.259899,-117.34609
1078750000,-36.57766,-6.9930429,-23.806793,-40.222931,-23.802301,-40.265335,-33.26968,-118.81195
1079843750,-36.608833,-7.3727546,-23.807386,-41.385277,-23.800884,-41.443935,-33.27879,-120.04787
1080937500,-36.664665,-7.6046739,-23.808668,-42.51144,-23.803614,-42.539341,-33.23402,-121.17264
1082031250,-36.65823,-8.0109177,-23.812986,-43.642086,-23.801058,-43.657619,-33.181782,-122.23788
1083125000,-36.653137,-8.4894218,-23.810316,-44.804108,-23.802425,-44.814888,-33.159565,-123.14721
1084218750,-36.626389,-8.8930616,-23.808178,-45.925453,-23.803375,-45.93359,-33.114685,-123.73846
1085312500,-36.571751,-9.2983093,-23.814222,-47.032848,-23.799143,-47.087921,-33.076389,-124.17896
1086406250,-36.558636,-9.533906,-23.811068,-48.193169,-23.805628,-48.217014,-33.063908,-124.67505
1087500000,-36.494488,-9.5019951,-23.806995,-49.302288,-23.803301,-49.341633,-33.062317,-125.04168
1088593750,-36.44804,-9.8356247,-23.814186,-50.432301,-23.806049,-50.485069,-33.047737,-125.13413
1089687500,-36.384201,-9.7222986,-23.810743,-51.59716,-23.807184,-51.576881,-33.092422,-125.36395
1090781250,-36.335571,-9.6397877,-23.810244,-52.729538,-23.804407,-52.745167,-33.154228,-125.48929
1091875000,-36.324615,-9.6093197,-23.813299,-53.826115,-23.805523,-53.86829,-33.233887,-125.56889
1092968750,-36.281666,-9.3010988,-23.815882,-54.983486,-23.806919,-55.005947,-33.353027,-125.77978
1094062500,-36.253906,-9.078536,-23.80986,-56.113777,-23.811392,-56.132168,-33.46983,-125.95941
1095156250,-36.230988,-8.7782173,-23.814348,-57.236088,-23.807573,-57.256905,-33.616108,-126.49207
1096250000,-36.226479,-8.3441582,-23.818052,-58.393742,-23.813669,-58.398201,-33.772221,-127.14814
1097343750,-36.236725,-7.9488659,-23.815176,-59.484699,-23.808477,-59.513557,-33.925591,-127.89577
1098437500,-36.249279,-7.8951969,-23.813372,-60.631168,-23.808834,-60.664532,-34.09436,-128.72166
1099531250,-36.329887,-7.3084068,-23.817762,-61.75935,-23.813284,-61.80085,-34.232986,-129.97496
1100625000,-36.367516,-7.4561591,-23.819242,-62.910839,-23.814962,-62.907845,-34.367794,-131.31171
1101718750,-36.426376,-7.2620306,-23.816446,-64.04435,-23.813772,-64.031059,-34.504105,-132.69086
1102812500,-36.467926,-7.3322587,-23.818512,-65.16317,-23.810637,-65.197075,-34.567513,-134.25578
1103906250,-36.53791,-7.3933659,-23.818069,-66.317917,-23.812632,-66.336456,-34.590214,-135.84143
1105000000,-36.600807,-7.6021185,-23.821398,-67.425926,-23.813652,-67.430176,-34.612011,-137.51662
1106093750,-36.643074,-7.9298882,-23.815269,-68.581886,-23.815725,-68.599976,-34.626511,-138.73793
1107187500,-36.693226,-8.1946888,-23.813978,-69.701706,-23.810211,-69.709427,-34.548462,-140.27155
1108281250,-36.715107,-8.8222742,-23.822155,-70.848656,-23.813646,-70.873787,-34.494934,-141.32301
1109375000,-36.736191,-8.9982224,-23.822447,-71.991722,-23.815216,-71.980087,-34.455074,-142.23093
1110468750,-36.706863,-9.5946331,-23.821714,-73.105057,-23.817039,-73.088379,-34.342903,-142.83652
1111562500,-36.714371,-10.213546,-23.825718,-74.203659,-23.818323,-74.26828,-34.269054,-143.37721
1112656250,-36.687851,-10.651417,-23.826258,-75.349632,-23.813719,-75.396378,-34.219143,-143.7742
1113750000,-36.616516,-11.01407,-23.820475,-76.492722,-23.813414,-76.498055,-34.150936,-143.88689
1114843750,-36.549835,-11.439222,-23.825357,-77.632034,-23.818382,-77.653809,-34.152561,-143.8139
1115937500,-36.515778,-11.665817,-23.823162,-78.757126,-23.81809,-78.767281,-34.134621,-143.77579
1117031250,-36.439026,-11.56932,-23.820162,-79.92041,-23.814356,-79.916138,-34.170074,-143.58694
1118125000,-36.326653,-11.691351,-23.824524,-81.030632,-23.820375,-81.061813,-34.225674,-143.49889
1119218750,-36.265793,-11.473376,-23.825905,-82.157425,-23.822155,-82.193604,-34.337368,-143.49715
1120312500,-36.190491,-11.488339,-23.827168,-83.289627,-23.818663,-83.33226,-34.452923,-143.36545
1121406250,-36.133808,-11.062958,-23.823715,-84.408791,-23.820427,-84.456413,-34.56448,-143.39241
1122500000,-36.121582,-10.535275,-23.825359,-85.558723,-23.819176,-85.59536,-34.771523,-143.57283
1123593750,-36.036758,-10.210427,-23.8274,-86.69017,-23.817307,-86.714127,-34.968494,-143.92624
1124687500,-36.030235,-9.4290571,-23.824213,-87.79528,-23.824425,-87.830818,-35.13081,-144.63295
1125781250,-36.06163,-9.2429352,-23.82679,-88.931717,-23.823349,-88.969398,-35.357288,-145.509
1126875000,-36.079357,-8.6401691,-23.82939,-90.076172,-23.819822,-90.103264,-35.540707,-146.62595
1127968750,-36.086666,-8.2880745,-23.829002,-91.200958,-23.825598,-91.249023,-35.717815,-147.88855
1129062500,-36.153076,-7.9221163,-23.829899,-92.334175,-23.82477,-92.37674,-35.862366,-149.48872
1130156250,-36.208576,-7.6879492,-23.830732,-93.492935,-23.827356,-93.483772,-35.995686,-151.23372
1131250000,-36.304348,-7.3518109,-23.828526,-94.634857,-23.823542,-94.651527,-36.041798,-152.95969
1132343750,-36.338936,-7.5481396,-23.826347,-95.726326,-23.82972,-95.733955,-36.089848,-154.76114
1133437500,-36.447689,-7.2239342,-23.834126,-96.875259,-23.820946,-96.890404,-36.078194,-156.44586
1134531250,-36.537285,-7.3358102,-23.828289,-98.009354,-23.823938,-98.02475,-36.056229,-158.09358
1135625000,-36.629868,-7.871057,-23.830896,-99.123619,-23.824789,-99.161667,-35.969105,-159.36821
1136718750,-36.693867,-8.0479326,-23.831064,-100.26131,-23.829876,-100.28798,-35.902245,-160.46017
1137812500,-36.726162,-8.4223366,-23.832483,-101.4231,-23.827936,-101.40104,-35.802895,-161.42926
1138906250,-36.78529,-9.0718689,-23.834486,-102.56377,-23.82692,-102.55013,-35.692303,-162.17778
1140000000,-36.797756,-9.6649704,-23.831285,-103.6526,-23.82922,-103.7151,-35.599586,-162.5247
1141093750,-36.826508,-10.045416,-23.833208,-104.81702,-23.829706,-104.83869,-35.527603,-162.73174
1142187500,-36.782433,-10.616583,-23.832802,-105.92744,-23.829121,-105.94943,-35.493023,-162.92763
1143281250,-36.726784,-10.970384,-23.833981,-107.06751,-23.830997,-107.10159,-35.502136,-162.69339
1144375000,-36.680569,-11.511046,-23.838884,-108.20186,-23.832777,-108.2345,-35.507206,-162.56062
1145468750,-36.697594,-11.95761,-23.836443,-109.32987,-23.827396,-109.37956,-35.592606,-162.34706
1146562500,-36.588924,-12.191154,-23.836935,-110.49365,-23.831015,-110.52587,-35.680458,-162.30986
1147656250,-36.539623,-12.159622,-23.839211,-111.56545,-23.832855,-111.63271,-35.802834,-162.24466
1148750000,-36.472286,-12.213821,-23.839169,-112.73119,-23.828356,-112.75954,-35.947701,-162.50693
1149843750,-36.4006,-12.008713,-23.838423,-113.87404,-23.836412,-113.90779,-36.121025,-162.70348
1150937500,-36.356461,-12.009432,-23.834196,-115.00098,-23.835829,-115.02448,-36.341911,-163.38048
1152031250,-36.296783,-11.568553,-23.838499,-116.13292,-23.833492,-116.15096,-36.559597,-164.05388
1153125000,-36.288486,-11.451196,-23.834219,-117.26225,-23.834745,-117.28988,-36.790939,-165.37877
1154218750,-36.26384,-10.970686,-23.835798,-118.4155,-23.827768,-118.43171,-37.005665,-166.80847
1155312500,-36.259869,-10.885055,-23.837952,-119.51826,-23.831072,-119.56585,-37.18037,-168.53165
1156406250,-36.230324,-10.410616,-23.840923,-120.6679,-23.836817,-120.69051,-37.343922,-170.39595
1157500000,-36.292416,-10.061569,-23.839252,-121.78986,-23.832233,-121.81364,-37.446922,-172.51508
1158593750,-36.31517,-9.8003502,-23.841278,-122.91809,-23.83341,-122.98126,-37.502792,-174.92188
1159687500,-36.337181,-9.5631113,-23.842419,-124.05811,-23.8358,-124.0898,-37.480385,-177.06479
1160781250,-36.403862,-9.420702,-23.843445,-125.20147,-23.837841,-125.22076,-37.44239,-179.31387
1161875000,-36.460819,-9.428587,-23.838852,-126.31219,-23.835224,-126.3457,-37.31102,179.04376
1162968750,-36.532719,-9.4153843,-23.84314,-127.46898,-23.833527,-127.47241,-37.191013,177.20229
1164062500,-36.559834,-9.3720112,-23.844036,-128.58138,-23.840582,-128.59717,-37.054508,176.02328
1165156250,-36.608627,-9.9422493,-23.844988,-129.70512,-23.839123,-129.73393,-36.850658,175.06059
1166250000,-36.661263,-9.9456701,-23.845636,-130.85384,-23.837774,-130.87871,-36.72699,174.47113
1167343750,-36.701927,-10.438443,-23.846254,-131.98888,-23.83728,-132.04189,-36.595356,173.98843
1168437500,-36.729095,-10.705608,-23.846678,-133.10481,-23.842707,-133.17104,-36.471985,173.88277
1169531250,-36.728676,-10.885592,-23.844915,-134.2379,-23.841312,-134.29843,-36.426727,173.91092
1170625000,-36.751472,-11.322863,-23.849169,-135.39136,-23.841164,-135.40186,-36.393017,174.21506
1171718750,-36.732964,-11.617426,-23.848606,-136.4959,-23.841499,-136.54895,-36.371002,174.39381
1172812500,-36.72245,-11.909116,-23.848621,-137.65076,-23.842981,-137.67657,-36.413795,174.57187
1173906250,-36.682205,-11.95647,-23.848631,-138.78378,-23.837278,-138.79521,-36.49921,175.07744
1175000000,-36.653366,-12.078412,-23.846214,-139.91148,-23.841858,-139.95863,-36.626755,175.15309
1176093750,-36.614662,-12.171426,-23.853699,-141.03198,-23.844254,-141.05646,-36.777435,175.25296
1177187500,-36.5807,-12.06995,-23.84828,-142.19356,-23.845526,-142.23387,-36.990551,175.10301
1178281250,-36.564259,-12.024395,-23.84878,-143.31184,-23.846258,-143.33284,-37.203526,174.62514
1179375000,-36.549232,-11.958476,-23.850542,-144.45055,-23.843367,-144.44714,-37.483547,174.01947
1180468750,-36.543228,-11.820518,-23.849123,-145.5775,-23.846096,-145.58437,-37.749706,172.73137
1181562500,-36.534351,-11.612072,-23.851643,-146.69598,-23.84322,-146.74681,-37.986946,171.29803
1182656250,-36.556511,-11.45164,-23.852842,-147.82756,-23.842236,-147.86646,-38.227299,169.49275
1183750000,-36.57893,-11.345603,-23.856224,-148.9812,-23.84585,-149.01544,-38.445663,167.43947
1184843750,-36.607346,-11.182198,-23.8542,-150.12421,-23.846283,-150.13326,-38.560616,164.91675
1185937500,-36.652294,-11.048316,-23.853304,-151.22821,-23.846067,-151.27708,-38.687695,162.10484
1187031250,-36.717274,-11.201259,-23.853357,-152.36917,-23.844601,-152.38737,-38.729561,159.73634
1188125000,-36.775108,-11.411539,-23.853146,-153.51103,-23.850378,-153.53377,-38.690166,157.20644
1189218750,-36.80748,-11.429423,-23.851002,-154.61465,-23.848095,-154.65187,-38.570313,155.1508
1190312500,-36.847248,-11.856287,-23.851587,-155.77455,-23.851295,-155.79253,-38.453411,153.00417
1191406250,-36.918716,-12.307577,-23.855194,-156.90346,-23.849064,-156.91257,-38.314426,151.40599
1192500000,-36.933552,-12.686596,-23.855623,-158.06142,-23.848455,-158.08948,-38.140621,150.10912
1193593750,-36.968773,-13.128965,-23.857384,-159.15668,-23.854023,-159.19537,-37.998478,149.27893
1194687500,-36.947174,-13.717852,-23.856707,-160.29614,-23.853487,-160.31247,-37.882706,148.7516
1195781250,-36.893139,-14.233173,-23.8566,-161.41393,-23.850973,-161.44821,-37.764034,148.40948
1196875000,-36.890575,-14.754862,-23.853983,-162.57344,-23.848726,-162.5985,-37.757862,148.04984
1197968750,-36.836739,-15.256309,-23.862625,-163.67639,-23.85338,-163.71381,-37.709167,148.07985
1199062500,-36.784904,-15.647754,-23.858686,-164.82166,-23.85008,-164.83891,-37.733337,148.0101
1200156250,-36.710964,-16.117056,-23.857124,-165.96397,-23.850872,-165.98018,-37.757412,147.97429
1201250000,-36.603729,-16.02075,-23.859232,-167.08307,-23.850306,-167.13881,-37.878876,147.95491
1202343750,-36.529469,-16.09955,-23.861948,-168.2366,-23.852924,-168.24135,-38.056015,147.65762
1203437500,-36.405827,-15.877624,-23.862421,-169.37939,-23.851282,-169.38229,-38.262955,147.66226
1204531250,-36.326271,-16.00243,-23.859747,-170.49913,-23.85421,-170.52211,-38.509361,146.77618
1205625000,-36.229088,-15.749513,-23.860981,-171.61713,-23.854788,-171.63271,-38.75407,146.00888
1206718750,-36.170361,-15.166418,-23.862499,-172.74762,-23.853884,-172.76401,-39.015324,144.46233
1207812500,-36.158398,-14.589754,-23.863657,-173.87495,-23.856064,-173.89714,-39.298962,142.5177
1208906250,-36.130669,-14.176579,-23.860699,-175.02496,-23.855301,-175.05736,-39.486168,140.47247
1210000000,-36.093594,-13.454754,-23.860411,-176.14668,-23.854755,-176.17314,-39.748146,138.00623
1211093750,-36.10833,-12.970984,-23.864908,-177.28983,-23.860815,-177.32162,-39.923363,135.14697
1212187500,-36.140743,-12.434668,-23.862955,-178.41499,-23.853817,-178.4287,-39.968597,132.15067
1213281250,-36.161877,-11.899833,-23.863453,-179.53668,-23.859043,-179.56018,-40.013351,129.13551
1214375000,-36.232246,-11.424983,-23.864304,179.34015,-23.858862,179.28687,-39.905613,126.50272
1215468750,-36.307251,-10.983649,-23.859848,178.2074,-23.863647,178.12642,-39.803474,123.75254
1216562500,-36.416565,-10.580585,-23.865843,177.06187,-23.856451,177.00204,-39.647099,121.55707
1217656250,-36.49839,-10.227906,-23.861708,175.92989,-23.855774,175.92798,-39.464138,119.66803
