!CSV A.01.01
!Agilent Technologies,N5222A,MY51421451,A.09.90.02
!Agilent N5222A: A.09.90.02
!Date: Tuesday, February 11, 2014 11:27:47
!Source: Standard

BEGIN CH2_DATA
Freq(Hz),S33(DB),S33(DEG),S34(DB),S34(DEG),S43(DB),S43(DEG),S44(DB),S44(DEG)
1000000000,-39.272213,-107.78554,-0.25780371,49.343033,-0.25904047,49.304722,-47.07214,-16.810337
1001484375,-39.520325,-106.82226,-0.25413212,48.86713,-0.26030698,48.848015,-47.091866,-16.194439
1002968750,-39.14296,-105.68163,-0.26193592,48.40337,-0.25684038,48.384155,-48.179821,-17.064022
1004453125,-39.406929,-106.5802,-0.25580364,47.937523,-0.26016569,47.940895,-46.495327,-18.849201
1005937500,-39.827572,-108.48537,-0.26238814,47.479,-0.25646743,47.501301,-47.058445,-16.809742
1007421875,-39.669418,-109.66573,-0.25950745,47.037285,-0.25868291,47.01503,-47.043911,-18.981522
1008906250,-40.224049,-111.98852,-0.26074672,46.57164,-0.25535154,46.577324,-47.875923,-25.882597
1010390625,-39.697002,-113.26272,-0.26072851,46.117714,-0.25405592,46.103271,-48.674866,-17.652189
1011875000,-39.849205,-111.53826,-0.26023316,45.632961,-0.25606748,45.633224,-47.476677,-9.9638186
1013359375,-39.611752,-113.42222,-0.25976017,45.193245,-0.25526428,45.189751,-46.856304,-10.990156
1014843750,-40.203232,-115.78257,-0.25835973,44.711441,-0.26042318,44.712261,-47.28548,-12.155212
1016328125,-40.4221,-114.37934,-0.2618995,44.275589,-0.25804067,44.240582,-48.553593,-18.999912
1017812500,-40.001846,-115.76623,-0.26192695,43.823978,-0.26069462,43.783596,-47.22612,-8.1046438
1019296875,-40.309978,-119.51566,-0.25924867,43.334644,-0.26412112,43.317356,-47.703484,-14.823923
1020781250,-40.035175,-119.77937,-0.25941598,42.872711,-0.26076576,42.873371,-48.968353,-11.483857
1022265625,-40.575565,-118.45461,-0.25972927,42.42067,-0.25910884,42.414471,-47.725788,-8.0231552
1023750000,-40.479366,-119.16006,-0.26180193,41.962868,-0.26305872,41.938686,-48.920746,-8.0180254
1025234375,-40.57391,-121.3996,-0.26185295,41.499237,-0.25826088,41.486588,-49.578487,-5.178762
1026718750,-40.499275,-119.8821,-0.25997216,41.049511,-0.26266956,41.045322,-48.953056,-0.54802883
1028203125,-40.348618,-123.01959,-0.26043147,40.591549,-0.26289871,40.560452,-50.243019,-8.1208735
1029687500,-40.409126,-121.73598,-0.26350147,40.125038,-0.25792903,40.114445,-49.480026,-9.1594601
1031171875,-40.354679,-122.41758,-0.26470411,39.662983,-0.25906351,39.638981,-49.755787,-5.2613816
1032656250,-40.538406,-124.46078,-0.26085564,39.200829,-0.26023436,39.189449,-49.438965,1.3745885
1034140625,-40.879543,-124.79983,-0.26111716,38.738319,-0.26457432,38.733223,-49.302731,-0.36228767
1035625000,-40.556793,-125.15027,-0.26297313,38.306602,-0.26242748,38.285275,-48.883656,2.109494
1037109375,-40.726959,-125.92593,-0.26383334,37.823685,-0.25856572,37.8153,-50.033314,-3.3891797
1038593750,-40.940361,-128.03189,-0.26174939,37.362438,-0.26096156,37.349739,-49.197239,3.4895566
1040078125,-40.785576,-132.25336,-0.26558301,36.912476,-0.260573,36.890446,-49.832787,6.0907264
1041562500,-40.71524,-128.2083,-0.26295972,36.445728,-0.26252735,36.417446,-48.772964,4.4363637
1043046875,-40.642574,-134.10718,-0.26227769,35.989887,-0.26060417,35.985947,-51.017326,0.45066118
1044531250,-40.805058,-134.37918,-0.26190636,35.528446,-0.26287872,35.512951,-49.122822,-1.8542559
1046015625,-40.776142,-133.2661,-0.26233146,35.049309,-0.25988865,35.042,-48.968979,3.7381682
1047500000,-41.042648,-134.36894,-0.26332071,34.612453,-0.26243332,34.581314,-49.454937,11.407171
1048984375,-41.152035,-133.81068,-0.2648955,34.147102,-0.25940204,34.133266,-49.525116,-4.4425116
1050468750,-41.125854,-136.16252,-0.26308021,33.682705,-0.26424173,33.694157,-49.844204,4.4981689
1051953125,-41.378208,-137.54161,-0.26072288,33.226784,-0.26378053,33.181259,-48.507919,15.192205
1053437500,-41.20163,-136.01488,-0.26640835,32.772228,-0.26251265,32.75037,-49.448364,6.2952175
1054921875,-41.119743,-139.51945,-0.26419127,32.316219,-0.26287076,32.293682,-49.746704,10.921193
1056406250,-40.804401,-141.39886,-0.26752332,31.843863,-0.26339379,31.847017,-49.502571,6.0515223
1057890625,-41.105003,-138.27435,-0.26737887,31.387028,-0.26515484,31.341383,-49.5592,14.084413
1059375000,-41.006321,-144.97281,-0.26439944,30.933115,-0.26665637,30.917166,-50.222809,15.417238
1060859375,-41.304138,-143.8414,-0.26652533,30.4608,-0.26543021,30.487263,-49.635136,13.846992
1062343750,-41.558678,-145.01071,-0.26613972,30.004768,-0.26169363,29.999273,-49.374393,11.808444
1063828125,-41.201267,-148.68887,-0.26839969,29.54674,-0.26378113,29.538717,-50.282509,19.775036
1065312500,-41.475567,-146.06258,-0.26542026,29.090021,-0.26192412,29.080511,-49.750496,22.543159
1066796875,-42.135319,-147.6324,-0.27018371,28.627163,-0.26479894,28.619877,-50.110813,15.953128
1068281250,-41.408104,-149.12721,-0.26525858,28.182673,-0.26462376,28.150812,-50.537117,14.103979
1069765625,-41.681118,-150.603,-0.26862553,27.716394,-0.27010775,27.708008,-49.679649,19.268814
1071250000,-41.793861,-149.81613,-0.26835224,27.250418,-0.26492098,27.243773,-49.068489,18.654299
1072734375,-41.744854,-149.90501,-0.26594442,26.798592,-0.26400754,26.778057,-48.871632,23.977171
1074218750,-41.870392,-150.08611,-0.26510671,26.351175,-0.2667515,26.316891,-48.941727,31.701883
1075703125,-41.961506,-153.33153,-0.2649428,25.889187,-0.26701957,25.857107,-50.315243,21.464003
1077187500,-41.604279,-153.39203,-0.26886845,25.407961,-0.2679849,25.406078,-49.117802,30.691227
1078671875,-41.898487,-155.21413,-0.26978475,24.952232,-0.2691589,24.978359,-48.112545,22.347784
1080156250,-41.607262,-155.40492,-0.26854765,24.481617,-0.26709071,24.474913,-48.976196,29.59358
1081640625,-41.66124,-155.33528,-0.26820341,24.017202,-0.26742217,24.012388,-49.369328,22.034441
1083125000,-42.069794,-155.56178,-0.2716397,23.560194,-0.26526549,23.549051,-48.889133,36.124405
1084609375,-42.199413,-160.94594,-0.26747772,23.110468,-0.267546,23.114285,-48.087349,34.029293
1086093750,-42.34306,-162.54268,-0.26947203,22.659733,-0.270814,22.664352,-49.509884,39.0928
1087578125,-42.554142,-160.83496,-0.27348351,22.177849,-0.2714881,22.192545,-48.683548,36.73896
1089062500,-41.783325,-161.22833,-0.26906452,21.749151,-0.26777303,21.712191,-48.13871,33.798248
1090546875,-42.079746,-166.91382,-0.26993307,21.269463,-0.26894766,21.265699,-48.364307,34.086143
1092031250,-42.238815,-165.22292,-0.27071801,20.821247,-0.27130273,20.799654,-48.409237,33.309803
1093515625,-42.454926,-162.14275,-0.2703054,20.363131,-0.26592585,20.331762,-49.106068,42.402393
1095000000,-42.524441,-169.84393,-0.2683689,19.898418,-0.2675952,19.869646,-48.17696,49.624393
1096484375,-42.969234,-168.13899,-0.26966673,19.420174,-0.26572302,19.421921,-48.053932,46.315666
1097968750,-43.035728,-169.78714,-0.27162296,18.971521,-0.26720777,18.939177,-46.449699,42.334873
1099453125,-42.42215,-171.4736,-0.2692987,18.523178,-0.26945901,18.484388,-46.273643,38.869396
1100937500,-42.892136,-172.63353,-0.27101281,18.070711,-0.27249277,18.05661,-48.219696,43.527805
1102421875,-42.252979,-175.33064,-0.27140787,17.600161,-0.27019995,17.589809,-47.640469,41.928158
1103906250,-42.635921,-172.38383,-0.273132,17.128157,-0.26896259,17.147434,-47.856697,40.91045
1105390625,-42.608952,-176.39903,-0.27169138,16.679523,-0.27214912,16.646296,-47.289024,37.959072
1106875000,-42.892048,-177.08115,-0.27142158,16.201124,-0.27254361,16.194035,-46.569908,41.572201
1108359375,-43.234417,-178.13689,-0.27022105,15.760812,-0.27379066,15.740766,-47.532764,44.870506
1109843750,-42.846802,-176.90002,-0.27578029,15.293572,-0.27242002,15.30829,-47.605164,51.518188
1111328125,-42.904083,-178.54552,-0.2750029,14.85111,-0.26711515,14.823908,-47.224083,49.10923
1112812500,-42.45752,-174.93935,-0.27167439,14.361881,-0.27177337,14.351018,-47.274044,44.601242
1114296875,-43.083542,177.53552,-0.27617395,13.896926,-0.27023187,13.92763,-45.928692,51.326004
1115781250,-43.04702,177.14665,-0.27575091,13.466544,-0.27136225,13.421265,-46.903038,44.595581
1117265625,-42.951534,174.4852,-0.27045298,12.990393,-0.27364081,12.960241,-45.930111,46.57037
1118750000,-43.071522,173.24095,-0.27561712,12.521515,-0.27165627,12.506017,-46.020382,47.441902
1120234375,-42.944283,171.65782,-0.2726495,12.069483,-0.27264223,12.075368,-45.422359,51.681934
1121718750,-43.421291,170.58293,-0.27526355,11.611205,-0.27407536,11.603306,-47.283531,44.912609
1123203125,-42.833248,166.91861,-0.27571017,11.127378,-0.27157265,11.154191,-46.216618,47.463036
1124687500,-43.61306,167.58983,-0.27525979,10.694022,-0.27233005,10.701257,-47.216846,52.0303
1126171875,-43.6483,164.18333,-0.27809846,10.230776,-0.27287203,10.20852,-45.706608,54.560055
1127656250,-43.471493,160.69008,-0.27316615,9.8028698,-0.27277103,9.7678013,-46.291,53.046413
1129140625,-43.224548,159.97534,-0.27684894,9.3027649,-0.27571288,9.2869329,-45.318169,55.137852
1130625000,-42.82151,161.04884,-0.27574122,8.8414497,-0.27315348,8.8400345,-45.915928,50.375317
1132109375,-43.242256,160.08511,-0.27554685,8.3781357,-0.27545211,8.3789911,-45.185875,52.004925
1133593750,-42.904701,157.961,-0.27431512,7.9289694,-0.27411366,7.9499307,-44.415165,53.684608
1135078125,-43.332947,156.03873,-0.27686292,7.4838171,-0.2738415,7.4657655,-44.602119,52.944519
1136562500,-43.655434,154.41928,-0.27491748,7.0203772,-0.27553949,7.0071192,-44.633446,48.536423
1138046875,-43.031811,155.2287,-0.27353889,6.5498819,-0.27605712,6.5785351,-44.698357,51.066765
1139531250,-43.41465,150.39214,-0.27508596,6.0939851,-0.27197307,6.1079555,-44.566227,53.559128
1141015625,-43.520535,151.65399,-0.27577052,5.6411867,-0.27260378,5.6093683,-44.175278,56.279449
1142500000,-42.840431,151.39378,-0.27887371,5.1702142,-0.27374634,5.1716871,-44.246395,56.49102
1143984375,-43.294014,147.51363,-0.2763654,4.715436,-0.27177522,4.7037487,-44.133705,56.68026
1145468750,-42.451847,147.80873,-0.27484646,4.2636228,-0.27619836,4.2580361,-43.713192,50.087986
1146953125,-42.913197,144.36758,-0.27473721,3.7971144,-0.27574226,3.7850842,-43.84779,48.29718
1148437500,-42.821796,141.99574,-0.27436572,3.3418682,-0.27351484,3.3416152,-44.498394,50.43924
1149921875,-42.867714,144.42151,-0.27649328,2.8905859,-0.27822819,2.868645,-43.836613,50.885273
1151406250,-42.622456,144.15875,-0.28025809,2.4225368,-0.2797353,2.4284444,-43.772343,58.423901
1152890625,-42.761383,139.66791,-0.27933136,1.9597332,-0.27637756,1.9552521,-43.92709,50.620056
1154375000,-42.516968,136.80598,-0.27692431,1.5007277,-0.27411574,1.5056604,-43.326359,53.1269
1155859375,-42.520737,142.71902,-0.27867365,1.0494883,-0.27503303,1.0182899,-42.937,53.113075
1157343750,-42.821808,139.55559,-0.27633068,0.58766699,-0.28347269,0.58075464,-42.595005,54.699142
1158828125,-42.506195,139.35063,-0.27748606,0.13657498,-0.27706215,0.090517379,-43.38092,55.72266
1160312500,-42.681301,132.66838,-0.27793005,-0.36269146,-0.2776531,-0.33675915,-43.788666,53.997482
1161796875,-43.017632,133.80666,-0.27722538,-0.80776215,-0.27695423,-0.80028522,-43.848625,54.133053
1163281250,-42.661598,130.47307,-0.28026104,-1.2467275,-0.27831903,-1.257145,-42.695488,52.88427
1164765625,-41.946671,130.59726,-0.27623671,-1.6936302,-0.28076816,-1.7480366,-42.371708,54.662022
1166250000,-42.309361,128.55666,-0.2765553,-2.1777439,-0.2798591,-2.1908979,-42.403511,53.733639
1167734375,-42.878929,122.60366,-0.27884603,-2.6489673,-0.28019658,-2.642906,-42.529068,56.580242
1169218750,-42.545963,125.97154,-0.27939323,-3.0895576,-0.27472246,-3.0998025,-41.454208,57.035778
1170703125,-42.289661,124.96063,-0.2792795,-3.5875568,-0.28111109,-3.583679,-42.630249,51.785294
1172187500,-42.293514,121.26132,-0.28086922,-4.0160027,-0.27642193,-4.0238242,-42.179092,52.136017
1173671875,-41.999416,120.18642,-0.27758875,-4.457839,-0.27958524,-4.5020289,-42.578217,53.791332
1175156250,-42.143978,118.9938,-0.28177965,-4.9385104,-0.27737984,-4.9368191,-41.750481,51.033672
1176640625,-42.005756,120.24352,-0.28046027,-5.3858089,-0.2775155,-5.3973598,-41.179188,47.383598
1178125000,-41.570759,116.00114,-0.28077301,-5.8563609,-0.28200218,-5.85783,-42.120316,48.658386
1179609375,-41.685204,116.46535,-0.28200674,-6.3109641,-0.27742055,-6.3346806,-41.226959,53.490314
1181093750,-41.950893,121.23685,-0.27994952,-6.7659321,-0.28239402,-6.8029189,-41.786304,52.884708
1182578125,-42.404438,114.99469,-0.28335541,-7.233933,-0.27942026,-7.2444291,-41.474735,47.636368
1184062500,-42.209915,111.79053,-0.27851623,-7.6883583,-0.27913806,-7.698957,-41.522961,49.108803
1185546875,-42.030792,109.65552,-0.2830148,-8.1462364,-0.28195676,-8.1817188,-41.441952,55.339458
1187031250,-41.60714,109.60563,-0.28043392,-8.6069479,-0.28094146,-8.6199846,-41.66404,51.003735
1188515625,-41.876751,109.3706,-0.28154567,-9.0685139,-0.28179321,-9.0768118,-41.312679,54.645798
1190000000,-41.736378,111.28007,-0.28192303,-9.5472574,-0.28117439,-9.5492878,-41.070724,52.283421
1191484375,-41.751266,106.44949,-0.28514206,-9.9905329,-0.28068176,-10.003613,-41.56897,51.162075
1192968750,-41.298809,108.75255,-0.28196836,-10.457332,-0.28342479,-10.471438,-41.160091,50.274364
1194453125,-41.772137,105.64301,-0.28204861,-10.8989,-0.28130966,-10.923403,-40.489082,49.369701
1195937500,-41.642948,104.49611,-0.28119546,-11.360066,-0.28124014,-11.405182,-41.103699,50.863907
1197421875,-41.45245,103.90986,-0.28287715,-11.852178,-0.28238574,-11.861556,-40.86544,51.866402
1198906250,-41.745625,106.56458,-0.28478205,-12.30134,-0.27967981,-12.311882,-40.392113,50.071487
1200390625,-41.562435,100.82819,-0.28500235,-12.750017,-0.28133339,-12.753635,-41.074745,49.411751
1201875000,-41.357033,99.777267,-0.28430495,-13.206583,-0.28821802,-13.207481,-40.625916,48.98027
1203359375,-40.813454,97.859909,-0.2859582,-13.686451,-0.2849392,-13.688935,-40.700073,53.129936
1204843750,-41.568241,96.533752,-0.28227267,-14.132409,-0.28269857,-14.152939,-40.16087,49.949711
1206328125,-41.486359,97.006943,-0.2876949,-14.588502,-0.27910724,-14.586057,-40.510788,50.654598
1207812500,-41.34763,94.902634,-0.28566155,-15.052451,-0.28337938,-15.058953,-40.584251,49.239143
1209296875,-41.488804,93.368401,-0.28409854,-15.488552,-0.28308636,-15.51661,-40.413586,47.615265
1210781250,-40.566978,93.921059,-0.28256583,-15.973656,-0.28369972,-15.982821,-40.362583,49.950241
1212265625,-41.021973,93.74292,-0.28527653,-16.429832,-0.28058121,-16.44883,-40.250584,48.146278
1213750000,-40.984951,92.325577,-0.28560328,-16.903656,-0.28818598,-16.896795,-40.586704,48.634129
1215234375,-40.949123,91.208344,-0.28942299,-17.352978,-0.28244406,-17.347546,-39.729736,50.18948
1216718750,-40.979782,88.320992,-0.28835914,-17.83367,-0.285456,-17.810003,-40.217113,50.599487
1218203125,-41.223354,87.554817,-0.28972641,-18.279871,-0.28251123,-18.291805,-39.640381,48.335018
1219687500,-40.974804,86.148636,-0.2879068,-18.726469,-0.2835747,-18.736853,-39.612129,46.675999
1221171875,-40.501968,84.751785,-0.28468031,-19.184631,-0.28594437,-19.185495,-40.094894,47.62759
1222656250,-40.338879,84.516113,-0.28733832,-19.66547,-0.28418195,-19.679174,-39.529007,47.487953
1224140625,-40.571754,85.206322,-0.28564039,-20.106962,-0.28632408,-20.149435,-39.720024,46.543491
1225625000,-40.300827,79.948143,-0.28612962,-20.565437,-0.28447682,-20.543228,-39.305771,47.990059
1227109375,-40.79248,85.797569,-0.28722307,-21.019472,-0.28706223,-21.043694,-39.110512,46.226509
1228593750,-39.943047,79.594177,-0.28538641,-21.488745,-0.28803954,-21.477337,-39.466606,45.440445
1230078125,-40.338936,80.629829,-0.28479806,-21.965649,-0.28846082,-21.958584,-39.927696,47.361832
1231562500,-39.984917,78.411217,-0.28455937,-22.417809,-0.28719378,-22.394873,-39.331284,45.286903
1233046875,-40.20892,77.101654,-0.28778714,-22.882168,-0.28605458,-22.875467,-39.197811,47.201607
1234531250,-39.950268,76.159134,-0.29297492,-23.330172,-0.28637066,-23.33725,-39.222099,45.163498
1236015625,-39.932175,75.717255,-0.28646347,-23.781771,-0.28427079,-23.780313,-39.099041,45.203815
1237500000,-39.963314,75.417473,-0.28841028,-24.223709,-0.28626263,-24.265163,-39.051247,45.500858
1238984375,-39.732269,74.680939,-0.28702471,-24.688612,-0.28464255,-24.720583,-38.581333,47.695801
1240468750,-39.710083,70.769691,-0.28885847,-25.162355,-0.29058588,-25.184788,-38.487438,45.014519
1241953125,-39.625626,70.969208,-0.29034871,-25.627176,-0.28691831,-25.635889,-38.570374,46.06031
1243437500,-39.413948,68.177544,-0.28897989,-26.090565,-0.28976217,-26.094469,-39.123104,44.690311
1244921875,-39.655754,69.373276,-0.29145354,-26.524675,-0.29078603,-26.554831,-38.689209,42.319988
1246406250,-39.72208,66.552521,-0.29034117,-27.002018,-0.28931537,-27.017788,-38.779457,45.657887
1247890625,-39.427734,68.045906,-0.2867994,-27.461489,-0.28942925,-27.468479,-38.733009,45.650772
1249375000,-39.632557,66.713287,-0.28851792,-27.922169,-0.28691092,-27.915642,-38.429279,43.393208
1250859375,-39.327682,66.726738,-0.28994015,-28.365862,-0.28981972,-28.395336,-38.361378,42.657112
1252343750,-39.045509,66.313248,-0.29014313,-28.86076,-0.29017508,-28.837767,-38.253647,45.066429
1253828125,-39.529621,64.616867,-0.28699374,-29.297813,-0.29004964,-29.322941,-38.445629,40.445889
1255312500,-38.867905,62.462791,-0.28988469,-29.765865,-0.28874764,-29.767624,-38.502872,42.098225
1256796875,-38.816162,63.787785,-0.29061088,-30.235592,-0.28550249,-30.228806,-38.393097,43.153572
1258281250,-39.202888,61.042099,-0.28668609,-30.688347,-0.28988606,-30.701534,-37.858799,41.008892
1259765625,-38.967445,62.379509,-0.29218987,-31.136166,-0.28860804,-31.148024,-38.37693,43.61375
1261250000,-38.904942,61.28022,-0.29217446,-31.599365,-0.28756982,-31.607704,-38.102638,42.398022
1262734375,-38.907906,59.228073,-0.28932655,-32.050018,-0.29054114,-32.070328,-37.825375,41.391266
1264218750,-38.322544,59.616093,-0.29432178,-32.53083,-0.28908712,-32.523663,-37.759106,42.697712
1265703125,-38.718281,58.452,-0.28783005,-32.983273,-0.29036963,-33.000229,-38.380615,43.041893
1267187500,-38.541775,58.919209,-0.29188851,-33.430542,-0.28996375,-33.443432,-37.689434,39.4282
1268671875,-38.740654,57.498051,-0.29531595,-33.899509,-0.2896226,-33.932785,-37.790588,41.30719
1270156250,-38.254917,53.33033,-0.2912634,-34.350727,-0.29223624,-34.362698,-37.647499,38.181767
1271640625,-38.517059,56.980091,-0.29350415,-34.798237,-0.29076746,-34.838879,-37.708199,38.470173
1273125000,-38.200787,52.070061,-0.29078159,-35.269684,-0.29331848,-35.303265,-37.696209,36.613747
1274609375,-38.078056,53.458183,-0.29237297,-35.744209,-0.29305062,-35.748112,-37.536896,37.057396
1276093750,-38.380325,51.937614,-0.29313669,-36.1917,-0.29215744,-36.21254,-37.746403,37.668964
1277578125,-38.450119,50.312946,-0.29351231,-36.655983,-0.29268685,-36.663029,-37.581028,38.852707
1279062500,-38.328243,53.70071,-0.29376251,-37.129154,-0.29136434,-37.113956,-37.526325,38.326
1280546875,-38.109703,49.820019,-0.29418796,-37.586533,-0.28887853,-37.59444,-37.663284,39.064274
1282031250,-38.203747,49.821056,-0.29503384,-38.02359,-0.28948802,-38.060574,-37.387005,36.1133
1283515625,-38.144199,49.648201,-0.29199618,-38.484367,-0.29138112,-38.493858,-37.46806,37.805809
1285000000,-38.039234,50.270687,-0.2926051,-38.948467,-0.29118007,-38.974243,-37.439796,36.054871
1286484375,-38.259529,46.429104,-0.29457286,-39.418953,-0.29189301,-39.408234,-37.344543,35.013432
1287968750,-37.817459,45.362495,-0.29458174,-39.895298,-0.29168311,-39.859615,-37.167095,36.141884
1289453125,-37.654285,46.22686,-0.29685405,-40.351295,-0.29059955,-40.342876,-37.270203,34.584633
1290937500,-37.617893,43.120792,-0.29356548,-40.80014,-0.2925182,-40.803467,-37.123344,35.142185
1292421875,-37.503235,45.314056,-0.29542431,-41.256397,-0.2922222,-41.266094,-37.261398,34.557987
1293906250,-38.087975,44.091389,-0.29733786,-41.721626,-0.29353398,-41.72456,-37.122055,34.138199
1295390625,-37.515617,43.061138,-0.29257503,-42.180874,-0.29517311,-42.176594,-36.809296,33.228123
