!CSV A.01.01
!Agilent Technologies,N5222A,MY51421451,A.09.90.02
!Agilent N5222A: A.09.90.02
!Date: Tuesday, January 28, 2014 15:58:39
!Source: Standard

BEGIN CH2_DATA
Freq(Hz),S33(DB),S33(DEG),S34(DB),S34(DEG),S43(DB),S43(DEG),S44(DB),S44(DEG)
1000000000,-35.071606,46.61113,-0.33795214,-38.007973,-0.33336064,-38.018887,-34.671371,38.629063
1001484375,-35.020134,47.398781,-0.33371148,-38.60096,-0.33343133,-38.587738,-34.687496,39.214516
1002968750,-34.839081,45.856785,-0.33669043,-39.186661,-0.33159077,-39.194874,-34.447468,36.361088
1004453125,-34.584328,43.599197,-0.3353914,-39.767918,-0.33708197,-39.767452,-34.484428,36.818432
1005937500,-34.731915,43.397331,-0.3336812,-40.368885,-0.33790863,-40.380733,-34.705162,37.807346
1007421875,-34.635189,42.910233,-0.33643207,-40.959908,-0.33558324,-40.937199,-34.593307,37.857311
1008906250,-34.381279,42.112103,-0.33961108,-41.535172,-0.33611116,-41.529736,-34.298336,35.800411
1010390625,-34.381901,41.19566,-0.33876985,-42.116169,-0.33709762,-42.146965,-34.214607,36.227318
1011875000,-34.46349,39.827774,-0.33712554,-42.708473,-0.33663753,-42.707195,-34.134884,36.097702
1013359375,-34.50161,40.814571,-0.33383167,-43.304337,-0.33741933,-43.302006,-34.108368,34.49707
1014843750,-34.220127,37.551964,-0.33425143,-43.891762,-0.33749288,-43.914581,-34.17268,33.091587
1016328125,-34.22052,38.429859,-0.34032112,-44.46542,-0.33689433,-44.487274,-34.188713,31.666414
1017812500,-34.058876,37.062027,-0.33737633,-45.076572,-0.33791623,-45.082748,-33.92799,31.855074
1019296875,-33.936211,36.947037,-0.33397153,-45.656872,-0.33643401,-45.66655,-34.278053,31.744961
1020781250,-34.059082,35.910015,-0.33662677,-46.239059,-0.33922121,-46.247162,-33.833748,30.293173
1022265625,-34.256958,34.815895,-0.338862,-46.847992,-0.3380712,-46.863075,-34.140209,31.048859
1023750000,-33.887676,34.855339,-0.3382374,-47.442173,-0.34392038,-47.439201,-33.975155,30.568577
1025234375,-33.86528,33.821434,-0.34066468,-48.022083,-0.33825067,-48.017395,-33.902351,29.669638
1026718750,-33.891136,32.214062,-0.33976761,-48.60532,-0.34214279,-48.596443,-33.8591,28.535463
1028203125,-33.849781,32.772743,-0.33883408,-49.19001,-0.33989355,-49.190567,-33.929279,29.240122
1029687500,-34.066185,30.128918,-0.33855715,-49.799534,-0.34005597,-49.801201,-33.974358,29.453207
1031171875,-33.686806,31.925913,-0.33959302,-50.350216,-0.34307665,-50.408886,-33.895256,25.130775
1032656250,-33.813259,30.101212,-0.33794791,-50.93885,-0.33869985,-50.962902,-33.914837,26.309149
1034140625,-33.992851,30.021315,-0.34057838,-51.56007,-0.34086087,-51.553844,-33.847614,26.200054
1035625000,-33.730801,30.139774,-0.34281626,-52.123604,-0.34146285,-52.159035,-33.581501,26.239996
1037109375,-33.807961,28.631422,-0.34015656,-52.712696,-0.34332469,-52.735535,-33.926746,23.568089
1038593750,-33.870872,27.021137,-0.34401649,-53.322598,-0.33752856,-53.310089,-33.619453,22.764238
1040078125,-33.844711,27.242781,-0.34184131,-53.905174,-0.34337485,-53.921833,-33.562828,23.505672
1041562500,-33.921665,28.678896,-0.34080598,-54.499454,-0.33969522,-54.504211,-33.467762,22.809668
1043046875,-33.647549,25.653961,-0.34150565,-55.081573,-0.34381905,-55.083019,-33.48082,21.564077
1044531250,-33.786415,25.827675,-0.34317484,-55.67337,-0.33940026,-55.688084,-33.487446,21.632923
1046015625,-33.575195,25.654753,-0.34105375,-56.249714,-0.34190178,-56.271843,-33.49881,20.242308
1047500000,-33.705276,23.686703,-0.34046996,-56.842781,-0.34515065,-56.853077,-33.577339,20.738876
1048984375,-33.511318,25.003622,-0.34350175,-57.429558,-0.34296826,-57.474094,-33.61573,19.221684
1050468750,-33.550816,23.582853,-0.34450921,-58.037422,-0.345498,-58.033031,-33.570553,19.406656
1051953125,-33.611115,22.589128,-0.34417722,-58.615742,-0.34653187,-58.611465,-33.504246,17.885059
1053437500,-33.62936,22.258663,-0.34370038,-59.205322,-0.34394148,-59.220699,-33.442719,15.944664
1054921875,-33.597126,21.790417,-0.34100074,-59.782879,-0.34584606,-59.800751,-33.550156,16.849943
1056406250,-33.676952,21.380857,-0.34602341,-60.381912,-0.34497726,-60.38776,-33.262299,15.922653
1057890625,-33.570679,20.165764,-0.34461242,-60.971718,-0.34495893,-60.993912,-33.470646,15.416219
1059375000,-33.408699,18.908838,-0.34301192,-61.548405,-0.34610489,-61.559807,-33.427006,14.280391
1060859375,-33.749107,18.541224,-0.34572431,-62.15958,-0.34302223,-62.140263,-33.438526,15.63529
1062343750,-33.599693,18.508955,-0.34553203,-62.739979,-0.34712213,-62.730843,-33.471241,12.933687
1063828125,-33.503792,17.756418,-0.34694934,-63.317875,-0.34682444,-63.329037,-33.448742,12.254282
1065312500,-33.495564,18.257967,-0.34657359,-63.913456,-0.3456361,-63.929703,-33.301487,12.568907
1066796875,-33.247051,17.192087,-0.34624213,-64.498238,-0.34291369,-64.521126,-33.264038,10.373423
1068281250,-33.429745,17.495293,-0.34502119,-65.089127,-0.34766033,-65.107422,-33.296871,11.697324
1069765625,-33.327675,15.753053,-0.34893537,-65.666481,-0.34599084,-65.704636,-33.221184,10.407842
1071250000,-33.331738,15.206017,-0.34218308,-66.265556,-0.34768257,-66.297234,-33.15797,9.6813326
1072734375,-33.578491,15.041462,-0.3495934,-66.856018,-0.34720451,-66.866814,-33.266628,9.5495071
1074218750,-33.324356,13.333315,-0.34925506,-67.461685,-0.34550893,-67.447739,-33.276276,8.9682713
1075703125,-33.305542,12.892777,-0.35078681,-68.020889,-0.34704122,-68.061928,-33.272697,7.2278533
1077187500,-33.194126,13.030528,-0.35392505,-68.628174,-0.34701371,-68.638435,-32.981201,7.2463517
1078671875,-33.166351,11.688125,-0.34793997,-69.233315,-0.34904811,-69.199547,-33.03883,7.2666402
1080156250,-33.275105,10.927862,-0.34747091,-69.819885,-0.34798378,-69.803383,-32.954178,6.5668631
1081640625,-33.130383,11.210906,-0.35040352,-70.397255,-0.34972107,-70.412865,-33.107338,6.5838137
1083125000,-33.152004,9.7976885,-0.34995013,-70.980881,-0.34884021,-71.016678,-33.04578,5.4312639
1084609375,-33.134087,9.6466084,-0.35002813,-71.586334,-0.34942728,-71.586754,-33.238487,5.4843535
1086093750,-33.195938,8.8746109,-0.34540465,-72.166748,-0.34806374,-72.146729,-33.200287,4.3261819
1087578125,-32.964973,8.1909361,-0.35016733,-72.743027,-0.35002607,-72.784515,-32.905251,4.4705319
1089062500,-33.31332,7.1018915,-0.35107964,-73.335541,-0.35008901,-73.344788,-33.117035,2.6803818
1090546875,-33.049889,6.0114942,-0.35143292,-73.933388,-0.34890357,-73.956551,-33.114429,3.6233523
1092031250,-33.07299,5.6608467,-0.35021123,-74.51606,-0.34849897,-74.528893,-33.007664,3.4409375
1093515625,-33.137104,4.6304336,-0.34965166,-75.096283,-0.34996814,-75.132973,-33.073036,0.32074043
1095000000,-32.882133,5.2620039,-0.35002735,-75.681137,-0.35192204,-75.72464,-33.131451,1.3075961
1096484375,-33.051674,3.86009,-0.35231355,-76.27626,-0.34935603,-76.28968,-33.154007,-0.18008777
1097968750,-32.998283,3.100112,-0.35052165,-76.857231,-0.35169101,-76.899567,-32.943264,0.33917096
1099453125,-33.003181,2.1515205,-0.3497273,-77.467064,-0.35041001,-77.467262,-32.968071,0.97788137
1100937500,-32.926502,1.7395791,-0.35051939,-78.051773,-0.34880078,-78.071457,-32.994648,-0.8564685
1102421875,-32.784805,2.1263988,-0.35149488,-78.658806,-0.35329241,-78.659309,-32.902916,-0.53289735
1103906250,-32.85561,-0.012925477,-0.35288337,-79.226326,-0.35069001,-79.231834,-32.866451,-1.0325134
1105390625,-33.152401,0.7425729,-0.35304457,-79.832092,-0.3521347,-79.828827,-32.925434,-1.9554917
1106875000,-32.884777,-0.013167628,-0.3535713,-80.403847,-0.35530403,-80.424019,-32.865322,-1.5709891
1108359375,-32.918247,-1.040651,-0.35434693,-80.97657,-0.35375232,-80.997673,-32.919754,-3.4443512
1109843750,-32.874321,-2.9764886,-0.3523629,-81.567192,-0.3504979,-81.58049,-32.746941,-3.1903481
1111328125,-32.797112,-2.6391912,-0.3490074,-82.154602,-0.35655004,-82.209511,-32.733608,-4.9112458
1112812500,-32.674114,-3.3856843,-0.3551921,-82.751648,-0.35485345,-82.773621,-32.85981,-5.2382259
1114296875,-32.838093,-3.862817,-0.35421321,-83.361107,-0.35112789,-83.375641,-32.65443,-5.978333
1115781250,-32.980694,-3.8206758,-0.35244894,-83.942665,-0.35554919,-83.940781,-32.833984,-5.5091805
1117265625,-32.699986,-5.5907068,-0.35517749,-84.530281,-0.35207525,-84.547096,-32.973026,-7.809092
1118750000,-32.768673,-5.7013946,-0.3523483,-85.124451,-0.35442108,-85.130821,-32.919704,-5.9956007
1120234375,-32.85363,-7.7025232,-0.35515919,-85.725357,-0.35733315,-85.697525,-32.958942,-7.6012921
1121718750,-32.769768,-5.9300528,-0.35508609,-86.293945,-0.35443261,-86.334106,-32.872517,-9.0962343
1123203125,-33.041527,-6.4232168,-0.35339981,-86.892738,-0.35644716,-86.907028,-32.892536,-7.5179725
1124687500,-32.783531,-7.8600779,-0.35682893,-87.475105,-0.35291216,-87.459618,-32.865643,-8.7131605
1126171875,-32.852615,-8.8331242,-0.35651138,-88.075806,-0.35359967,-88.06411,-32.761833,-9.2082272
1127656250,-32.894341,-8.422411,-0.3566671,-88.623734,-0.35748616,-88.653984,-32.927574,-11.270886
1129140625,-32.912731,-9.4641075,-0.3550652,-89.2285,-0.35522273,-89.231422,-33.03685,-11.657985
1130625000,-32.845341,-11.100364,-0.35614645,-89.822426,-0.35935044,-89.817825,-32.962967,-11.376998
1132109375,-32.956127,-12.178194,-0.35779315,-90.432045,-0.35117665,-90.400566,-33.060482,-11.375377
1133593750,-32.916782,-12.506918,-0.35734814,-90.993942,-0.35573632,-91.007927,-33.154881,-12.013228
1135078125,-32.858009,-12.59479,-0.35693508,-91.605911,-0.3590222,-91.618179,-33.089024,-13.178463
1136562500,-33.082905,-13.340717,-0.35578918,-92.190414,-0.35465539,-92.212708,-33.131565,-13.362928
1138046875,-33.014339,-13.538373,-0.35540161,-92.74585,-0.35876322,-92.79216,-33.254272,-13.90992
1139531250,-33.092487,-14.443933,-0.3554374,-93.353561,-0.35532498,-93.360733,-33.345608,-13.430872
1141015625,-33.188915,-14.926774,-0.35642424,-93.953156,-0.35303107,-93.960358,-33.065704,-15.099161
1142500000,-33.112911,-14.782887,-0.35606748,-94.532822,-0.35679922,-94.559967,-33.490112,-16.420845
1143984375,-33.248726,-17.254944,-0.35798603,-95.105164,-0.36189035,-95.117058,-33.366653,-15.507775
1145468750,-33.210888,-17.490881,-0.35586601,-95.716797,-0.35865986,-95.732948,-33.24054,-17.275665
1146953125,-33.447365,-16.112629,-0.35659447,-96.308029,-0.35748282,-96.315643,-33.331802,-17.642214
1148437500,-33.365139,-18.020424,-0.35987842,-96.904861,-0.35749295,-96.88916,-33.270687,-17.777376
1149921875,-33.271404,-18.459717,-0.36243519,-97.46862,-0.35786495,-97.482361,-33.342552,-19.271959
1151406250,-33.361736,-19.10494,-0.35836098,-98.081062,-0.35687867,-98.070992,-33.389629,-18.084501
1152890625,-33.412674,-19.833342,-0.35693005,-98.648659,-0.36271539,-98.658379,-33.478695,-19.212904
1154375000,-33.447361,-20.542162,-0.35892937,-99.250587,-0.35958704,-99.235161,-33.296974,-19.526825
1155859375,-33.432507,-21.06568,-0.36197716,-99.836563,-0.35859677,-99.837044,-33.501816,-21.655798
1157343750,-33.281322,-21.040195,-0.35580876,-100.40721,-0.36183345,-100.45656,-33.6651,-22.419325
1158828125,-33.530491,-20.639399,-0.35882065,-101.01187,-0.36042282,-101.03094,-33.51955,-24.310347
1160312500,-33.508396,-21.514431,-0.35953829,-101.61069,-0.3618755,-101.61911,-33.481689,-22.932344
1161796875,-33.513557,-22.121016,-0.36174023,-102.19048,-0.35972068,-102.19778,-33.402691,-23.325584
1163281250,-33.496132,-22.292215,-0.3617667,-102.80129,-0.35949671,-102.78529,-33.496151,-24.210213
1164765625,-33.821609,-23.493656,-0.35944515,-103.36207,-0.36088997,-103.3611,-33.583469,-24.724302
1166250000,-33.491924,-24.170601,-0.36093709,-103.9414,-0.36126748,-103.95108,-33.657131,-26.196194
1167734375,-33.569351,-25.538151,-0.36207446,-104.52603,-0.36187086,-104.56455,-33.887302,-28.152409
1169218750,-33.588474,-25.988417,-0.36191159,-105.13839,-0.35820585,-105.15428,-33.80114,-26.354317
1170703125,-33.589962,-27.376602,-0.3617104,-105.72643,-0.36002496,-105.7409,-33.76123,-27.12532
1172187500,-33.594116,-27.109331,-0.36032996,-106.31377,-0.36278614,-106.32541,-33.816055,-28.901806
1173671875,-33.696201,-27.74209,-0.35973862,-106.90539,-0.36048204,-106.91792,-33.828766,-28.883385
1175156250,-33.604931,-29.25634,-0.36540169,-107.47987,-0.36148039,-107.49747,-33.86137,-29.278439
1176640625,-33.672077,-28.758112,-0.3595795,-108.0694,-0.36512366,-108.11476,-34.044441,-30.975653
1178125000,-33.766235,-29.275879,-0.3585676,-108.67384,-0.36709186,-108.70598,-34.150467,-30.375183
1179609375,-33.678905,-31.141094,-0.36386979,-109.27505,-0.36198568,-109.28741,-34.0131,-33.080753
1181093750,-33.720314,-31.62075,-0.3666828,-109.85044,-0.36338782,-109.8458,-34.003342,-32.538017
1182578125,-33.968689,-30.581079,-0.36392745,-110.43537,-0.36163905,-110.49142,-34.27346,-32.520157
1184062500,-33.929596,-32.413044,-0.36574909,-111.03419,-0.36205739,-111.05298,-34.10318,-32.47221
1185546875,-33.904106,-33.105614,-0.36409533,-111.63121,-0.36506465,-111.6123,-34.239933,-34.163143
1187031250,-33.722916,-33.180862,-0.36866084,-112.22601,-0.36384496,-112.2173,-34.155262,-35.332386
1188515625,-34.093651,-34.901752,-0.36304656,-112.80068,-0.36783642,-112.80885,-34.110554,-33.976925
1190000000,-34.354633,-35.475464,-0.361792,-113.38943,-0.36510906,-113.40616,-34.124626,-34.675915
1191484375,-34.233566,-34.279076,-0.36575133,-113.96896,-0.36524618,-114.0078,-34.227474,-36.270969
1192968750,-34.191452,-34.71682,-0.36413077,-114.58695,-0.36338902,-114.56401,-34.301685,-37.05534
1194453125,-34.291328,-37.398968,-0.36319008,-115.158,-0.3631987,-115.15251,-34.509064,-36.336239
1195937500,-34.393452,-37.399147,-0.36465737,-115.74888,-0.3633194,-115.73987,-34.700726,-38.666759
1197421875,-34.201809,-37.285301,-0.36888614,-116.3226,-0.36509174,-116.33889,-34.530621,-38.337872
1198906250,-34.452724,-38.005169,-0.36447039,-116.92056,-0.36713502,-116.9144,-34.688004,-38.66465
1200390625,-34.224358,-39.549812,-0.36479735,-117.51292,-0.3666541,-117.52077,-34.558506,-38.577351
1201875000,-34.540882,-39.354816,-0.36860481,-118.11173,-0.36331624,-118.08683,-34.392876,-38.90501
1203359375,-34.491901,-40.410072,-0.36698037,-118.69232,-0.36765894,-118.69361,-34.548225,-38.165211
1204843750,-34.405937,-40.893478,-0.36706865,-119.27602,-0.36519215,-119.26915,-34.68,-40.527672
1206328125,-34.430683,-40.962791,-0.36857653,-119.87893,-0.36754629,-119.84686,-34.682789,-39.520844
1207812500,-34.682014,-42.257408,-0.36606732,-120.4494,-0.36564118,-120.48168,-34.885731,-39.519699
1209296875,-34.681137,-43.133141,-0.36943015,-121.02646,-0.36465147,-121.03439,-34.776188,-40.972343
1210781250,-34.533237,-44.729935,-0.3659493,-121.6317,-0.3694151,-121.62769,-34.676575,-42.513252
1212265625,-34.441021,-44.471668,-0.3678275,-122.21501,-0.36794597,-122.21783,-34.773499,-43.657616
1213750000,-34.806393,-46.344341,-0.36677346,-122.82294,-0.36683682,-122.81896,-34.785038,-43.299362
1215234375,-34.599476,-44.465233,-0.36944073,-123.39017,-0.36404604,-123.40618,-34.935913,-43.817562
1216718750,-34.778954,-46.36787,-0.36935309,-123.98134,-0.36560521,-123.98012,-35.13924,-44.562294
1218203125,-35.107769,-45.869999,-0.36792579,-124.57421,-0.36573172,-124.55239,-35.175823,-45.747009
1219687500,-34.980621,-48.79517,-0.37129596,-125.16416,-0.36848545,-125.17659,-35.095226,-42.961624
1221171875,-34.930229,-48.848251,-0.37018356,-125.75603,-0.36822408,-125.75047,-35.393715,-44.686501
1222656250,-34.923546,-48.280865,-0.3681592,-126.32678,-0.3687115,-126.35951,-35.275105,-44.918198
1224140625,-35.086494,-49.319145,-0.36894763,-126.91158,-0.36849371,-126.94601,-35.429962,-45.666077
1225625000,-35.247536,-51.399391,-0.36916283,-127.53098,-0.36766353,-127.51875,-35.374863,-46.487976
1227109375,-34.963428,-51.8423,-0.36902484,-128.10265,-0.36863786,-128.09802,-35.471897,-47.204536
1228593750,-35.312977,-52.345982,-0.36789858,-128.71571,-0.37013385,-128.68997,-35.504925,-48.293221
1230078125,-35.20377,-51.73283,-0.37050092,-129.27939,-0.36958474,-129.31554,-35.76107,-47.524826
1231562500,-35.454117,-54.093155,-0.36879322,-129.87672,-0.3726728,-129.88722,-35.65831,-49.371948
1233046875,-35.462147,-56.324936,-0.36986721,-130.46808,-0.36870965,-130.47711,-35.834122,-50.885868
1234531250,-35.542751,-54.491642,-0.36769596,-131.05128,-0.37079519,-131.06984,-36.083912,-47.785088
1236015625,-35.664459,-54.64156,-0.36825705,-131.65471,-0.36970887,-131.64641,-36.120403,-49.017021
1237500000,-36.064091,-56.606079,-0.37049815,-132.23853,-0.37359616,-132.23666,-36.064804,-51.043167
1238984375,-35.724857,-58.019321,-0.3713516,-132.82646,-0.37082621,-132.82779,-36.361252,-50.783154
1240468750,-35.916637,-57.804382,-0.37426755,-133.39975,-0.37362567,-133.42397,-36.461712,-51.670349
1241953125,-35.772705,-56.706921,-0.37086105,-134.00534,-0.37375313,-134.02432,-36.44294,-52.095177
1243437500,-36.348183,-58.12468,-0.37344319,-134.58673,-0.37154099,-134.58577,-36.54097,-50.930954
1244921875,-36.379395,-58.515995,-0.37343138,-135.1924,-0.37038293,-135.1879,-36.523201,-52.638538
1246406250,-36.212517,-61.531803,-0.36631984,-135.74257,-0.37531033,-135.78137,-37.014977,-55.028736
1247890625,-36.568142,-62.805851,-0.37333506,-136.33325,-0.37254807,-136.35121,-37.010052,-54.038219
1249375000,-36.758602,-61.337109,-0.37023461,-136.93385,-0.37047338,-136.95895,-37.180866,-54.626305
1250859375,-36.53838,-61.905037,-0.37099007,-137.53853,-0.37564149,-137.55055,-37.283222,-56.014324
1252343750,-36.975868,-62.645329,-0.36932072,-138.10867,-0.37213147,-138.1259,-37.195847,-57.262852
1253828125,-36.722702,-65.633881,-0.37129292,-138.69067,-0.37234086,-138.71959,-37.459431,-56.676105
1255312500,-37.208874,-62.605679,-0.37304968,-139.31923,-0.37207329,-139.30486,-37.56065,-56.911427
1256796875,-37.143429,-64.299774,-0.37281597,-139.88611,-0.37406722,-139.89011,-37.580608,-59.186924
1258281250,-37.372414,-63.919792,-0.37354338,-140.47632,-0.37343389,-140.47887,-37.78764,-57.052837
1259765625,-37.188389,-65.165359,-0.37272561,-141.07368,-0.37508267,-141.08955,-37.917442,-58.802513
1261250000,-37.468105,-65.792793,-0.37152776,-141.6425,-0.37179554,-141.65349,-38.205772,-58.119324
1262734375,-37.792339,-66.047966,-0.3728947,-142.22852,-0.37622756,-142.2426,-38.389561,-61.855995
1264218750,-37.948448,-67.307281,-0.37540436,-142.8219,-0.37569728,-142.85175,-38.214764,-60.595806
1265703125,-38.092995,-66.860222,-0.37531552,-143.44145,-0.37783962,-143.42575,-38.502251,-60.098202
1267187500,-37.906055,-67.950912,-0.37251538,-144.01515,-0.37409309,-144.00911,-39.0783,-61.917564
1268671875,-38.041363,-66.329292,-0.37494537,-144.58313,-0.37681296,-144.58563,-38.694054,-60.376324
1270156250,-38.132252,-69.32196,-0.37414205,-145.19008,-0.37282145,-145.22267,-38.595078,-63.349686
1271640625,-38.172459,-71.13755,-0.3754808,-145.75452,-0.3752543,-145.78964,-39.030598,-65.266716
1273125000,-38.509495,-69.207695,-0.3775003,-146.37219,-0.37492812,-146.37141,-39.259323,-66.128166
1274609375,-38.608944,-71.797005,-0.37671724,-146.96501,-0.37471756,-146.99155,-39.14225,-63.757694
1276093750,-39.083763,-71.911324,-0.3763648,-147.558,-0.37469247,-147.53972,-39.2342,-63.404293
1277578125,-38.559181,-72.706978,-0.37546906,-148.13998,-0.37718651,-148.1221,-39.52095,-64.032928
1279062500,-39.058998,-75.503571,-0.37603197,-148.71648,-0.37653321,-148.718,-39.386292,-66.491226
1280546875,-39.06089,-72.587761,-0.37939587,-149.30655,-0.37541431,-149.30597,-39.780247,-67.169785
1282031250,-39.533493,-73.554512,-0.37465182,-149.89186,-0.37883943,-149.91873,-39.555897,-68.48645
1283515625,-39.424397,-75.138069,-0.3763065,-150.50204,-0.37452477,-150.50917,-39.708088,-67.059326
1285000000,-39.372948,-76.47538,-0.37305969,-151.09209,-0.37754643,-151.06728,-40.007446,-65.940323
1286484375,-39.524944,-76.752136,-0.37851691,-151.6452,-0.37956822,-151.68364,-40.48056,-70.967255
1287968750,-40.014877,-78.365219,-0.37719241,-152.26364,-0.38180599,-152.26669,-40.350288,-70.167931
1289453125,-40.000408,-78.991676,-0.37826824,-152.84547,-0.37372842,-152.8678,-41.003017,-71.997154
