!CSV A.01.01
!Agilent Technologies,N5222A,MY51421451,A.09.90.02
!Agilent N5222A: A.09.90.02
!Date: Saturday, January 18, 2014 14:02:45
!Source: Standard

BEGIN CH1_DATA
Freq(Hz),S11(DB),S11(DEG),S12(DB),S12(DEG),S21(DB),S21(DEG),S22(DB),S22(DEG)
1000000000,-40.15324,-65.928444,-0.42953539,-148.26953,-0.42755416,-148.26889,-39.968906,-81.804306
1001476562.5,-40.998615,-63.896374,-0.42996919,-149.01968,-0.42299283,-149.01964,-39.039371,-80.609917
1002953125,-40.518101,-67.876587,-0.42895448,-149.78046,-0.42659619,-149.76337,-40.041958,-82.967171
1004429687.5,-41.033348,-66.769073,-0.427766,-150.5295,-0.42905486,-150.47742,-39.966351,-79.252426
1005906250,-40.672596,-66.899681,-0.42928109,-151.24768,-0.43096066,-151.22711,-40.266453,-77.100014
1007382812.5,-40.722626,-66.324577,-0.43204659,-152.02156,-0.42711401,-152.00926,-41.159058,-85.976372
1008859375,-40.722183,-70.883484,-0.42766112,-152.78671,-0.42793438,-152.75731,-40.487938,-83.178673
1010335937.5,-41.440369,-68.469826,-0.42853633,-153.53629,-0.43029422,-153.50563,-40.718975,-85.246315
1011812500,-41.375042,-65.099693,-0.43123755,-154.26843,-0.42666563,-154.25848,-40.53944,-90.765404
1013289062.5,-41.46384,-67.600647,-0.42918906,-155.00435,-0.43020597,-155.02168,-40.739651,-92.11174
1014765625,-41.323086,-68.555748,-0.43463624,-155.75432,-0.43013901,-155.77423,-41.13298,-86.958344
1016242187.5,-41.941448,-68.550926,-0.43167788,-156.48732,-0.42955482,-156.50407,-41.25013,-87.083618
1017718750,-41.502804,-69.408882,-0.43079609,-157.2532,-0.43450901,-157.23846,-41.070713,-94.418007
1019195312.5,-41.647148,-70.751694,-0.43106776,-158.00009,-0.42768812,-157.99527,-41.411324,-89.489235
1020671875,-42.441448,-69.100731,-0.43206182,-158.75888,-0.4246285,-158.74826,-41.700375,-92.742569
1022148437.5,-42.496304,-70.253014,-0.43661165,-159.50522,-0.42747694,-159.48117,-41.765209,-92.389694
1023625000,-42.778431,-72.487839,-0.43277031,-160.26698,-0.43549955,-160.2233,-41.827122,-91.305641
1025101562.5,-43.132462,-74.075615,-0.4315421,-160.99197,-0.43296221,-160.95934,-41.955708,-95.422134
1026578125,-42.840317,-68.756615,-0.43271199,-161.73994,-0.43467546,-161.74567,-41.941963,-90.040161
1028054687.5,-43.349335,-71.678307,-0.43533742,-162.4846,-0.43205529,-162.48814,-43.565628,-92.135384
1029531250,-43.896198,-74.079575,-0.43462446,-163.25719,-0.43379599,-163.22586,-42.732452,-93.56118
1031007812.5,-44.089481,-69.136391,-0.43611771,-164.00296,-0.4349362,-163.96788,-43.347443,-98.588989
1032484375,-43.478748,-70.264137,-0.43766445,-164.74274,-0.43169051,-164.73773,-43.559353,-101.04749
1033960937.5,-44.427414,-71.823677,-0.43213689,-165.48439,-0.43245232,-165.46785,-43.626781,-106.42696
1035437500,-45.179337,-66.453407,-0.4349069,-166.23541,-0.43385521,-166.26195,-43.770969,-98.769127
1036914062.5,-44.821701,-74.192085,-0.43635082,-166.95998,-0.43506062,-167.00075,-44.068951,-101.39806
1038390625,-45.935814,-65.837646,-0.43511415,-167.72928,-0.43345544,-167.7542,-44.326382,-104.0643
1039867187.5,-44.837639,-68.148415,-0.43566251,-168.48589,-0.4334572,-168.4762,-45.036861,-103.15915
1041343750,-46.332035,-63.488964,-0.43674996,-169.22931,-0.43285558,-169.21167,-44.821201,-104.93686
1042820312.5,-46.39909,-63.917664,-0.4360382,-169.98543,-0.43162757,-169.98325,-44.519592,-113.8258
1044296875,-48.163296,-69.163643,-0.4404588,-170.73102,-0.43725488,-170.72275,-45.259743,-113.24072
1045773437.5,-47.200249,-63.291355,-0.43959603,-171.4857,-0.4308244,-171.48882,-45.15963,-115.58937
1047250000,-47.134506,-65.649811,-0.43910772,-172.21007,-0.43723828,-172.19473,-45.93063,-119.49017
1048726562.5,-47.484325,-60.685242,-0.43721682,-172.955,-0.43620512,-172.94824,-47.234138,-117.63499
1050203125,-46.81546,-59.291008,-0.44150966,-173.73961,-0.43631819,-173.74806,-47.636147,-117.5057
1051679687.5,-48.002586,-52.324287,-0.43802285,-174.46205,-0.43339574,-174.45311,-47.651768,-128.71112
1053156250,-49.158821,-50.361847,-0.43775266,-175.22557,-0.44052517,-175.2319,-47.005062,-119.85429
1054632812.5,-48.610985,-49.698124,-0.43406355,-175.92805,-0.43729031,-175.96635,-48.821693,-118.78325
1056109375,-49.465603,-44.227543,-0.43949026,-176.72531,-0.43543667,-176.69453,-48.674549,-118.57538
1057585937.5,-49.528519,-47.391422,-0.44122022,-177.46667,-0.43567556,-177.44438,-49.708961,-128.20566
1059062500,-49.19841,-43.108463,-0.44018075,-178.22389,-0.4383238,-178.21564,-49.728119,-131.4269
1060539062.5,-49.403278,-37.686378,-0.44311076,-178.96558,-0.43805423,-178.96075,-49.378529,-126.43723
1062015625,-50.448082,-38.265984,-0.44289419,-179.69446,-0.43776545,-179.70573,-50.273067,-125.42346
1063492187.5,-50.739899,-47.01305,-0.44558057,179.53516,-0.43716848,179.52214,-49.630852,-144.38756
1064968750,-50.299484,-22.339064,-0.44324145,178.79181,-0.4383876,178.79668,-49.857891,-149.03336
1066445312.5,-49.847923,-35.163689,-0.44454402,178.06041,-0.43992162,178.01651,-50.910152,-140.48817
1067921875,-48.977638,-33.332424,-0.4417505,177.29012,-0.43775713,177.27448,-52.761082,-139.74081
1069398437.5,-50.968353,-27.360588,-0.44283736,176.55312,-0.44161874,176.55928,-53.395206,-151.71419
1070875000,-50.488686,-25.046787,-0.44175428,175.80202,-0.43909317,175.81821,-51.585049,-148.92624
1072351562.5,-50.710064,-18.433386,-0.4458839,175.06844,-0.44248047,175.03258,-51.641361,-150.40787
1073828125,-50.927765,-8.1393423,-0.4459928,174.31372,-0.44026235,174.3141,-55.990337,-155.02092
1075304687.5,-50.406647,-13.707563,-0.44258201,173.55438,-0.44441563,173.56398,-54.263554,164.5728
1076781250,-50.130989,-9.6493111,-0.44364083,172.79532,-0.44402766,172.8035,-55.732655,-178.74463
1078257812.5,-49.753647,-5.4812374,-0.44556019,172.03865,-0.44061619,172.07603,-58.299644,-174.80937
1079734375,-50.876934,-0.80459654,-0.44253686,171.31085,-0.44293675,171.32457,-54.454334,157.63129
1081210937.5,-49.842587,2.3726962,-0.44547385,170.54109,-0.44216594,170.57747,-56.464821,-169.82719
1082687500,-50.728249,6.6720366,-0.44970134,169.81517,-0.44399559,169.81627,-54.749699,170.18016
1084164062.5,-50.158554,-3.2074604,-0.44244838,169.06593,-0.44558582,169.0656,-54.996685,153.01256
1085640625,-48.371853,4.8618402,-0.44635698,168.31975,-0.44795483,168.3152,-58.222195,140.11499
1087117187.5,-48.356564,12.341529,-0.44812208,167.58351,-0.43978015,167.5632,-54.277199,120.29016
1088593750,-48.695118,7.9398489,-0.44814348,166.82256,-0.44853783,166.81079,-59.654449,134.59064
1090070312.5,-48.005363,9.4143753,-0.44682065,166.08626,-0.44429123,166.05148,-54.588165,119.57701
1091546875,-47.846321,15.559587,-0.45191309,165.32695,-0.44770813,165.31342,-52.623688,108.93304
1093023437.5,-47.398182,15.812166,-0.44892216,164.57593,-0.44891489,164.56715,-54.150112,102.52642
1094500000,-47.68615,16.46686,-0.44797492,163.84647,-0.44683525,163.85429,-52.744308,112.75808
1095976562.5,-47.338501,14.119531,-0.45152974,163.06891,-0.44811004,163.09723,-52.151749,100.36908
1097453125,-46.722301,20.5828,-0.45158076,162.32428,-0.44781873,162.32672,-53.16317,91.563881
1098929687.5,-46.957767,17.400127,-0.44991758,161.56171,-0.44798324,161.60931,-50.919819,102.17699
1100406250,-46.94434,14.190203,-0.4448283,160.82051,-0.44930023,160.84366,-50.365894,96.427162
1101882812.5,-46.577805,11.323333,-0.45145097,160.09528,-0.44367021,160.07793,-50.456711,87.460846
1103359375,-45.481075,15.644982,-0.45606315,159.35298,-0.44751769,159.31839,-48.407566,90.793724
1104835937.5,-45.403679,12.627844,-0.45339173,158.58101,-0.44307405,158.62106,-48.995956,75.620567
1106312500,-45.628906,13.435842,-0.44679824,157.84444,-0.44779003,157.84146,-49.178329,80.052353
1107789062.5,-44.972218,21.177406,-0.45045605,157.10699,-0.44880494,157.09317,-50.013817,74.028954
1109265625,-45.594929,11.514081,-0.44993871,156.36433,-0.4498094,156.34595,-49.483845,82.016533
1110742187.5,-44.903912,13.550238,-0.44975758,155.59724,-0.45058972,155.59726,-48.287086,78.769272
1112218750,-45.202244,17.531225,-0.45302141,154.85321,-0.44773403,154.8681,-48.014996,78.527748
1113695312.5,-44.170494,18.537186,-0.4540503,154.09694,-0.4516075,154.12477,-47.495472,72.491966
1115171875,-44.038845,12.062613,-0.45240772,153.34074,-0.4498238,153.35699,-47.724998,68.749191
1116648437.5,-43.675365,10.925435,-0.45261627,152.61415,-0.44965619,152.58122,-47.709999,66.221298
1118125000,-43.685593,17.143457,-0.45567936,151.85564,-0.45560089,151.84717,-46.967865,68.887131
1119601562.5,-43.651711,15.821199,-0.45303753,151.09738,-0.45284566,151.09486,-47.311909,65.349823
1121078125,-43.540997,15.296127,-0.45657608,150.3633,-0.45330542,150.3322,-45.997246,62.987129
1122554687.5,-43.336506,12.393571,-0.45369712,149.59514,-0.45211393,149.64267,-46.598953,60.954865
1124031250,-43.34256,15.646149,-0.45442885,148.85388,-0.45268133,148.9007,-46.923538,61.895947
1125507812.5,-42.947929,18.5786,-0.45533451,148.11153,-0.45061946,148.12148,-45.753265,63.352394
1126984375,-42.544773,16.161484,-0.4564327,147.35948,-0.45119706,147.38513,-45.1264,64.86615
1128460937.5,-42.427525,14.309599,-0.45608518,146.61046,-0.45145789,146.63017,-44.756485,64.869835
1129937500,-42.129353,12.633624,-0.45474467,145.87141,-0.4527649,145.88565,-45.097385,57.520172
1131414062.5,-41.951557,15.128063,-0.45475283,145.13316,-0.45400408,145.11247,-44.014973,52.449753
1132890625,-41.885254,17.965815,-0.45555311,144.36446,-0.45305753,144.38713,-43.961666,52.706779
1134367187.5,-41.665165,15.794043,-0.45915318,143.63203,-0.45976952,143.6246,-43.736656,52.686798
1135843750,-41.219254,14.087165,-0.45902267,142.86803,-0.45378998,142.8828,-42.785748,54.19149
1137320312.5,-41.008884,15.392218,-0.45978221,142.14046,-0.45194682,142.12143,-42.734383,55.630276
1138796875,-40.725639,16.064789,-0.46103567,141.39275,-0.45387134,141.35931,-43.122177,51.49667
1140273437.5,-40.553421,13.449363,-0.45422664,140.63112,-0.45696425,140.64267,-42.705509,53.778606
1141750000,-40.523094,12.878205,-0.45762989,139.89731,-0.45882702,139.87126,-42.068699,47.996803
1143226562.5,-40.331505,12.894591,-0.46016449,139.14372,-0.45450562,139.10298,-41.817387,49.615524
1144703125,-40.348618,10.972948,-0.46079761,138.39792,-0.45869467,138.40117,-42.355152,44.957737
1146179687.5,-40.081501,12.946781,-0.46115786,137.62755,-0.45796916,137.63246,-42.099411,46.210434
1147656250,-39.778538,12.504298,-0.45967996,136.88161,-0.45697927,136.88574,-41.819313,43.129147
1149132812.5,-39.532516,9.6065674,-0.46094802,136.144,-0.45713124,136.14034,-40.934307,44.418053
1150609375,-39.623596,9.2863636,-0.46087873,135.4054,-0.45525587,135.42511,-41.18932,41.436321
1152085937.5,-39.36599,10.892208,-0.46376723,134.63559,-0.45952916,134.62479,-41.246849,43.087284
1153562500,-39.474506,10.732588,-0.46157208,133.85374,-0.46065956,133.89903,-40.682674,43.196339
1155039062.5,-39.504238,9.7590761,-0.4594163,133.1422,-0.45759362,133.14754,-40.716732,41.692448
1156515625,-39.009365,8.7972355,-0.45979619,132.40292,-0.45687062,132.41367,-40.376556,40.592163
1157992187.5,-38.911274,8.742588,-0.46226424,131.62769,-0.46178016,131.67299,-40.290985,40.224968
1159468750,-38.673298,7.8958497,-0.46212658,130.91368,-0.45794034,130.89497,-40.322742,38.952301
1160945312.5,-38.547306,6.282011,-0.46252081,130.16278,-0.458233,130.13187,-40.378365,35.955074
1162421875,-38.665409,8.0349684,-0.45832992,129.4189,-0.46067923,129.41676,-40.239544,31.929983
1163898437.5,-38.51128,6.2428679,-0.46272707,128.65184,-0.45730144,128.68155,-39.779968,32.966057
1165375000,-38.613346,3.3855,-0.46550673,127.91137,-0.4624595,127.91492,-39.545834,32.8283
1166851562.5,-38.563755,5.3260303,-0.46602386,127.16914,-0.46373704,127.13255,-39.359253,31.229664
1168328125,-38.12151,5.7750859,-0.46857536,126.42639,-0.45949462,126.38354,-39.510826,30.647579
1169804687.5,-38.146297,4.4514728,-0.46660408,125.66879,-0.45940953,125.67104,-39.399239,29.718946
1171281250,-38.191704,3.652113,-0.4647795,124.91521,-0.46464238,124.90402,-39.12376,28.707314
1172757812.5,-37.879314,2.7879372,-0.46415329,124.17333,-0.46375638,124.16896,-39.230606,27.32696
1174234375,-37.766457,1.9487553,-0.46532702,123.39248,-0.46640205,123.44241,-38.754433,26.627985
1175710937.5,-37.73328,2.4509358,-0.46677285,122.67443,-0.46436456,122.67076,-38.55405,27.057123
1177187500,-37.634811,2.4151816,-0.4661254,121.91359,-0.46368811,121.92204,-39.11491,23.744455
1178664062.5,-37.762783,1.9197807,-0.46725366,121.20051,-0.46335351,121.17029,-39.016087,24.533682
1180140625,-37.695618,1.9242076,-0.47052267,120.40815,-0.46486276,120.43099,-38.578667,22.614283
1181617187.5,-37.471443,1.1406032,-0.46713248,119.66702,-0.46459529,119.72505,-38.811531,27.20422
1183093750,-37.391552,1.5205542,-0.46814698,118.93347,-0.46454749,118.94407,-38.462627,23.613764
1184570312.5,-37.283642,-0.5713079,-0.46445686,118.19524,-0.46772107,118.18849,-38.468399,21.513958
1186046875,-37.360104,-0.067122638,-0.46784252,117.43968,-0.46780682,117.44627,-38.671959,21.905914
1187523437.5,-37.214699,-2.231957,-0.46802342,116.68333,-0.46615371,116.71783,-38.457203,22.142393
1189000000,-37.080292,-1.9799436,-0.46893454,115.92509,-0.46737117,115.93217,-38.297428,22.183748
1190476562.5,-37.10297,-2.9791555,-0.46840402,115.188,-0.46545678,115.19964,-38.503979,18.659237
1191953125,-36.889534,-4.4977698,-0.47095135,114.43192,-0.46643245,114.4533,-38.330418,16.137218
1193429687.5,-36.922607,-4.4717689,-0.46940401,113.69621,-0.4647907,113.69234,-38.34404,16.339397
1194906250,-36.88866,-5.0525599,-0.46737123,112.95715,-0.46929491,112.96055,-38.064445,16.359335
1196382812.5,-37.051056,-5.8842173,-0.47097439,112.22537,-0.46615633,112.20029,-37.930885,15.416459
1197859375,-36.808678,-6.9727283,-0.47018334,111.44637,-0.464329,111.46493,-37.725174,15.944003
1199335937.5,-36.737484,-6.5368333,-0.47002009,110.71098,-0.46846861,110.7137,-37.930092,12.204849
1200812500,-36.802166,-7.3277249,-0.47007093,109.95691,-0.46688032,109.91666,-37.702774,11.568337
1202289062.5,-36.649525,-8.9407682,-0.46886244,109.19337,-0.46464831,109.21902,-37.434906,12.98675
1203765625,-36.588707,-8.2682323,-0.47257939,108.46806,-0.46938872,108.44956,-37.477089,11.68503
1205242187.5,-36.52932,-9.2189913,-0.4677031,107.71136,-0.47623256,107.72938,-37.62925,11.711228
1206718750,-36.501934,-10.47139,-0.47476393,106.96459,-0.47210065,106.96626,-37.456188,9.6195736
1208195312.5,-36.50404,-10.911716,-0.47229946,106.19025,-0.47309703,106.21186,-37.418301,10.414165
1209671875,-36.36866,-11.936361,-0.47063133,105.43547,-0.47352028,105.50375,-37.468712,10.836143
1211148437.5,-36.40575,-12.484747,-0.47261059,104.71095,-0.46736383,104.72177,-37.254612,9.2501917
1212625000,-36.609802,-11.855094,-0.47262725,103.97769,-0.47098821,103.96911,-37.280857,8.5502872
1214101562.5,-36.62896,-12.882402,-0.47260916,103.20114,-0.47159192,103.21652,-37.394985,7.2901411
1215578125,-36.328949,-13.793274,-0.47272596,102.46338,-0.47187167,102.50666,-37.166012,6.5552855
1217054687.5,-36.224731,-14.816883,-0.47398722,101.72776,-0.47223938,101.73007,-36.958656,5.0690913
1218531250,-36.031528,-14.312735,-0.47490823,100.98452,-0.47420317,100.99008,-37.040119,6.278079
1220007812.5,-36.112057,-15.382363,-0.47115472,100.23138,-0.4754605,100.2216,-37.235451,1.451889
1221484375,-36.037804,-17.741152,-0.47685757,99.476707,-0.47258168,99.496536,-36.77887,2.9372346
1222960937.5,-36.159168,-17.944658,-0.47687101,98.758484,-0.47198129,98.722954,-36.561356,0.69224948
1224437500,-35.960155,-16.704367,-0.47779998,97.972549,-0.47315007,97.995499,-36.812695,1.0066643
1225914062.5,-35.958099,-18.460018,-0.47639173,97.236626,-0.47422969,97.246758,-37.113991,-1.7267543
1227390625,-35.866436,-19.441919,-0.47620261,96.490639,-0.47819179,96.487999,-36.619442,-0.66414952
1228867187.5,-35.760834,-19.450224,-0.47751772,95.745132,-0.47263563,95.743919,-36.837452,-2.3805068
1230343750,-35.822227,-20.955301,-0.47412354,94.996956,-0.47153866,95.022896,-36.625446,-1.8917609
1231820312.5,-35.696774,-21.734468,-0.47740179,94.240334,-0.47495946,94.244751,-36.773129,-3.1847534
1233296875,-35.801929,-21.402666,-0.47753784,93.501778,-0.47556034,93.485733,-35.914001,-4.7626038
1234773437.5,-35.618935,-21.79026,-0.47675011,92.735466,-0.48067349,92.719032,-36.588432,-5.6280599
1236250000,-35.684059,-22.637238,-0.47493857,92.008598,-0.47798452,91.995483,-36.482998,-3.8689697
1237726562.5,-35.54118,-22.862249,-0.47967899,91.253632,-0.47625938,91.241699,-36.348625,-4.9924374
1239203125,-35.666588,-25.253,-0.47955427,90.502228,-0.47714129,90.50219,-36.436104,-5.9654307
1240679687.5,-35.628281,-23.656507,-0.47602472,89.758965,-0.47795621,89.747551,-36.280502,-5.77249
1242156250,-35.643795,-26.305786,-0.47670859,89.015358,-0.47836527,89.016685,-36.426979,-9.1867447
1243632812.5,-35.658775,-26.29047,-0.47336563,88.26738,-0.47917658,88.216385,-36.607109,-8.6016483
1245109375,-35.391491,-26.429567,-0.4774085,87.51516,-0.47875297,87.501015,-36.686684,-7.6471262
1246585937.5,-35.587578,-26.854166,-0.47845516,86.740089,-0.48086089,86.808601,-36.23875,-9.7745018
1248062500,-35.389885,-29.22331,-0.47607255,86.038124,-0.47600469,86.020264,-36.035492,-9.7169933
1249539062.5,-35.473831,-28.75746,-0.48028234,85.266388,-0.47842336,85.247093,-35.836731,-9.3375282
1251015625,-35.672138,-30.10844,-0.48338258,84.520981,-0.47767884,84.541748,-35.982143,-13.602751
1252492187.5,-35.302525,-30.207447,-0.4816817,83.788681,-0.47888708,83.75602,-35.831604,-15.032714
1253968750,-35.451298,-31.612783,-0.48089519,83.015778,-0.47959426,83.015663,-35.852859,-11.336174
1255445312.5,-35.368477,-32.752235,-0.47881821,82.280205,-0.47978526,82.271408,-36.464848,-13.5773
1256921875,-35.482342,-31.873543,-0.48236984,81.54026,-0.48106563,81.515411,-35.999203,-14.44889
1258398437.5,-35.169739,-32.720913,-0.48220253,80.769516,-0.47681198,80.78389,-36.188675,-16.799734
1259875000,-35.267544,-32.844814,-0.4846139,80.031174,-0.48253798,80.046944,-36.284031,-15.391176
1261351562.5,-35.287388,-33.788807,-0.47805232,79.315987,-0.47812781,79.279724,-36.215466,-17.260359
1262828125,-35.135212,-34.78709,-0.4837147,78.541336,-0.47809774,78.549011,-35.857445,-19.581947
1264304687.5,-35.323612,-34.232559,-0.48060256,77.763603,-0.48001644,77.7966,-35.930946,-17.582655
1265781250,-35.292282,-34.194767,-0.48157495,77.049866,-0.48434553,77.05117,-35.750271,-19.909784
1267257812.5,-35.438557,-35.394375,-0.48351273,76.295204,-0.4813427,76.273552,-35.873249,-18.9834
1268734375,-35.51717,-38.471554,-0.48185402,75.548691,-0.48129523,75.551643,-35.963486,-19.832193
1270210937.5,-35.305508,-36.648697,-0.48005846,74.811691,-0.48335478,74.78701,-36.402546,-23.056015
1271687500,-35.28429,-37.728527,-0.4832423,74.044952,-0.48308283,74.06134,-35.882984,-22.182634
1273164062.5,-35.285259,-38.414108,-0.48601067,73.294029,-0.48168147,73.294357,-35.972347,-21.332867
1274640625,-35.232155,-38.056793,-0.48732099,72.554214,-0.48091939,72.576263,-35.836411,-24.845045
1276117187.5,-35.330585,-37.973202,-0.48429239,71.807854,-0.48118493,71.78624,-35.676437,-26.549139
1277593750,-35.032814,-39.489006,-0.48461246,71.054298,-0.47774646,71.043915,-35.542274,-24.863504
1279070312.5,-35.178589,-41.379215,-0.4860799,70.323212,-0.48114347,70.284348,-35.865509,-27.583649
1280546875,-35.380852,-42.3871,-0.485304,69.575386,-0.4868466,69.573875,-35.823612,-24.756773
1282023437.5,-35.228214,-42.049488,-0.48681337,68.811852,-0.48493934,68.777794,-36.098278,-27.161011
1283500000,-35.356094,-43.910149,-0.48952606,68.065407,-0.48443338,68.053009,-35.97023,-26.782299
1284976562.5,-35.215092,-43.549034,-0.48603937,67.306389,-0.48947108,67.302673,-35.87381,-27.796173
1286453125,-35.286091,-44.145073,-0.48841515,66.574341,-0.48847863,66.576157,-36.025349,-29.820845
1287929687.5,-35.290127,-45.975918,-0.48470092,65.802567,-0.48612523,65.818161,-35.609177,-28.902773
1289406250,-35.367573,-47.048222,-0.49063301,65.074623,-0.48715132,65.085754,-35.77721,-31.276703
1290882812.5,-35.279881,-46.536247,-0.48857668,64.325684,-0.48724192,64.333267,-35.844246,-31.649851
