!CSV A.01.01
!Agilent Technologies,N5222A,MY51421451,A.09.90.02
!Agilent N5222A: A.09.90.02
!Date: Saturday, January 18, 2014 13:53:41
!Source: Standard

BEGIN CH1_DATA
Freq(Hz),S11(DB),S11(DEG),S12(DB),S12(DEG),S21(DB),S21(DEG),S22(DB),S22(DEG)
4000000000,-32.12682,-142.32204,-0.81573713,-141.08823,-0.81653106,-141.02872,-35.666187,48.321926
4000312500,-32.100079,-137.76631,-0.80905378,-141.09897,-0.80172598,-141.17551,-35.459427,43.774643
4000625000,-32.098072,-139.32336,-0.81252187,-141.27771,-0.80467355,-141.31706,-35.474361,43.259907
4000937500,-32.124474,-140.64182,-0.80897492,-141.49576,-0.80900574,-141.48741,-35.493317,43.916988
4001250000,-32.096882,-141.63707,-0.81479591,-141.67159,-0.81365949,-141.65656,-35.431435,43.599354
4001562500,-32.105461,-142.44009,-0.81296873,-141.84189,-0.81366593,-141.80888,-35.475609,44.586388
4001875000,-32.097404,-142.40306,-0.81273478,-142.00648,-0.81615651,-141.94104,-35.53125,45.152767
4002187500,-32.211124,-142.44168,-0.81436831,-142.14215,-0.81612813,-142.1033,-35.709496,45.540154
4002500000,-32.243469,-142.05043,-0.81123507,-142.3002,-0.81525397,-142.25485,-35.71867,45.380798
4002812500,-32.217731,-141.69644,-0.81444705,-142.43227,-0.81187111,-142.39848,-35.801762,45.082523
4003125000,-32.370296,-141.36861,-0.81406301,-142.59921,-0.81625026,-142.54337,-35.840565,44.391457
4003437500,-32.396511,-141.1927,-0.8155573,-142.73906,-0.81584966,-142.69942,-35.920395,43.732903
4003750000,-32.420876,-140.82935,-0.8183946,-142.8876,-0.81220758,-142.86307,-35.903217,43.323513
4004062500,-32.471844,-140.42763,-0.81684649,-143.0464,-0.81626248,-143.02087,-35.938507,42.401974
4004375000,-32.485985,-140.24631,-0.81675911,-143.20374,-0.81120408,-143.16472,-35.946175,41.898903
4004687500,-32.540764,-139.67336,-0.81451285,-143.35403,-0.80946332,-143.32719,-35.982788,42.028557
4005000000,-32.511639,-139.41641,-0.81346232,-143.51154,-0.8115086,-143.46281,-35.94455,41.663685
4005312500,-32.506084,-139.40724,-0.81374013,-143.65485,-0.81343287,-143.62413,-35.880829,40.891441
4005625000,-32.493244,-138.61165,-0.80998707,-143.80464,-0.81284463,-143.77585,-35.936085,40.558121
4005937500,-32.515846,-138.92639,-0.81327856,-143.94652,-0.81211716,-143.92233,-36.031837,39.792843
4006250000,-32.443356,-139.4481,-0.81125098,-144.1097,-0.80980796,-144.07393,-35.962662,39.668877
4006562500,-32.495167,-140.15082,-0.81102657,-144.24927,-0.81114292,-144.21448,-36.014534,38.24678
4006875000,-32.501854,-140.57706,-0.81314886,-144.40634,-0.81243664,-144.36523,-36.005554,37.459995
4007187500,-32.555042,-141.09987,-0.81086856,-144.57297,-0.81068516,-144.51639,-36.03833,36.932621
4007500000,-32.549294,-140.95935,-0.81263572,-144.72165,-0.81419796,-144.68831,-36.042168,36.286121
4007812500,-32.504875,-140.33743,-0.81566715,-144.8544,-0.81544179,-144.82727,-36.090813,36.054401
4008125000,-32.462269,-140.10173,-0.81471443,-145.00075,-0.81428701,-144.9893,-36.211056,36.122787
4008437500,-32.388428,-139.61421,-0.81459659,-145.16071,-0.81453598,-145.14471,-36.289703,36.448544
4008750000,-32.332062,-139.40733,-0.81593144,-145.29749,-0.8127327,-145.27893,-36.423954,36.031399
4009062500,-32.322929,-139.15715,-0.81495029,-145.47539,-0.81590474,-145.45232,-36.362534,35.708282
4009375000,-32.330696,-138.88417,-0.81657529,-145.60551,-0.81486535,-145.58961,-36.282005,33.738022
4009687500,-32.320786,-138.83995,-0.81370109,-145.76567,-0.81253892,-145.75642,-36.165283,32.828091
4010000000,-32.344963,-138.96892,-0.81442505,-145.90619,-0.81362659,-145.87355,-36.169147,30.763077
4010312500,-32.29258,-139.00676,-0.81299406,-146.06561,-0.81215996,-146.04073,-36.138329,29.501118
4010625000,-32.354652,-138.93103,-0.81569219,-146.22118,-0.81476557,-146.19223,-36.151524,29.796457
4010937500,-32.370625,-138.47778,-0.81420803,-146.36919,-0.81498224,-146.32996,-36.160267,29.586166
4011250000,-32.384838,-138.61711,-0.8149597,-146.53827,-0.81623018,-146.48512,-36.154232,29.661432
4011562500,-32.352551,-138.4399,-0.81539619,-146.69176,-0.81780982,-146.68233,-36.161751,29.945667
4011875000,-32.449074,-138.43982,-0.81377125,-146.84695,-0.81283486,-146.80118,-36.16724,29.517599
4012187500,-32.457851,-138.18925,-0.81572229,-146.98552,-0.81735647,-146.96373,-36.284054,28.951122
4012500000,-32.499607,-137.89308,-0.8151443,-147.15619,-0.8148787,-147.11093,-36.356163,27.592937
4012812500,-32.489048,-137.60393,-0.81657666,-147.31981,-0.81331122,-147.25497,-36.361778,26.569151
4013125000,-32.490257,-137.45528,-0.81682056,-147.46965,-0.81465572,-147.39157,-36.399761,26.02487
4013437500,-32.516739,-138.00835,-0.81573635,-147.61002,-0.81539011,-147.56573,-36.485359,25.327351
4013750000,-32.495419,-138.00545,-0.81623596,-147.75438,-0.81497061,-147.70767,-36.525276,24.810066
4014062500,-32.539349,-138.07358,-0.8158406,-147.88931,-0.8137731,-147.86472,-36.587524,25.080427
4014375000,-32.558441,-137.92944,-0.81623191,-148.02751,-0.81268716,-148.02899,-36.522095,25.111589
4014687500,-32.622925,-137.93536,-0.8144834,-148.17712,-0.81519711,-148.1834,-36.568035,25.585955
4015000000,-32.564827,-137.98837,-0.81768966,-148.33981,-0.81282961,-148.3195,-36.561859,24.792263
4015312500,-32.550747,-137.73766,-0.81367773,-148.48814,-0.81477016,-148.45152,-36.534309,23.613001
4015625000,-32.468273,-137.75281,-0.81631941,-148.63739,-0.81312001,-148.63643,-36.50996,23.024599
4015937500,-32.484226,-137.95715,-0.81693029,-148.80251,-0.81452709,-148.78056,-36.494747,22.036287
4016250000,-32.461567,-138.1017,-0.81513888,-148.94014,-0.81639159,-148.94162,-36.414799,21.137484
4016562500,-32.416698,-137.67441,-0.81610394,-149.11099,-0.81537169,-149.08318,-36.362961,20.653744
4016875000,-32.43483,-137.31406,-0.81723255,-149.25427,-0.81270403,-149.24471,-36.284935,20.251345
4017187500,-32.399483,-136.89409,-0.81350964,-149.41867,-0.81384224,-149.39174,-36.192364,19.147308
4017500000,-32.473087,-136.33781,-0.81720382,-149.56471,-0.81633312,-149.56129,-36.277527,19.269217
4017812500,-32.491505,-136.6537,-0.81720155,-149.71875,-0.81147635,-149.69415,-36.322727,17.856562
4018125000,-32.486752,-136.19325,-0.81744301,-149.85648,-0.81447035,-149.85339,-36.42738,17.408974
4018437500,-32.564449,-136.42618,-0.81741011,-150.00577,-0.81438613,-150.00516,-36.576805,16.324821
4018750000,-32.53651,-136.21086,-0.81710899,-150.16454,-0.81463581,-150.13237,-36.684284,15.715313
4019062500,-32.536217,-136.48071,-0.81795317,-150.33408,-0.81135809,-150.29573,-36.830299,14.804925
4019375000,-32.613506,-136.5062,-0.8179332,-150.47182,-0.81528753,-150.444,-36.679737,13.729893
4019687500,-32.671158,-136.6158,-0.81585997,-150.64655,-0.81542963,-150.60185,-36.602657,14.234177
4020000000,-32.674374,-136.36453,-0.81367725,-150.78236,-0.81368983,-150.73158,-36.502216,14.126117
4020312500,-32.709194,-136.10574,-0.81403983,-150.93454,-0.81664598,-150.91101,-36.249844,14.519165
4020625000,-32.737457,-135.94135,-0.81413227,-151.07317,-0.8154698,-151.05992,-36.228321,14.962193
4020937500,-32.74052,-135.91791,-0.81465226,-151.23639,-0.81711584,-151.19981,-36.33205,14.241806
4021250000,-32.691597,-136.06598,-0.81409913,-151.38284,-0.81489289,-151.35846,-36.335625,13.568192
4021562500,-32.682144,-135.94586,-0.81491965,-151.52945,-0.81445801,-151.50331,-36.590527,12.861
4021875000,-32.568985,-136.19531,-0.81408733,-151.68227,-0.81381667,-151.64058,-36.574127,10.878403
4022187500,-32.587532,-135.98157,-0.81550968,-151.84891,-0.81452608,-151.80289,-36.665775,11.070696
4022500000,-32.600082,-135.71118,-0.81637031,-151.99942,-0.81511736,-151.95918,-36.616879,9.8474283
4022812500,-32.655132,-135.47539,-0.81240684,-152.1387,-0.81889218,-152.12283,-36.559055,9.3684845
4023125000,-32.69202,-135.23143,-0.80953866,-152.29735,-0.81882453,-152.28804,-36.489609,9.4149122
4023437500,-32.695896,-134.44527,-0.81191504,-152.43486,-0.81753403,-152.42311,-36.532669,9.0932989
4023750000,-32.738617,-134.62149,-0.81331211,-152.592,-0.81771582,-152.58337,-36.612633,8.7291698
4024062500,-32.707523,-134.33824,-0.81233197,-152.75113,-0.81571782,-152.72614,-36.729057,8.7487154
4024375000,-32.660698,-134.31752,-0.81497288,-152.89967,-0.81987637,-152.88892,-36.801674,8.8240252
4024687500,-32.683346,-134.20947,-0.81704181,-153.04362,-0.81479514,-153.03905,-36.777382,9.3680534
4025000000,-32.656155,-134.51788,-0.81493968,-153.20734,-0.8135888,-153.19362,-36.79369,9.1232605
4025312500,-32.606987,-134.33905,-0.81527209,-153.3656,-0.81388581,-153.32195,-36.717163,8.5119295
4025625000,-32.619835,-134.27417,-0.82061309,-153.50198,-0.81295717,-153.47353,-36.835415,7.3725753
4025937500,-32.702484,-134.34866,-0.81799299,-153.63535,-0.81548297,-153.62442,-36.949787,6.3029361
4026250000,-32.694614,-133.88876,-0.82065684,-153.77664,-0.81651413,-153.78252,-36.997704,5.2372532
4026562500,-32.679462,-133.72899,-0.82149976,-153.94006,-0.81375414,-153.91727,-37.091427,3.55901
4026875000,-32.702251,-134.45642,-0.81828284,-154.0941,-0.81833398,-154.07501,-37.095383,3.4499705
4027187500,-32.748573,-134.09291,-0.81594574,-154.2558,-0.81477123,-154.22408,-36.899693,3.2014384
4027500000,-32.712425,-134.24745,-0.81450456,-154.40125,-0.81664282,-154.39015,-36.849777,3.3658216
4027812500,-32.831337,-134.43663,-0.81341398,-154.55899,-0.81985223,-154.53378,-36.803196,3.7527902
4028125000,-32.771084,-134.22566,-0.81603199,-154.70653,-0.81953281,-154.68068,-36.692207,3.1085482
4028437500,-32.793571,-134.11603,-0.81478,-154.86696,-0.8171556,-154.81772,-36.526505,2.6853657
4028750000,-32.781891,-134.09259,-0.81548983,-155.01178,-0.81401551,-154.96762,-36.540344,1.9816701
4029062500,-32.741184,-133.7861,-0.81617397,-155.16713,-0.81368458,-155.12932,-36.676003,1.135227
4029375000,-32.764069,-133.77116,-0.81720322,-155.32443,-0.81524682,-155.28232,-36.663647,0.035234179
4029687500,-32.805099,-133.77208,-0.81616026,-155.49339,-0.81541401,-155.46745,-36.58741,-0.57949084
4030000000,-32.777893,-133.74181,-0.8177166,-155.62729,-0.81590658,-155.5882,-36.626827,-1.4016731
4030312500,-32.811047,-133.2755,-0.81674385,-155.78558,-0.81282598,-155.7411,-36.736721,-2.7245173
4030625000,-32.881329,-132.64597,-0.81855434,-155.93745,-0.81440771,-155.89529,-36.768597,-3.1285491
4030937500,-32.85146,-132.91318,-0.81617868,-156.08333,-0.81642747,-156.04561,-36.750732,-4.3579707
4031250000,-32.854454,-132.46802,-0.81699854,-156.24301,-0.81697524,-156.21925,-36.79155,-4.6828437
4031562500,-32.789635,-132.57045,-0.81632495,-156.39136,-0.814789,-156.37128,-36.790096,-4.3506522
4031875000,-32.710472,-132.34294,-0.81538355,-156.54979,-0.81990087,-156.51523,-36.6903,-5.0219059
4032187500,-32.698696,-132.67821,-0.81268102,-156.7083,-0.81738889,-156.68124,-36.692181,-4.9493771
4032500000,-32.654182,-132.45842,-0.81420892,-156.84834,-0.81652319,-156.8416,-36.613754,-5.4064007
4032812500,-32.60915,-132.64276,-0.81324768,-157.01505,-0.81611788,-156.98637,-36.582245,-6.5497999
4033125000,-32.62793,-132.89189,-0.81427908,-157.16808,-0.81930691,-157.10828,-36.525337,-6.5105233
4033437500,-32.622093,-132.8306,-0.81226301,-157.29663,-0.81673294,-157.25652,-36.591667,-7.3405528
4033750000,-32.625557,-132.93074,-0.81556475,-157.45924,-0.81772172,-157.40732,-36.73307,-7.551343
4034062500,-32.647491,-132.92343,-0.81518698,-157.60738,-0.81821704,-157.55876,-36.671032,-8.2331648
4034375000,-32.649551,-132.36655,-0.81663895,-157.76527,-0.81897271,-157.6855,-36.651493,-8.1161213
4034687500,-32.597759,-132.17009,-0.81274498,-157.89699,-0.81799984,-157.86626,-36.578587,-8.313324
4035000000,-32.608318,-131.2605,-0.81410617,-158.03172,-0.81463736,-158.02884,-36.551273,-9.3476572
4035312500,-32.648922,-131.20851,-0.81797284,-158.19124,-0.81307167,-158.14711,-36.60025,-9.2559967
4035625000,-32.551033,-130.74356,-0.81775337,-158.32843,-0.81446439,-158.32634,-36.495197,-9.6206446
4035937500,-32.5793,-131.05165,-0.81521374,-158.50139,-0.81567997,-158.47102,-36.417591,-10.402843
4036250000,-32.607353,-131.01616,-0.81474835,-158.629,-0.81531316,-158.60756,-36.365303,-10.443048
4036562500,-32.582703,-130.6951,-0.81789458,-158.80295,-0.81707942,-158.77515,-36.318905,-10.987514
4036875000,-32.65897,-130.97278,-0.81679386,-158.94952,-0.81587029,-158.91757,-36.319271,-11.301689
4037187500,-32.711357,-130.56776,-0.81689036,-159.09171,-0.81357455,-159.08801,-36.326218,-12.975608
4037500000,-32.70042,-130.57881,-0.81700361,-159.23438,-0.81200224,-159.25941,-36.382351,-13.304303
4037812500,-32.727608,-129.74879,-0.82356912,-159.39714,-0.81165749,-159.38824,-36.490494,-13.25505
4038125000,-32.772003,-129.94188,-0.82116747,-159.54161,-0.81071723,-159.54675,-36.762012,-13.9016
4038437500,-32.756313,-129.52574,-0.82124805,-159.69641,-0.80923235,-159.69733,-36.767021,-14.225634
4038750000,-32.772781,-129.71835,-0.8218652,-159.84706,-0.8124153,-159.84651,-36.830894,-15.377946
4039062500,-32.714645,-130.35226,-0.82087076,-160.01967,-0.81444508,-159.98531,-36.791348,-15.804522
4039375000,-32.76226,-130.93089,-0.81999987,-160.18108,-0.81728625,-160.14008,-36.762856,-15.245748
4039687500,-32.706192,-131.07124,-0.81955326,-160.33597,-0.81653923,-160.28526,-36.637333,-16.340773
4040000000,-32.710594,-130.85956,-0.82076865,-160.49825,-0.82108253,-160.45018,-36.6432,-17.182878
4040312500,-32.779732,-130.24078,-0.81725013,-160.65855,-0.81951559,-160.60136,-36.576275,-17.499706
4040625000,-32.710392,-129.98221,-0.81579179,-160.79091,-0.8192814,-160.75156,-36.53344,-17.76708
4040937500,-32.732887,-129.19548,-0.82029623,-160.94226,-0.81693518,-160.91158,-36.476112,-17.673689
4041250000,-32.653778,-128.8027,-0.81798685,-161.07796,-0.81918555,-161.03442,-36.499889,-18.640596
4041562500,-32.600624,-128.75034,-0.81861007,-161.23743,-0.8204394,-161.19577,-36.466732,-18.927332
4041875000,-32.603336,-129.14063,-0.81722772,-161.37169,-0.81781489,-161.36554,-36.463989,-19.616289
4042187500,-32.57349,-129.44031,-0.81606531,-161.53104,-0.81792992,-161.49063,-36.521057,-19.637886
4042500000,-32.550247,-129.31512,-0.81514335,-161.68657,-0.8145113,-161.64639,-36.559483,-19.770317
4042812500,-32.567379,-129.42754,-0.81784099,-161.83418,-0.81811571,-161.8049,-36.571705,-20.350269
4043125000,-32.527199,-129.3181,-0.81732035,-161.98985,-0.81891459,-161.96486,-36.361122,-23.792217
4043437500,-32.483234,-129.21799,-0.81693918,-162.13278,-0.81882834,-162.10083,-36.290703,-24.173164
4043750000,-32.490051,-129.32411,-0.81850058,-162.29178,-0.81822562,-162.24364,-36.251495,-23.383394
4044062500,-32.430172,-129.44946,-0.81805378,-162.44586,-0.81450188,-162.41182,-36.265339,-23.965471
4044375000,-32.406559,-129.34976,-0.81657445,-162.59589,-0.81699026,-162.56184,-36.232201,-23.927011
4044687500,-32.442265,-129.13838,-0.81951302,-162.75471,-0.81659341,-162.71651,-36.188164,-23.864248
4045000000,-32.447563,-128.98485,-0.81792599,-162.89517,-0.81368774,-162.85358,-36.175053,-24.344801
4045312500,-32.45517,-128.70297,-0.81889862,-163.03748,-0.81463152,-163.02214,-36.270721,-24.825268
4045625000,-32.477921,-128.5614,-0.81815118,-163.18857,-0.81520516,-163.15822,-36.214367,-25.553883
4045937500,-32.514023,-128.39723,-0.81806725,-163.34518,-0.8179065,-163.30011,-36.276371,-25.837618
4046250000,-32.539013,-128.0069,-0.8165766,-163.48851,-0.81797761,-163.47215,-36.316811,-27.262159
4046562500,-32.56089,-128.18289,-0.81683087,-163.62331,-0.81835335,-163.61656,-36.200275,-27.356575
4046875000,-32.51144,-128.14014,-0.81682092,-163.81407,-0.81454575,-163.76817,-36.216305,-28.521723
4047187500,-32.56081,-128.20743,-0.8162567,-163.96806,-0.81804967,-163.90129,-36.143639,-29.32535
4047500000,-32.502754,-128.41159,-0.81902677,-164.11432,-0.81827033,-164.054,-36.117496,-30.091888
4047812500,-32.57885,-128.08627,-0.81733382,-164.28181,-0.82370228,-164.22629,-36.091331,-30.16325
4048125000,-32.581356,-128.35297,-0.81714833,-164.40486,-0.81741101,-164.40742,-36.040932,-31.070835
4048437500,-32.610966,-128.04355,-0.81838948,-164.55702,-0.81885052,-164.55893,-35.99448,-31.597971
4048750000,-32.589626,-127.69868,-0.81862956,-164.70792,-0.81533056,-164.70717,-35.987133,-32.070503
4049062500,-32.539761,-127.90613,-0.81923145,-164.84677,-0.81637102,-164.84868,-35.954529,-32.139866
4049375000,-32.511528,-127.78466,-0.82029152,-165.01144,-0.8199138,-165.00688,-35.943264,-32.229549
4049687500,-32.501492,-127.81091,-0.81695151,-165.1544,-0.81517535,-165.15091,-36.082253,-32.337578
4050000000,-32.465397,-127.57795,-0.81762254,-165.34366,-0.81700045,-165.28522,-36.090546,-32.655426
4050312500,-32.448143,-127.87829,-0.819812,-165.4986,-0.81744897,-165.42236,-36.038422,-32.442238
4050625000,-32.374767,-127.3344,-0.81857419,-165.62439,-0.8186596,-165.57916,-35.938259,-33.27121
4050937500,-32.430836,-127.40994,-0.81741208,-165.78864,-0.82035285,-165.72951,-36.029282,-33.916122
4051250000,-32.36039,-126.93716,-0.81753695,-165.9433,-0.81596154,-165.88113,-36.055611,-35.357658
4051562500,-32.333374,-126.54231,-0.81545061,-166.06166,-0.81824774,-166.01979,-36.009823,-36.34988
4051875000,-32.37117,-126.59813,-0.81813627,-166.22285,-0.81828684,-166.1929,-35.843128,-36.651978
4052187500,-32.34853,-126.56258,-0.81908327,-166.37387,-0.81765968,-166.33914,-35.78849,-36.992043
4052500000,-32.305725,-127.05216,-0.81702763,-166.5285,-0.81702775,-166.49658,-35.76366,-37.59573
4052812500,-32.296238,-127.35988,-0.81952024,-166.67212,-0.81927013,-166.63434,-35.672783,-37.360035
4053125000,-32.355927,-127.55688,-0.81920439,-166.80835,-0.81841743,-166.80728,-35.599289,-37.93185
4053437500,-32.339199,-127.90022,-0.81889188,-166.98102,-0.8181805,-166.95499,-35.465752,-38.556454
4053750000,-32.439766,-127.41158,-0.82022399,-167.14011,-0.82078522,-167.10712,-35.505718,-38.408237
4054062500,-32.386578,-127.15654,-0.82008648,-167.26762,-0.8201893,-167.29402,-35.57235,-38.548889
4054375000,-32.42672,-126.87093,-0.81855935,-167.42253,-0.82155222,-167.42366,-35.658897,-39.290352
4054687500,-32.423485,-126.78011,-0.81927425,-167.586,-0.81708831,-167.55057,-35.645504,-38.56897
4055000000,-32.378273,-126.40373,-0.82130307,-167.74905,-0.81767821,-167.72621,-35.631039,-39.577408
4055312500,-32.310631,-126.19101,-0.81966889,-167.92427,-0.8181507,-167.87079,-35.628292,-39.540443
4055625000,-32.190254,-126.20922,-0.81865871,-168.05774,-0.81996322,-168.01143,-35.534103,-39.265121
4055937500,-32.083191,-126.23609,-0.81828886,-168.22153,-0.81926781,-168.18217,-35.436539,-38.755745
4056250000,-32.039787,-125.99895,-0.81715786,-168.35699,-0.82001901,-168.32483,-35.524235,-38.74387
4056562500,-32.161785,-125.80193,-0.82052952,-168.51718,-0.8212148,-168.46939,-35.38834,-39.780277
4056875000,-32.236809,-125.52995,-0.82193011,-168.67775,-0.8147974,-168.6371,-35.473835,-41.815868
4057187500,-32.281364,-124.85287,-0.819785,-168.81261,-0.81943214,-168.78465,-35.554302,-42.907097
4057500000,-32.282383,-124.23042,-0.82277918,-168.98334,-0.81841969,-168.91695,-35.601089,-44.818069
4057812500,-32.256275,-124.17892,-0.82209414,-169.12514,-0.81961256,-169.04546,-35.616936,-45.473072
4058125000,-32.279587,-124.34856,-0.82258105,-169.28281,-0.82203752,-169.21948,-35.652874,-46.567642
4058437500,-32.249973,-125.11859,-0.82186139,-169.44058,-0.82188994,-169.35396,-35.563976,-46.366886
4058750000,-32.222321,-125.18085,-0.8222127,-169.57385,-0.82141072,-169.53571,-35.577629,-46.362892
4059062500,-32.225857,-125.72171,-0.82265568,-169.72893,-0.82018334,-169.6805,-35.391468,-46.407265
4059375000,-32.290112,-125.90254,-0.82005012,-169.85788,-0.81845319,-169.84776,-35.259579,-46.882599
4059687500,-32.184856,-125.60149,-0.82524824,-170.00549,-0.81642377,-169.99942,-35.28381,-46.283123
4060000000,-32.15731,-125.75223,-0.82507306,-170.19096,-0.82092178,-170.11929,-35.353607,-46.50388
4060312500,-32.135983,-125.71981,-0.82281917,-170.32465,-0.82109606,-170.29671,-35.254845,-46.574516
4060625000,-32.108234,-125.09174,-0.82169813,-170.47409,-0.81951767,-170.41466,-35.276058,-46.193535
4060937500,-32.120213,-125.30001,-0.82251781,-170.63428,-0.82214677,-170.57607,-35.257107,-47.304363
