!CSV A.01.01
!Agilent Technologies,N5222A,MY51421451,A.09.90.02
!Agilent N5222A: A.09.90.02
!Date: Saturday, January 18, 2014 13:58:10
!Source: Standard

BEGIN CH1_DATA
Freq(Hz),S11(DB),S11(DEG),S12(DB),S12(DEG),S21(DB),S21(DEG),S22(DB),S22(DEG)
4000000000,-38.497505,-120.14191,-0.86685902,131.07747,-0.86539441,131.13148,-36.412445,-151.28548
4000312500,-38.453266,-122.87,-0.85646874,131.07899,-0.84955329,131.02319,-36.07494,-151.69917
4000625000,-38.537701,-121.43746,-0.8606779,130.85661,-0.85721755,130.83054,-36.056713,-152.12157
4000937500,-38.62661,-120.16512,-0.86449832,130.65518,-0.86093104,130.6534,-36.085758,-152.5856
4001250000,-38.644112,-119.22429,-0.86166441,130.44939,-0.86443758,130.47969,-36.106377,-152.98923
4001562500,-38.517799,-118.41394,-0.86650336,130.28474,-0.86696899,130.31654,-36.047977,-152.5972
4001875000,-38.545296,-118.89164,-0.86282659,130.12454,-0.86708957,130.1787,-36.237389,-151.99329
4002187500,-38.382652,-119.22894,-0.86309469,129.96965,-0.86756152,130.02802,-36.376816,-151.14151
4002500000,-38.29734,-119.8863,-0.86400592,129.84239,-0.86662239,129.8631,-36.334229,-150.78644
4002812500,-38.288521,-120.16169,-0.86594528,129.68033,-0.86338353,129.68971,-36.452404,-150.50304
4003125000,-38.358444,-120.40434,-0.86407715,129.5264,-0.86648923,129.54005,-36.546329,-150.49951
4003437500,-38.417439,-121.84579,-0.86625391,129.35742,-0.86773676,129.37106,-36.494442,-151.50568
4003750000,-38.421291,-121.9304,-0.86807984,129.19159,-0.86374718,129.23941,-36.580826,-152.07321
4004062500,-38.455147,-123.21805,-0.86995202,129.04605,-0.86595583,129.06462,-36.48698,-153.75035
4004375000,-38.530811,-123.8913,-0.86884612,128.86153,-0.86718643,128.89603,-36.545284,-153.20189
4004687500,-38.556835,-124.20748,-0.86621243,128.70021,-0.86807013,128.7511,-36.532997,-152.96648
4005000000,-38.652531,-125.00076,-0.86382973,128.56146,-0.86502141,128.59215,-36.557838,-152.77272
4005312500,-38.604412,-124.86375,-0.86352241,128.40962,-0.86457616,128.4409,-36.547012,-152.35269
4005625000,-38.545597,-124.74573,-0.86115825,128.24078,-0.86654747,128.27339,-36.506855,-152.53082
4005937500,-38.662323,-125.1887,-0.86174273,128.09157,-0.86335313,128.11446,-36.42667,-152.08711
4006250000,-38.541183,-124.71937,-0.86134613,127.91953,-0.86302435,127.97731,-36.427628,-152.52171
4006562500,-38.534981,-123.13842,-0.86359304,127.76711,-0.86543471,127.82168,-36.397655,-153.26216
4006875000,-38.48983,-122.52573,-0.86078417,127.61147,-0.86404335,127.64438,-36.419113,-153.73195
4007187500,-38.375507,-121.99296,-0.86543572,127.45255,-0.86392206,127.48797,-36.418488,-153.73364
4007500000,-38.393715,-121.66037,-0.86488044,127.31476,-0.86453938,127.32298,-36.471153,-154.18855
4007812500,-38.544933,-122.66724,-0.86411071,127.1556,-0.86650032,127.16314,-36.57103,-154.25075
4008125000,-38.795971,-122.8335,-0.86766791,126.9705,-0.86555964,127.01809,-36.710453,-153.31163
4008437500,-38.839489,-123.60002,-0.8690964,126.83507,-0.86437809,126.86558,-36.906532,-153.49429
4008750000,-39.047688,-123.4481,-0.86804599,126.68154,-0.86485147,126.68627,-37.008942,-153.51376
4009062500,-39.148129,-124.84104,-0.86662269,126.50998,-0.86644137,126.52162,-36.855446,-154.21158
4009375000,-39.211102,-124.56638,-0.86685354,126.35775,-0.8645829,126.38008,-36.762375,-154.86212
4009687500,-39.151775,-124.74194,-0.86179817,126.19545,-0.86665666,126.23231,-36.66518,-155.67149
4010000000,-39.107086,-125.38532,-0.86579305,126.04256,-0.86565679,126.05124,-36.496605,-157.4823
4010312500,-39.190392,-124.58698,-0.86573517,125.87167,-0.8640238,125.91597,-36.477577,-157.96449
4010625000,-39.198566,-124.45834,-0.86438942,125.7244,-0.86567974,125.77267,-36.456455,-157.79945
4010937500,-39.097343,-124.96896,-0.86515671,125.55692,-0.86675096,125.57838,-36.53537,-156.98251
4011250000,-39.0065,-125.29004,-0.86573231,125.4143,-0.86539334,125.42901,-36.541508,-156.57875
4011562500,-39.028736,-125.51104,-0.86747998,125.24362,-0.86241436,125.27844,-36.580376,-156.43588
4011875000,-39.112755,-125.91743,-0.86692792,125.06239,-0.86453247,125.09224,-36.729546,-156.0432
4012187500,-39.037018,-126.28128,-0.86579311,124.90808,-0.86533892,124.95538,-36.784569,-156.01382
4012500000,-39.247093,-126.0608,-0.86622363,124.74538,-0.86586905,124.79456,-36.733315,-157.14781
4012812500,-39.211082,-126.18407,-0.86718583,124.58472,-0.86473143,124.63931,-36.907257,-158.06281
4013125000,-39.239681,-126.80487,-0.86807293,124.42164,-0.86297196,124.49911,-36.91523,-158.71423
4013437500,-39.275749,-126.40709,-0.86598474,124.27645,-0.86575651,124.32606,-36.962032,-158.91891
4013750000,-39.183773,-125.84696,-0.86962068,124.11442,-0.86343604,124.17258,-37.003899,-159.33536
4014062500,-39.089775,-126.06232,-0.86861789,123.9806,-0.86476564,124.00536,-37.231003,-158.56923
4014375000,-38.997459,-125.65375,-0.86702412,123.82849,-0.86580235,123.83497,-37.114639,-158.51668
4014687500,-38.958588,-125.43008,-0.86637491,123.66398,-0.86302871,123.67653,-37.090172,-158.29576
4015000000,-39.124683,-125.75571,-0.86607432,123.50439,-0.86662197,123.51163,-37.115231,-157.80489
4015312500,-39.144318,-125.42524,-0.86541981,123.33416,-0.86837828,123.35901,-37.00914,-158.13336
4015625000,-39.264702,-126.42851,-0.86675507,123.20566,-0.86568391,123.20126,-36.956379,-158.49832
4015937500,-39.363781,-125.58699,-0.86650032,123.01656,-0.86679298,123.03467,-36.949558,-158.65413
4016250000,-39.490528,-126.24419,-0.86504018,122.85323,-0.86398405,122.90087,-36.837837,-159.21362
4016562500,-39.505917,-126.98126,-0.86590976,122.70383,-0.86462224,122.73425,-36.912819,-159.7081
4016875000,-39.474285,-127.32297,-0.86676037,122.53627,-0.86403728,122.58842,-36.697304,-160.28067
4017187500,-39.367844,-127.99623,-0.86688042,122.39105,-0.86466956,122.38525,-36.673138,-160.09746
4017500000,-39.401066,-128.87833,-0.86732924,122.21587,-0.8635205,122.25718,-36.760895,-159.76126
4017812500,-39.399242,-128.98186,-0.86629051,122.0739,-0.86284,122.07984,-36.815403,-160.20296
4018125000,-39.423656,-129.35463,-0.86942685,121.92304,-0.86419696,121.93494,-36.981159,-160.48906
4018437500,-39.409904,-129.11412,-0.86762559,121.75874,-0.86260575,121.77587,-37.163589,-162.06621
4018750000,-39.448322,-129.49799,-0.86869758,121.58764,-0.86768645,121.60891,-37.208549,-161.52194
4019062500,-39.519108,-129.03168,-0.8687408,121.43526,-0.86488336,121.4586,-37.338329,-162.09499
4019375000,-39.437649,-128.80325,-0.86779988,121.26901,-0.86302853,121.30344,-37.339333,-162.68378
4019687500,-39.274319,-128.83035,-0.86715716,121.1092,-0.86488104,121.16215,-37.011398,-162.0714
4020000000,-39.237911,-128.55611,-0.86686426,120.94999,-0.86535364,120.99682,-36.82608,-161.40344
4020312500,-39.032074,-128.74992,-0.86337036,120.78645,-0.87163556,120.82655,-36.675991,-160.43526
4020625000,-39.070568,-128.98315,-0.86406595,120.61924,-0.86702776,120.67149,-36.65649,-159.90723
4020937500,-39.062286,-129.46194,-0.86148733,120.47335,-0.86552447,120.50466,-36.738373,-159.68472
4021250000,-39.182034,-129.7182,-0.86612028,120.32175,-0.86743438,120.37547,-36.862579,-160.58406
4021562500,-39.464272,-130.15553,-0.86766922,120.14192,-0.86351877,120.20071,-37.046535,-160.79298
4021875000,-39.507732,-128.81976,-0.86608452,119.98952,-0.86378264,120.03497,-37.199749,-161.40524
4022187500,-39.68425,-129.01717,-0.86628979,119.83301,-0.86454934,119.88551,-37.259655,-161.82034
4022500000,-39.629192,-129.74222,-0.86268097,119.67563,-0.86919349,119.72362,-37.223526,-162.50549
4022812500,-39.464069,-128.97574,-0.86443126,119.53548,-0.86532772,119.54779,-37.257511,-162.83452
4023125000,-39.515553,-130.14279,-0.86416703,119.37534,-0.86904901,119.40405,-37.310112,-163.19258
4023437500,-39.464691,-130.99254,-0.86515439,119.23459,-0.86987799,119.25468,-37.27581,-162.46777
4023750000,-39.450825,-130.88437,-0.8647837,119.08274,-0.87118918,119.07962,-37.308186,-162.22504
4024062500,-39.546364,-131.84488,-0.8646543,118.89783,-0.86735082,118.93619,-37.401756,-161.61925
4024375000,-39.601395,-131.44182,-0.86629641,118.74404,-0.86721051,118.75822,-37.481224,-161.5219
4024687500,-39.616505,-132.32535,-0.86720008,118.60252,-0.86667037,118.59185,-37.498959,-160.20833
4025000000,-39.838833,-132.25768,-0.86798704,118.41555,-0.86566895,118.45559,-37.544003,-160.49896
4025312500,-39.909935,-132.45804,-0.86843228,118.28668,-0.86523092,118.29742,-37.592018,-160.50079
4025625000,-39.784534,-131.38522,-0.87046456,118.09825,-0.86407816,118.13,-37.653709,-161.45447
4025937500,-39.866737,-131.15594,-0.87421757,117.94543,-0.86476481,117.98363,-37.782124,-161.96695
4026250000,-39.970863,-131.50177,-0.86742842,117.80495,-0.86557728,117.81676,-37.876904,-163.0553
4026562500,-39.89109,-130.72095,-0.87273175,117.64195,-0.8663432,117.68217,-37.943607,-163.54945
4026875000,-40.015415,-129.89897,-0.86814243,117.48927,-0.86769265,117.52267,-38.024212,-163.33293
4027187500,-39.878902,-129.75282,-0.8698619,117.33574,-0.86770266,117.36195,-37.928837,-162.31799
4027500000,-39.8358,-130.5238,-0.8665784,117.17152,-0.87037134,117.21934,-37.946918,-162.16394
4027812500,-39.650192,-129.81415,-0.86401129,117.01746,-0.87065405,117.03241,-37.719563,-162.44096
4028125000,-39.569801,-130.61823,-0.8670786,116.85046,-0.87035865,116.8849,-37.733643,-162.34622
4028437500,-39.777462,-130.37782,-0.86526108,116.70107,-0.86839104,116.73969,-37.680294,-163.21912
4028750000,-39.810268,-130.66248,-0.86432916,116.53432,-0.86668193,116.58378,-37.531521,-163.05382
4029062500,-39.740093,-131.11293,-0.86742228,116.35906,-0.86808801,116.42029,-37.499538,-163.4286
4029375000,-39.83828,-130.07581,-0.86640596,116.20201,-0.86746287,116.24741,-37.537533,-164.54492
4029687500,-39.797771,-132.24626,-0.86728638,116.04508,-0.86426795,116.077,-37.535999,-164.84067
4030000000,-39.774212,-131.47026,-0.86830318,115.90105,-0.86621845,115.93155,-37.602299,-164.77324
4030312500,-39.830349,-132.21049,-0.86940396,115.72397,-0.86631513,115.7538,-37.603298,-166.21011
4030625000,-39.877884,-132.64296,-0.86922216,115.55586,-0.86881816,115.60632,-37.681648,-166.01512
4030937500,-39.835361,-133.44356,-0.87094384,115.42104,-0.86653298,115.46877,-37.651405,-166.41768
4031250000,-39.995724,-133.59106,-0.86748433,115.24174,-0.86824763,115.28488,-37.875328,-165.95273
4031562500,-39.906143,-133.55954,-0.86815673,115.08985,-0.87049234,115.12936,-37.793198,-166.38676
4031875000,-39.974712,-134.43593,-0.86783296,114.93419,-0.87025499,114.95266,-37.819187,-166.15285
4032187500,-40.075878,-133.70882,-0.86593783,114.79121,-0.8686741,114.81068,-37.821445,-166.25655
4032500000,-40.080151,-134.04391,-0.8674854,114.6066,-0.86933154,114.64541,-37.850048,-166.39909
4032812500,-40.227348,-133.49138,-0.86846584,114.44182,-0.86813575,114.48362,-37.880566,-167.03278
4033125000,-40.23785,-132.25449,-0.86666363,114.30846,-0.86759561,114.35881,-37.980419,-167.12791
4033437500,-40.331493,-130.52145,-0.86479831,114.14506,-0.87024474,114.18814,-38.013771,-167.57465
4033750000,-40.340881,-130.23375,-0.86719805,113.96867,-0.86979872,114.04282,-38.128109,-167.75278
4034062500,-40.215237,-131.61456,-0.87061167,113.80772,-0.86813259,113.87034,-38.0443,-168.05086
4034375000,-40.346973,-131.67723,-0.86736172,113.66033,-0.86750716,113.73213,-38.046032,-167.94812
4034687500,-40.253212,-132.65013,-0.86695379,113.52123,-0.86571223,113.53799,-38.002216,-167.49437
4035000000,-40.464798,-133.53577,-0.86504102,113.37211,-0.8663516,113.39889,-37.933208,-167.14532
4035312500,-40.338676,-133.87004,-0.86896282,113.20586,-0.86445075,113.23254,-37.96209,-166.97685
4035625000,-40.547565,-135.70166,-0.86623722,113.07133,-0.86106664,113.07673,-37.938168,-166.9436
4035937500,-40.67395,-134.64186,-0.86748224,112.90395,-0.86673331,112.93999,-37.807323,-166.20813
4036250000,-40.68483,-134.90466,-0.86871535,112.75786,-0.86733001,112.76006,-37.819683,-166.895
4036562500,-40.646275,-135.55717,-0.86724371,112.59124,-0.86609948,112.59431,-37.77227,-166.97388
4036875000,-40.576199,-134.79181,-0.86670977,112.42862,-0.86340314,112.43574,-37.627857,-166.83174
4037187500,-40.605045,-135.71143,-0.86908031,112.25985,-0.86467224,112.27931,-37.706818,-167.54449
4037500000,-40.409111,-135.29732,-0.87208533,112.11861,-0.86528105,112.12022,-37.91814,-166.74867
4037812500,-40.199661,-135.40125,-0.87018925,111.95296,-0.86239958,111.96204,-38.243259,-166.87814
4038125000,-40.15316,-136.0838,-0.86992162,111.78105,-0.86224115,111.80047,-38.403675,-166.18616
4038437500,-40.101688,-135.52264,-0.87266111,111.64346,-0.86150771,111.64905,-38.582977,-165.4847
4038750000,-40.102673,-135.45918,-0.87169081,111.50069,-0.86734313,111.46498,-38.525211,-165.83148
4039062500,-40.243294,-134.1978,-0.8722173,111.30265,-0.86578763,111.33708,-38.684597,-166.28284
4039375000,-40.249115,-133.73015,-0.86924255,111.15615,-0.86741191,111.16395,-38.702168,-166.19742
4039687500,-40.359344,-133.24782,-0.87009144,110.96999,-0.86891991,111.04559,-38.687218,-166.78554
4040000000,-40.279385,-133.58197,-0.87202978,110.81033,-0.86980671,110.87181,-38.755238,-167.34859
4040312500,-40.428322,-134.43173,-0.87173408,110.64651,-0.86901981,110.73268,-38.544781,-167.49146
4040625000,-40.291004,-134.32477,-0.86703223,110.48162,-0.87069631,110.54512,-38.568916,-168.08514
4040937500,-40.391422,-135.70094,-0.86894232,110.34897,-0.87091643,110.37973,-38.445511,-167.96062
4041250000,-40.544815,-136.47467,-0.87148988,110.19679,-0.87085068,110.23236,-38.464886,-167.8439
4041562500,-40.636887,-136.13448,-0.86877465,110.02774,-0.87132722,110.06191,-38.542606,-168.46411
4041875000,-40.674812,-135.86833,-0.86889654,109.89219,-0.86830032,109.91544,-38.510735,-167.39377
4042187500,-40.585308,-136.05081,-0.86772382,109.70737,-0.86359608,109.76221,-38.529137,-167.55634
4042500000,-40.60384,-135.88535,-0.87032676,109.58819,-0.86538529,109.60184,-38.580906,-166.99031
4042812500,-40.79866,-136.19745,-0.86957318,109.40271,-0.86977255,109.44332,-38.638683,-166.74782
4043125000,-40.895699,-134.56894,-0.86842364,109.25809,-0.86959237,109.30077,-38.777153,-171.87726
4043437500,-41.061741,-135.52591,-0.87034184,109.08901,-0.86981642,109.10929,-38.777729,-171.01892
4043750000,-41.070213,-135.93073,-0.87071705,108.92966,-0.86775184,108.97437,-38.665154,-170.57985
4044062500,-41.207306,-136.04213,-0.86855656,108.76323,-0.8671459,108.81728,-38.558807,-170.04945
4044375000,-41.353584,-136.05859,-0.86958289,108.61342,-0.87187564,108.6632,-38.590427,-171.04593
4044687500,-41.446308,-136.08687,-0.87118906,108.45412,-0.86876446,108.47895,-38.700645,-170.06563
4045000000,-41.120647,-135.4044,-0.86855894,108.30043,-0.86995316,108.34891,-38.644588,-169.61266
4045312500,-41.028275,-135.60197,-0.87187666,108.15414,-0.86659831,108.17938,-38.844166,-170.05208
4045625000,-40.939072,-136.42027,-0.86816049,107.97572,-0.86502117,108.02325,-38.753803,-169.77187
4045937500,-41.028576,-136.27414,-0.86874974,107.84731,-0.8665207,107.86543,-38.978653,-169.39024
4046250000,-40.939587,-136.32513,-0.86973369,107.6825,-0.86664039,107.70647,-38.924709,-170.38217
4046562500,-41.041004,-135.32939,-0.86734182,107.51806,-0.86924821,107.543,-38.947884,-170.59822
4046875000,-41.15033,-135.92261,-0.86778516,107.34341,-0.86928952,107.4049,-38.969303,-171.17705
4047187500,-41.256504,-136.59415,-0.86715859,107.17188,-0.86773765,107.24238,-39.063759,-171.09033
4047500000,-41.377983,-136.28467,-0.86855054,107.03579,-0.8708725,107.09246,-39.050545,-170.96625
4047812500,-41.300686,-136.13995,-0.86910826,106.8819,-0.86862469,106.9105,-39.044273,-171.66243
4048125000,-41.280964,-136.47279,-0.87091422,106.72069,-0.86602259,106.73257,-39.055107,-171.70988
4048437500,-41.25219,-136.4971,-0.86987793,106.56141,-0.86877513,106.57837,-38.981106,-172.41438
4048750000,-41.130692,-137.88577,-0.8710885,106.40196,-0.86511445,106.39589,-39.123024,-171.77184
4049062500,-41.178108,-137.3232,-0.86990005,106.25188,-0.86610544,106.22326,-38.969555,-172.17075
4049375000,-41.277409,-137.13181,-0.87107062,106.07623,-0.86854535,106.08527,-39.038254,-172.11514
4049687500,-41.494034,-137.07773,-0.86907208,105.92448,-0.86907536,105.96332,-39.004005,-170.81302
4050000000,-41.461288,-136.29486,-0.86621332,105.77523,-0.87323874,105.80509,-39.141357,-171.42166
4050312500,-41.479744,-136.08044,-0.87038922,105.59575,-0.86907363,105.6394,-39.097378,-171.75084
4050625000,-41.5737,-136.80919,-0.86873192,105.43214,-0.86941266,105.47862,-39.337425,-171.63286
4050937500,-41.640965,-137.62871,-0.86901057,105.29163,-0.87105268,105.34353,-39.147301,-171.83673
4051250000,-41.450737,-138.28481,-0.87029874,105.12732,-0.86775535,105.17279,-39.199066,-172.41716
4051562500,-41.540764,-138.6833,-0.87062961,104.98126,-0.87021756,105.02407,-39.349506,-173.77107
4051875000,-41.63472,-139.06856,-0.87241405,104.81163,-0.86672908,104.85881,-39.277214,-174.46439
4052187500,-41.624699,-138.77791,-0.86844671,104.65446,-0.87252694,104.70381,-39.287716,-174.85149
4052500000,-41.654049,-137.22714,-0.87256551,104.48975,-0.87015569,104.54797,-39.221672,-174.85722
4052812500,-41.692505,-138.05084,-0.87087208,104.34061,-0.87092251,104.36732,-39.202171,-175.27124
4053125000,-41.839077,-138.10451,-0.87115562,104.1963,-0.87091172,104.19585,-39.221409,-175.2117
4053437500,-41.801987,-136.46021,-0.8715713,104.04404,-0.87178737,104.04333,-39.116932,-175.82362
4053750000,-41.758881,-136.28709,-0.87129772,103.87239,-0.86854339,103.90202,-39.304638,-175.29605
4054062500,-41.549023,-137.07738,-0.86990255,103.70143,-0.87020671,103.74215,-39.230297,-175.19637
4054375000,-41.391071,-138.38403,-0.87049884,103.5605,-0.87081003,103.59116,-39.29221,-174.57684
4054687500,-41.523991,-138.84828,-0.86886066,103.38791,-0.86993104,103.42045,-39.28212,-174.00319
4055000000,-41.702744,-139.29086,-0.86833727,103.23075,-0.87215686,103.26589,-39.378765,-174.91483
4055312500,-41.897152,-139.02686,-0.86962658,103.06702,-0.8716045,103.10024,-39.189636,-174.02232
4055625000,-42.133507,-138.89828,-0.8716234,102.89658,-0.86967981,102.94006,-39.076462,-174.87053
4055937500,-42.331184,-138.42908,-0.86503768,102.7737,-0.87068909,102.77993,-39.009029,-174.34778
4056250000,-42.501163,-138.76056,-0.86909819,102.58532,-0.87136251,102.61876,-38.918747,-173.7607
4056562500,-42.387337,-139.08022,-0.87299222,102.44501,-0.8683089,102.45831,-39.176151,-174.35463
4056875000,-41.898102,-139.6089,-0.87198269,102.26325,-0.86766583,102.32018,-39.329556,-174.70963
4057187500,-41.799107,-141.76564,-0.87416714,102.12405,-0.86798191,102.1738,-39.596119,-174.57466
4057500000,-41.707073,-143.10597,-0.87202919,101.94914,-0.86617893,102.03188,-39.718742,-175.67618
4057812500,-41.679585,-144.76927,-0.87386477,101.77763,-0.8670066,101.8584,-39.860828,-175.12361
4058125000,-41.762917,-143.80797,-0.8747521,101.6152,-0.86631191,101.70039,-40.030258,-175.64526
4058437500,-41.899014,-141.91881,-0.87133151,101.45,-0.86988044,101.53471,-39.928928,-175.17299
4058750000,-42.008919,-140.82356,-0.87127322,101.33061,-0.87051976,101.37949,-39.974648,-175.70636
4059062500,-42.089207,-139.85574,-0.87482452,101.17239,-0.86936641,101.22166,-40.067333,-175.48294
4059375000,-41.991486,-139.50107,-0.87392169,100.98421,-0.86689198,101.04577,-39.869846,-174.7885
4059687500,-42.302208,-138.50276,-0.87297428,100.85433,-0.86763185,100.87644,-39.892479,-174.88956
4060000000,-42.265987,-139.18611,-0.87194574,100.70732,-0.87105751,100.72959,-39.803936,-174.41438
4060312500,-42.472202,-139.63832,-0.87334913,100.55513,-0.86714107,100.58569,-39.712112,-173.88249
4060625000,-42.65374,-140.03407,-0.87102795,100.37959,-0.86974764,100.44218,-39.743206,-173.94116
4060937500,-42.620228,-140.16074,-0.87535393,100.22799,-0.86876339,100.26942,-39.691002,-173.43228
4061250000,-42.639114,-141.33203,-0.8719095,100.07675,-0.87002826,100.11079,-39.682388,-174.71051
4061562500,-42.45715,-141.3092,-0.87154448,99.900902,-0.87012112,99.948601,-39.618721,-175.09718
