!CSV A.01.01
!Agilent Technologies,N5222A,MY51421451,A.09.90.02
!Agilent N5222A: A.09.90.02
!Date: Wednesday, April 02, 2014 17:51:17
!Source: Standard

BEGIN CH1_DATA
Freq(Hz),S11(DB),S11(DEG),S12(DB),S12(DEG),S21(DB),S21(DEG),S22(DB),S22(DEG)
4000000000,-28.777283,-5.7061191,-0.58514816,23.437023,-0.59236389,23.643099,-26.984308,-128.12013
4000312500,-29.107836,-2.879071,-0.57614875,23.468586,-0.57726246,23.544935,-27.186563,-129.99338
4000625000,-28.987686,-4.1124253,-0.57625163,23.306898,-0.58201927,23.438911,-27.152351,-129.3172
4000937500,-28.914356,-5.2565608,-0.5798403,23.180786,-0.58625078,23.303528,-27.091402,-128.67055
4001250000,-28.852606,-6.4032307,-0.58267075,23.025331,-0.58957297,23.205051,-27.08634,-128.2345
4001562500,-28.761103,-6.9112344,-0.58101225,22.896738,-0.59147644,23.064522,-27.058727,-127.84528
4001875000,-28.769442,-7.2090673,-0.58213359,22.770514,-0.59131259,22.973223,-27.054005,-127.55849
4002187500,-28.787247,-7.7415509,-0.58086061,22.693205,-0.59075272,22.846062,-27.103575,-127.68151
4002500000,-28.792614,-7.7153068,-0.58173347,22.56946,-0.59238887,22.736864,-27.134151,-127.55672
4002812500,-28.83666,-8.0418348,-0.58340615,22.479689,-0.59040576,22.651333,-27.167576,-127.74915
4003125000,-28.805189,-8.3130579,-0.58314764,22.354881,-0.59083205,22.526896,-27.172644,-127.53155
4003437500,-28.812246,-8.5138988,-0.58307892,22.262197,-0.59080487,22.417416,-27.186197,-127.30499
4003750000,-28.796099,-8.7785101,-0.58664405,22.148302,-0.58961189,22.306652,-27.168697,-127.07093
4004062500,-28.785835,-8.8843822,-0.58154291,22.027124,-0.58941805,22.177135,-27.145643,-127.10037
4004375000,-28.79143,-9.2563925,-0.58149236,21.930668,-0.58889478,22.050556,-27.101068,-126.94469
4004687500,-28.745258,-9.3797617,-0.58218962,21.839148,-0.59114468,21.969942,-27.149521,-127.3055
4005000000,-28.68013,-9.2698278,-0.58017713,21.688656,-0.59292871,21.839727,-27.152201,-127.2187
4005312500,-28.65011,-9.3894148,-0.57809758,21.584778,-0.59312475,21.759014,-27.167662,-127.37647
4005625000,-28.633101,-9.5334864,-0.57730603,21.460653,-0.59169817,21.663445,-27.177282,-127.21716
4005937500,-28.634008,-9.5621748,-0.57662541,21.372761,-0.5944587,21.553921,-27.167089,-127.56698
4006250000,-28.645607,-10.112215,-0.57927787,21.255533,-0.59429353,21.438307,-27.146473,-127.53335
4006562500,-28.665781,-10.138982,-0.58290493,21.148918,-0.58556092,21.313854,-27.104799,-127.5639
4006875000,-28.639843,-10.744554,-0.583332,21.044544,-0.58851159,21.20999,-27.094936,-127.4749
4007187500,-28.685543,-11.254932,-0.58266187,20.914631,-0.59202158,21.085493,-27.081026,-127.54899
4007500000,-28.682892,-11.930496,-0.58228964,20.825396,-0.58999705,20.964346,-27.070847,-127.4125
4007812500,-28.662163,-12.254443,-0.58476144,20.704065,-0.59375268,20.871618,-27.125139,-127.40934
4008125000,-28.642563,-12.6479,-0.58300954,20.580561,-0.5934791,20.767693,-27.186878,-127.39662
4008437500,-28.64773,-13.095833,-0.58094591,20.467165,-0.59673464,20.629152,-27.219528,-127.4346
4008750000,-28.644537,-13.306344,-0.57879364,20.384357,-0.59541571,20.521973,-27.235706,-127.29684
4009062500,-28.681864,-13.360173,-0.58642584,20.258148,-0.59419686,20.408073,-27.237972,-127.0945
4009375000,-28.643208,-13.730742,-0.58010352,20.145113,-0.59319746,20.321468,-27.210424,-127.21177
4009687500,-28.62356,-13.716573,-0.58276755,20.021782,-0.5923667,20.21241,-27.137571,-127.05807
4010000000,-28.625748,-13.898991,-0.58292675,19.90765,-0.59349155,20.090088,-27.081276,-127.24101
4010312500,-28.618225,-13.78883,-0.58203995,19.800676,-0.59177858,19.987946,-27.044264,-126.97734
4010625000,-28.605719,-14.145537,-0.58419776,19.69636,-0.59075028,19.884296,-27.058456,-126.9875
4010937500,-28.609018,-14.477368,-0.58148038,19.59021,-0.58978003,19.752693,-27.0944,-127.17138
4011250000,-28.621521,-14.451506,-0.58226305,19.482601,-0.59155118,19.661106,-27.142168,-127.24759
4011562500,-28.618011,-14.985103,-0.58366555,19.381256,-0.59019434,19.55105,-27.161709,-127.05714
4011875000,-28.623844,-15.242162,-0.58307874,19.269312,-0.59502757,19.40469,-27.204151,-127.22369
4012187500,-28.628244,-15.311819,-0.58290881,19.147671,-0.59547335,19.305651,-27.202971,-127.46215
4012500000,-28.652016,-15.483955,-0.58403367,19.043699,-0.59145355,19.225023,-27.189697,-127.41087
4012812500,-28.723263,-15.47393,-0.58406526,18.915804,-0.58996719,19.119576,-27.193699,-127.66197
4013125000,-28.728191,-15.64681,-0.58629209,18.819695,-0.5916205,19.008062,-27.178638,-127.92013
4013437500,-28.676992,-15.939117,-0.5816204,18.697931,-0.59406435,18.902674,-27.192261,-128.1496
4013750000,-28.674345,-15.953426,-0.58025169,18.587399,-0.59450895,18.787193,-27.214552,-128.23106
4014062500,-28.653784,-16.300978,-0.58075589,18.505398,-0.59235734,18.682796,-27.295906,-128.06763
4014375000,-28.643438,-16.525696,-0.57806885,18.372616,-0.59278077,18.557156,-27.311035,-128.20226
4014687500,-28.606548,-16.74299,-0.58043909,18.271275,-0.59617418,18.461367,-27.313271,-128.07114
4015000000,-28.620449,-16.734549,-0.58160996,18.159601,-0.59307808,18.311367,-27.321505,-127.83984
4015312500,-28.624754,-17.154358,-0.5821048,18.052984,-0.59185648,18.212868,-27.236177,-127.7239
4015625000,-28.625448,-17.367134,-0.58318681,17.94795,-0.59151632,18.141796,-27.205132,-127.3839
4015937500,-28.631149,-17.603289,-0.5848974,17.822355,-0.59134924,17.973862,-27.137499,-127.43823
4016250000,-28.653172,-17.923521,-0.5832293,17.710165,-0.59494603,17.888248,-27.102879,-127.32726
4016562500,-28.667841,-17.977688,-0.58472157,17.609112,-0.58927995,17.786709,-27.078592,-127.03896
4016875000,-28.69705,-17.847908,-0.5863238,17.488077,-0.5925985,17.653755,-27.043074,-127.05946
4017187500,-28.735771,-18.257963,-0.58277303,17.372099,-0.5925802,17.551708,-27.018007,-126.852
4017500000,-28.696716,-18.429998,-0.58487225,17.273718,-0.59146142,17.448904,-27.012314,-126.86475
4017812500,-28.730991,-18.59993,-0.58387542,17.141672,-0.59332371,17.325966,-27.015915,-127.09724
4018125000,-28.747822,-19.317633,-0.58437914,17.038776,-0.59283292,17.209875,-27.054447,-127.24177
4018437500,-28.700655,-19.791515,-0.5829801,16.934704,-0.59307235,17.10149,-27.081236,-127.27425
4018750000,-28.690056,-20.404684,-0.58279258,16.828672,-0.59617329,17.011805,-27.127798,-127.25034
4019062500,-28.634214,-20.78993,-0.58364469,16.73237,-0.59491688,16.88586,-27.141594,-127.24786
4019375000,-28.682707,-21.131651,-0.582506,16.616365,-0.59300685,16.781443,-27.145031,-126.95771
4019687500,-28.668449,-21.334263,-0.58535105,16.518848,-0.59142238,16.688547,-27.134398,-127.01559
4020000000,-28.71068,-21.453911,-0.58314985,16.390131,-0.59657794,16.572248,-27.11059,-127.01083
4020312500,-28.72221,-21.80628,-0.5844987,16.28828,-0.59066504,16.461666,-27.100149,-126.40676
4020625000,-28.702621,-21.837429,-0.58176214,16.157116,-0.58980906,16.331425,-27.075882,-126.49956
4020937500,-28.690178,-22.21394,-0.58563393,16.054445,-0.59338832,16.222626,-27.132307,-126.72376
4021250000,-28.691765,-22.532078,-0.58304662,15.936981,-0.5956021,16.098906,-27.191986,-127.03619
4021562500,-28.607222,-22.696884,-0.5843066,15.826109,-0.59509033,15.996315,-27.169376,-127.23312
4021875000,-28.605837,-22.887316,-0.58423203,15.726321,-0.59399086,15.890448,-27.209238,-127.22189
4022187500,-28.620007,-23.158827,-0.58295691,15.616979,-0.59473765,15.780864,-27.180645,-127.31747
4022500000,-28.569042,-23.551003,-0.58126855,15.511609,-0.5959987,15.673902,-27.172321,-127.27675
4022812500,-28.65299,-23.772297,-0.58219165,15.404855,-0.59457248,15.57107,-27.131357,-127.16259
4023125000,-28.653189,-23.778734,-0.58324277,15.288682,-0.59565359,15.438031,-27.103441,-126.99638
4023437500,-28.665295,-24.109903,-0.58052135,15.161132,-0.59780699,15.337272,-27.102543,-126.94501
4023750000,-28.660755,-24.385582,-0.58056355,15.056542,-0.59359366,15.245765,-27.08923,-126.81557
4024062500,-28.65909,-24.357637,-0.58498019,14.955192,-0.59435159,15.176549,-27.087755,-126.85444
4024375000,-28.653397,-24.477081,-0.58178532,14.844257,-0.59108788,15.038743,-27.077919,-126.9285
4024687500,-28.660452,-24.533548,-0.58277762,14.713795,-0.59660071,14.917604,-27.116644,-126.97038
4025000000,-28.633492,-24.621569,-0.58373266,14.589257,-0.59607905,14.794748,-27.119801,-126.98386
4025312500,-28.655876,-24.961815,-0.58344579,14.499849,-0.59379292,14.689816,-27.107918,-127.01254
4025625000,-28.573975,-25.500731,-0.58261997,14.377463,-0.59627038,14.587379,-27.163328,-126.8214
4025937500,-28.563475,-26.269857,-0.58114302,14.269578,-0.59634107,14.455061,-27.196571,-126.58971
4026250000,-28.545088,-26.511339,-0.58413953,14.16169,-0.59376913,14.367346,-27.208719,-126.42637
4026562500,-28.541874,-27.247168,-0.58042765,14.059012,-0.59282166,14.23216,-27.213221,-126.51353
4026875000,-28.588676,-27.470007,-0.58174419,13.948669,-0.59493297,14.138906,-27.171646,-126.39565
4027187500,-28.62804,-27.586098,-0.58774132,13.84003,-0.59516293,14.029144,-27.132454,-126.58501
4027500000,-28.708447,-27.995123,-0.58166438,13.726213,-0.59349918,13.906446,-27.115088,-126.73693
4027812500,-28.719704,-28.049231,-0.58350909,13.628098,-0.59092999,13.815728,-27.070955,-126.68078
4028125000,-28.761877,-28.414154,-0.58444995,13.519036,-0.59069037,13.690983,-27.074774,-126.88755
4028437500,-28.654583,-28.314247,-0.58422846,13.393033,-0.59244782,13.594754,-27.108261,-127.24215
4028750000,-28.568668,-28.426622,-0.58393753,13.295567,-0.59522063,13.486978,-27.13714,-127.10551
4029062500,-28.483332,-28.714567,-0.58380073,13.1933,-0.5935415,13.363888,-27.151751,-127.36583
4029375000,-28.472124,-29.168638,-0.58577687,13.088443,-0.58978307,13.253169,-27.15871,-127.24317
4029687500,-28.525717,-29.420828,-0.58436072,12.981485,-0.59373593,13.143908,-27.119707,-127.11328
4030000000,-28.57028,-29.463568,-0.58586085,12.873828,-0.5906952,13.023518,-27.094948,-127.231
4030312500,-28.628622,-29.822205,-0.58556902,12.740907,-0.59152532,12.922187,-27.074591,-126.95512
4030625000,-28.6759,-29.908876,-0.58456016,12.645082,-0.59499371,12.790026,-27.048111,-126.64603
4030937500,-28.706646,-30.007126,-0.58371526,12.509249,-0.59178978,12.70803,-27.040649,-126.51967
4031250000,-28.70887,-30.309563,-0.58533114,12.397851,-0.59339821,12.57393,-27.027292,-126.29604
4031562500,-28.683578,-30.37689,-0.58358496,12.304705,-0.59263098,12.46419,-27.040209,-126.1772
4031875000,-28.667608,-30.586882,-0.58184838,12.194271,-0.59112215,12.377329,-27.055752,-126.22118
4032187500,-28.65489,-30.685694,-0.58231467,12.072174,-0.59343135,12.266442,-27.105711,-126.21835
4032500000,-28.643976,-30.97748,-0.58293653,11.968051,-0.59482872,12.166823,-27.116875,-126.20022
4032812500,-28.673643,-31.389118,-0.58216602,11.840896,-0.59434354,12.068544,-27.105108,-126.12138
4033125000,-28.67518,-31.62641,-0.58244932,11.733348,-0.59337097,11.943238,-27.125847,-125.99981
4033437500,-28.665123,-31.72431,-0.58276272,11.632524,-0.5920608,11.844655,-27.149761,-126.02453
4033750000,-28.697735,-32.141212,-0.58375525,11.527395,-0.59293634,11.716912,-27.123741,-126.00896
4034062500,-28.666412,-32.398472,-0.58212572,11.416822,-0.59711713,11.614777,-27.168713,-125.80926
4034375000,-28.722572,-32.606804,-0.58498555,11.30657,-0.59353727,11.485302,-27.120504,-125.99454
4034687500,-28.674742,-33.099251,-0.58341265,11.18985,-0.59251261,11.345751,-27.11554,-126.25352
4035000000,-28.704792,-33.670261,-0.58416957,11.090751,-0.59327716,11.253106,-27.088964,-126.24352
4035312500,-28.698826,-34.042553,-0.58502144,10.987909,-0.59457207,11.137852,-27.109407,-126.31775
4035625000,-28.705585,-34.49889,-0.5834251,10.863735,-0.59282869,11.013792,-27.106438,-126.23889
4035937500,-28.706463,-34.353638,-0.58483022,10.746272,-0.59272343,10.920418,-27.125118,-126.13298
4036250000,-28.737154,-34.239746,-0.58099526,10.64523,-0.59534472,10.809804,-27.147549,-126.04951
4036562500,-28.726082,-34.363358,-0.58241308,10.535224,-0.59426522,10.704129,-27.144623,-125.91277
4036875000,-28.724815,-34.335403,-0.58119816,10.407517,-0.59290028,10.597926,-27.080725,-125.79011
4037187500,-28.706682,-34.455578,-0.58258939,10.312687,-0.59490019,10.479609,-27.0896,-125.8687
4037500000,-28.667322,-35.137024,-0.58412677,10.197054,-0.59503299,10.376613,-27.03986,-125.9384
4037812500,-28.670061,-35.827148,-0.58235031,10.069688,-0.5927434,10.283954,-27.00606,-126.14014
4038125000,-28.69591,-36.264889,-0.58438456,9.9863148,-0.59266478,10.169198,-27.025276,-126.36928
4038437500,-28.698431,-36.787201,-0.58237201,9.8764353,-0.59346402,10.022886,-27.028532,-126.45766
4038750000,-28.723608,-37.155903,-0.58483726,9.7674294,-0.59544146,9.9305172,-27.029633,-126.40003
4039062500,-28.755278,-37.513386,-0.58381361,9.6378269,-0.59646249,9.8047171,-27.070522,-126.41319
4039375000,-28.796028,-37.640484,-0.58101726,9.5393963,-0.59543592,9.7047796,-27.067863,-126.27689
4039687500,-28.788084,-37.939716,-0.58172089,9.4287539,-0.5976488,9.5857706,-27.088892,-126.05412
4040000000,-28.764536,-38.032997,-0.58272463,9.3160286,-0.59625059,9.4959345,-27.132809,-126.0312
4040312500,-28.732584,-38.217937,-0.58276594,9.2099676,-0.59307027,9.3838167,-27.100649,-125.92388
4040625000,-28.707376,-38.561172,-0.58538777,9.0906305,-0.59408468,9.2814951,-27.070852,-125.86378
4040937500,-28.688131,-38.843277,-0.58565956,8.987463,-0.59324884,9.1824226,-27.052311,-125.59109
4041250000,-28.674543,-39.237011,-0.58286124,8.8672113,-0.58804291,9.0408068,-27.037321,-125.59788
4041562500,-28.645941,-39.497944,-0.5842526,8.7308445,-0.59211642,8.9341078,-27.01301,-125.57035
4041875000,-28.618326,-39.569759,-0.58389187,8.6361523,-0.59467566,8.8353958,-27.031488,-125.96584
4042187500,-28.662558,-39.766289,-0.58639526,8.5629663,-0.59335464,8.7063761,-27.006733,-126.36205
4042500000,-28.620739,-40.100815,-0.5832296,8.4138365,-0.59845644,8.6056137,-27.022717,-126.38652
4042812500,-28.601507,-40.083759,-0.58549702,8.323988,-0.59967381,8.519743,-27.061275,-126.54442
4043125000,-28.616375,-40.140652,-0.58474547,8.1984968,-0.59747535,8.4152956,-27.076414,-126.58909
4043437500,-28.626715,-40.051052,-0.58427626,8.0999203,-0.59434164,8.2746382,-27.062746,-126.57768
4043750000,-28.650984,-40.161942,-0.5867703,7.9813724,-0.59361339,8.1788597,-27.073652,-126.15434
4044062500,-28.623425,-40.285011,-0.58488578,7.870656,-0.59550124,8.073638,-27.048235,-126.23027
4044375000,-28.576296,-40.718719,-0.58486056,7.7415056,-0.59685278,7.9479265,-27.044973,-125.94399
4044687500,-28.563087,-41.077579,-0.58423895,7.6460495,-0.59466988,7.8587236,-27.05998,-125.74148
4045000000,-28.546717,-41.557571,-0.58393008,7.5171194,-0.5960359,7.7199368,-27.021023,-125.49362
4045312500,-28.480446,-42.018814,-0.58177048,7.4224086,-0.59738779,7.6176066,-27.013378,-125.34791
4045625000,-28.520876,-42.363846,-0.58157039,7.3358741,-0.59533817,7.5255818,-26.95644,-125.15298
4045937500,-28.544197,-42.900932,-0.58125949,7.2141609,-0.59792393,7.4151411,-26.982458,-125.07788
4046250000,-28.592733,-43.115917,-0.58173758,7.0817847,-0.59516853,7.287992,-26.975916,-125.38059
4046562500,-28.574881,-43.004009,-0.58359885,6.9935393,-0.59715509,7.1772075,-27.022734,-125.7276
4046875000,-28.594284,-43.396442,-0.58065093,6.895587,-0.59274387,7.0676303,-27.061272,-125.91087
4047187500,-28.676479,-43.563229,-0.5828743,6.7745481,-0.59589452,6.9432364,-27.145945,-125.74352
4047500000,-28.659267,-43.84523,-0.58360463,6.6686416,-0.59410906,6.8408942,-27.164839,-125.79025
4047812500,-28.653143,-44.14122,-0.58353698,6.5493627,-0.5956682,6.7194166,-27.148249,-126.12122
4048125000,-28.668877,-44.280579,-0.58360052,6.4318142,-0.59741801,6.6218271,-27.169279,-125.98815
4048437500,-28.647379,-44.693188,-0.58641565,6.3117385,-0.5965206,6.5095215,-27.133806,-125.87691
4048750000,-28.629658,-44.744019,-0.58286965,6.2073503,-0.59737384,6.3990469,-27.13011,-125.96079
4049062500,-28.636793,-45.133461,-0.5860166,6.0971522,-0.59556764,6.29386,-27.106337,-125.71435
4049375000,-28.619534,-45.327099,-0.58487082,5.9891758,-0.59734309,6.1768017,-27.000093,-125.97726
4049687500,-28.650972,-45.662361,-0.58240885,5.8793607,-0.59684765,6.0646558,-26.952669,-125.70739
4050000000,-28.684086,-45.921215,-0.58326536,5.7745333,-0.59482306,5.9575429,-26.900682,-125.63581
4050312500,-28.66394,-45.901379,-0.58553857,5.6777892,-0.59984946,5.8509111,-26.861938,-125.52084
4050625000,-28.695324,-46.078129,-0.5834114,5.5587616,-0.59886336,5.7350001,-26.858843,-125.78632
4050937500,-28.670034,-46.200901,-0.58847988,5.4499388,-0.59619981,5.6257524,-26.876333,-125.74632
4051250000,-28.685301,-46.484989,-0.58537906,5.3338766,-0.59561098,5.5023928,-26.925735,-125.74167
4051562500,-28.657944,-46.716393,-0.58651125,5.2322025,-0.59433877,5.3951778,-26.956745,-125.77288
4051875000,-28.647682,-46.644218,-0.58742791,5.1161599,-0.5932346,5.2750006,-26.989986,-125.78942
4052187500,-28.638067,-47.139084,-0.58596778,5.008616,-0.59595704,5.1749191,-26.952103,-125.96645
4052500000,-28.627234,-47.823826,-0.58731043,4.8903804,-0.59548002,5.0671844,-26.955229,-126.03486
4052812500,-28.641613,-48.547031,-0.58521682,4.7686825,-0.59218198,4.9565387,-26.919024,-126.17918
4053125000,-28.590738,-48.764023,-0.58790493,4.6595068,-0.59257454,4.8463235,-26.915796,-126.21629
4053437500,-28.608519,-48.861099,-0.58462131,4.556746,-0.59465653,4.7499938,-26.961203,-125.21684
4053750000,-28.591393,-48.729435,-0.5876056,4.4422026,-0.5918684,4.6351709,-26.925861,-125.46039
4054062500,-28.610733,-48.98008,-0.58525789,4.3156457,-0.59276754,4.5044732,-26.8969,-125.55901
4054375000,-28.573523,-48.850063,-0.5893445,4.2140355,-0.59296453,4.4322782,-26.888426,-125.52963
4054687500,-28.573427,-48.938049,-0.58692145,4.1155238,-0.59656215,4.3182735,-26.874121,-125.50567
4055000000,-28.55072,-49.011753,-0.58340192,3.9954472,-0.59194183,4.1960149,-26.897108,-125.84801
4055312500,-28.571367,-49.158871,-0.58402991,3.873899,-0.59640825,4.0873246,-26.880413,-125.946
4055625000,-28.612846,-49.442009,-0.58635992,3.7916017,-0.59487605,3.9951258,-26.879963,-126.12154
4055937500,-28.588753,-49.324806,-0.58428937,3.6928532,-0.59409362,3.8758221,-26.891029,-126.52685
4056250000,-28.663254,-49.651634,-0.58698463,3.565428,-0.5937531,3.7598271,-26.902683,-126.49145
4056562500,-28.620678,-50.017845,-0.58601987,3.4709091,-0.59338462,3.6541448,-26.890457,-126.19298
4056875000,-28.604637,-50.279243,-0.58674628,3.3327935,-0.59205347,3.5507901,-26.950937,-125.94361
4057187500,-28.592115,-50.820763,-0.58891135,3.2247593,-0.59354711,3.4074092,-26.981998,-125.9353
4057500000,-28.597296,-51.112862,-0.58646554,3.110178,-0.58941561,3.2898152,-27.052444,-125.81836
4057812500,-28.568352,-51.504299,-0.58940876,3.0059721,-0.59356207,3.1722851,-27.055447,-125.57016
4058125000,-28.553371,-51.672554,-0.58858341,2.8819895,-0.59442961,3.0524936,-27.060022,-125.83532
4058437500,-28.506714,-51.951771,-0.59129268,2.7983055,-0.59475487,2.9645658,-27.051046,-125.7123
4058750000,-28.502701,-52.293015,-0.5890317,2.6703248,-0.59445602,2.8544352,-27.074715,-125.62774
4059062500,-28.447681,-52.792068,-0.58587271,2.5699008,-0.59622771,2.7296741,-27.107655,-125.64466
4059375000,-28.462929,-52.82658,-0.58859855,2.45665,-0.59519315,2.6417663,-27.05512,-125.6551
4059687500,-28.44817,-53.051834,-0.58633029,2.3547218,-0.59353155,2.5168808,-27.015268,-125.64987
4060000000,-28.456175,-53.251099,-0.5883317,2.2366688,-0.59374225,2.4160383,-26.977303,-125.62733
4060312500,-28.484711,-53.456661,-0.58688015,2.1155531,-0.59277916,2.2997022,-26.924751,-125.6496
4060625000,-28.473665,-53.5513,-0.5909614,2.0067673,-0.5941146,2.2101815,-26.858629,-125.65189
4060937500,-28.462065,-53.959381,-0.58904576,1.8755685,-0.59720886,2.0987175,-26.878994,-125.83378
4061250000,-28.453196,-54.325161,-0.58563298,1.7926594,-0.59544933,1.9517539,-26.892044,-125.89639
4061562500,-28.464577,-54.599476,-0.58555895,1.6758758,-0.59527624,1.8847828,-26.910421,-125.88099
4061875000,-28.451687,-54.75481,-0.58655894,1.5896205,-0.59750324,1.7711343,-26.948753,-126.21916
