!CSV A.01.01
!Agilent Technologies,N5222A,MY51421451,A.09.90.02
!Agilent N5222A: A.09.90.02
!Date: Wednesday, May 21, 2014 10:42:59
!Source: Standard

BEGIN CH4_DATA
Freq(Hz),S33(DB),S33(DEG),S34(DB),S34(DEG),S43(DB),S43(DEG),S44(DB),S44(DEG)
4000000000,-44.373493,-126.14272,-0.6028505,-32.031326,-0.61343747,-32.08271,-44.999031,-149.8575
4000312500,-42.890511,-125.94362,-0.63470501,-33.889938,-0.59096402,-32.206139,-44.080315,-152.74283
4000625000,-42.928101,-125.25632,-0.62316543,-33.475189,-0.59871167,-32.310513,-44.85397,-150.21144
4000937500,-43.067444,-125.43359,-0.6152035,-33.040821,-0.60476029,-32.444023,-45.175758,-148.25883
4001250000,-43.117363,-123.43548,-0.60828727,-32.692352,-0.6049422,-32.542805,-45.813133,-143.83403
4001562500,-43.364025,-125.51023,-0.60613006,-32.580025,-0.60681534,-32.673855,-45.715042,-144.18365
4001875000,-43.484329,-125.55943,-0.60592252,-32.615646,-0.60807788,-32.794445,-45.851494,-141.60889
4002187500,-43.74139,-126.47258,-0.60376972,-32.767693,-0.60505962,-32.89027,-45.53513,-142.70001
4002500000,-43.730518,-127.1937,-0.60570365,-32.951252,-0.60557193,-33.011047,-45.264305,-143.92448
4002812500,-43.751385,-127.66209,-0.60921818,-33.119366,-0.60580093,-33.135605,-45.121643,-146.65074
4003125000,-43.857986,-127.19041,-0.60748696,-33.238518,-0.60821772,-33.244381,-45.118744,-148.41277
4003437500,-43.423447,-127.7669,-0.60913485,-33.349781,-0.6061343,-33.368671,-45.001118,-150.63878
4003750000,-43.167076,-126.82117,-0.60604715,-33.460892,-0.60621083,-33.499043,-44.77002,-153.21356
4004062500,-43.160755,-126.46883,-0.60620016,-33.581783,-0.60801417,-33.599594,-44.770481,-154.74712
4004375000,-42.874607,-129.40831,-0.6048606,-33.709789,-0.60807252,-33.739998,-44.634117,-155.52451
4004687500,-42.806374,-128.26819,-0.60791439,-33.817375,-0.60526663,-33.833584,-44.453728,-151.62413
4005000000,-42.84267,-128.12781,-0.60412377,-33.941849,-0.60705692,-33.937622,-44.199814,-150.26624
4005312500,-42.741234,-127.41035,-0.60486591,-34.070675,-0.60688531,-34.040108,-43.997089,-146.16557
4005625000,-43.111671,-127.8148,-0.60475141,-34.175461,-0.60919493,-34.148422,-43.967323,-143.98073
4005937500,-42.921619,-125.16228,-0.60569644,-34.300655,-0.60743481,-34.265785,-44.237183,-144.5313
4006250000,-42.819561,-125.10232,-0.60534698,-34.428391,-0.60477465,-34.374008,-44.111965,-145.50946
4006562500,-42.569553,-123.67981,-0.6060313,-34.531574,-0.60636157,-34.509926,-44.100418,-147.03752
4006875000,-42.420212,-124.28036,-0.60463077,-34.631809,-0.6045441,-34.610756,-44.195301,-148.45551
4007187500,-42.258976,-125.29138,-0.60582078,-34.748817,-0.60548931,-34.736309,-44.144642,-149.5945
4007500000,-42.397648,-125.02992,-0.60727954,-34.856754,-0.60549039,-34.873238,-44.3727,-150.90509
4007812500,-42.309223,-125.01495,-0.60935366,-34.988728,-0.6077525,-34.981285,-44.420704,-150.28441
4008125000,-42.489227,-124.95589,-0.60847306,-35.072819,-0.60603309,-35.068943,-44.488987,-153.27039
4008437500,-42.47332,-125.11553,-0.61080474,-35.202763,-0.6066764,-35.190388,-44.286839,-151.3049
4008750000,-42.35984,-124.51575,-0.61000454,-35.340446,-0.60698205,-35.30476,-44.258846,-151.23767
4009062500,-42.507366,-123.9437,-0.61080557,-35.436352,-0.60695302,-35.436287,-43.718815,-150.70091
4009375000,-42.549782,-124.43985,-0.60944355,-35.54195,-0.60492384,-35.523159,-43.383678,-151.7572
4009687500,-42.336906,-122.85418,-0.60847461,-35.664989,-0.60680681,-35.644249,-43.099545,-152.75087
4010000000,-42.339382,-121.68933,-0.60639024,-35.768517,-0.60913539,-35.778118,-42.779346,-151.88437
4010312500,-42.059601,-121.57948,-0.60438699,-35.874809,-0.60548866,-35.887005,-42.57896,-152.22588
4010625000,-41.998966,-121.48564,-0.60527933,-36.001831,-0.60758716,-36.002525,-42.709164,-151.64212
4010937500,-41.863777,-122.42307,-0.60941809,-36.106384,-0.60731006,-36.118969,-42.875492,-151.26308
4011250000,-41.542957,-123.26402,-0.61035728,-36.2038,-0.60718131,-36.249485,-43.134964,-150.98091
4011562500,-41.445343,-123.17827,-0.60701627,-36.332802,-0.6032725,-36.35006,-43.008472,-151.26216
4011875000,-41.407574,-123.57471,-0.60675955,-36.454117,-0.60809183,-36.487255,-43.108971,-149.64485
4012187500,-41.346977,-124.35938,-0.60972571,-36.570084,-0.60631323,-36.597385,-42.977219,-151.41768
4012500000,-41.316578,-124.27714,-0.60582644,-36.689678,-0.60613573,-36.712673,-42.851479,-153.43178
4012812500,-41.470627,-123.84351,-0.60759127,-36.799004,-0.60785657,-36.840263,-42.853233,-155.0676
4013125000,-41.435268,-125.23123,-0.60978103,-36.924664,-0.60571843,-36.946533,-42.69923,-155.3555
4013437500,-41.485508,-124.81656,-0.60788381,-37.053677,-0.60626245,-37.041489,-42.571587,-155.70529
4013750000,-41.591511,-125.03513,-0.61133933,-37.14352,-0.60548139,-37.156086,-42.408356,-156.93324
4014062500,-41.402294,-123.38615,-0.60914081,-37.25692,-0.60239685,-37.275669,-42.635086,-156.75456
4014375000,-41.463299,-124.64574,-0.60991454,-37.398361,-0.60658211,-37.396645,-42.431656,-155.45221
4014687500,-41.367947,-124.0483,-0.60700554,-37.518654,-0.60864389,-37.495777,-42.337662,-154.29277
4015000000,-41.324413,-123.90641,-0.61132813,-37.624771,-0.60922158,-37.62286,-42.238785,-155.18489
4015312500,-41.037037,-122.54268,-0.60524404,-37.749023,-0.61057216,-37.743504,-42.13393,-154.23167
4015625000,-40.702984,-123.03741,-0.60522485,-37.860432,-0.60746413,-37.864105,-42.069386,-154.25272
4015937500,-40.646439,-124.02931,-0.60651726,-37.946198,-0.6077823,-37.96254,-42.058975,-155.73747
4016250000,-40.461758,-122.49303,-0.60633183,-38.06218,-0.61029458,-38.076469,-41.937103,-156.8085
4016562500,-40.504303,-121.89252,-0.60416704,-38.18259,-0.61041945,-38.220371,-41.838116,-156.32405
4016875000,-40.571468,-122.15455,-0.60257608,-38.303284,-0.61120921,-38.313599,-41.904148,-155.83856
4017187500,-40.621441,-121.17981,-0.60573745,-38.405632,-0.6104089,-38.425835,-42.0229,-155.89391
4017500000,-40.694992,-121.37318,-0.60529721,-38.548004,-0.60922277,-38.534779,-41.900089,-154.92741
4017812500,-40.729458,-121.52947,-0.6061554,-38.64328,-0.60507524,-38.649014,-42.193222,-155.33754
4018125000,-40.862743,-121.93588,-0.60656458,-38.747177,-0.60982615,-38.755993,-41.959946,-156.53461
4018437500,-40.784737,-120.29005,-0.60808444,-38.845348,-0.60996485,-38.881336,-42.135303,-156.07426
4018750000,-40.813316,-120.3677,-0.60801971,-38.969582,-0.61250401,-38.994129,-42.078217,-157.64305
4019062500,-40.859467,-121.09202,-0.60944778,-39.103165,-0.60984927,-39.083176,-41.99115,-157.13725
4019375000,-40.901588,-120.84413,-0.61126739,-39.211784,-0.61004645,-39.210377,-41.815125,-157.1234
4019687500,-40.574783,-120.67186,-0.61065334,-39.335529,-0.60771239,-39.331829,-41.977253,-157.68634
4020000000,-40.549129,-120.00366,-0.6132713,-39.432106,-0.61070257,-39.443905,-41.78759,-157.6787
4020312500,-40.346615,-119.43396,-0.61477876,-39.56525,-0.60855663,-39.554226,-41.637444,-157.09251
4020625000,-40.261368,-118.39555,-0.61035383,-39.667233,-0.60566324,-39.676994,-41.627216,-156.69418
4020937500,-40.272842,-119.12369,-0.61249071,-39.775414,-0.60676891,-39.782135,-41.537239,-156.78409
4021250000,-40.126835,-118.68899,-0.61155891,-39.911095,-0.60702449,-39.909206,-41.309742,-158.10564
4021562500,-40.014618,-120.25357,-0.61082071,-40.007126,-0.60821962,-40.039143,-41.174141,-157.11861
4021875000,-39.999718,-120.76517,-0.61198711,-40.113022,-0.60492754,-40.136936,-41.150272,-158.26062
4022187500,-39.845551,-120.50033,-0.61044127,-40.231152,-0.60616505,-40.242401,-41.195732,-159.05443
4022500000,-39.84573,-121.70769,-0.60914993,-40.339275,-0.60687071,-40.379189,-41.031914,-159.75769
4022812500,-39.947292,-120.88892,-0.61013031,-40.501774,-0.60840964,-40.487488,-41.03812,-160.59338
4023125000,-40.132191,-121.06359,-0.61184394,-40.603779,-0.61165208,-40.614941,-41.058445,-162.43723
4023437500,-40.034405,-120.9062,-0.61331791,-40.715546,-0.61171365,-40.718834,-41.019192,-161.88618
4023750000,-40.009525,-120.25533,-0.61216879,-40.840069,-0.61163133,-40.827312,-41.080791,-162.98849
4024062500,-40.132381,-121.77267,-0.61436039,-40.944229,-0.60791284,-40.944172,-41.28606,-162.74319
4024375000,-40.028687,-121.67532,-0.60856223,-41.040253,-0.60894918,-41.064754,-41.306889,-162.76894
4024687500,-39.929115,-121.21344,-0.60836887,-41.178539,-0.60831922,-41.186436,-41.146008,-161.1041
4025000000,-39.819107,-122.30298,-0.60867792,-41.29866,-0.60840791,-41.289036,-41.004292,-160.93777
4025312500,-39.768749,-122.48114,-0.60817868,-41.408001,-0.60780901,-41.437984,-41.012695,-159.26617
4025625000,-39.896362,-122.29762,-0.60635781,-41.488041,-0.61015195,-41.527687,-40.799519,-161.44188
4025937500,-39.956676,-123.05929,-0.61102742,-41.623062,-0.60808849,-41.64875,-40.741573,-160.09981
4026250000,-39.857422,-121.73278,-0.60860091,-41.737469,-0.60632807,-41.758244,-40.713295,-160.74852
4026562500,-39.787479,-121.42654,-0.60617632,-41.856014,-0.60884243,-41.886707,-40.403088,-160.31853
4026875000,-39.758171,-121.69563,-0.6068396,-41.966358,-0.61061668,-42.008003,-40.470665,-161.65979
4027187500,-39.682735,-121.12282,-0.61272568,-42.094028,-0.61055446,-42.09758,-40.558945,-162.64507
4027500000,-39.557674,-121.77422,-0.60936654,-42.191483,-0.60927832,-42.217117,-40.561157,-162.17665
4027812500,-39.484138,-122.13827,-0.60721594,-42.316589,-0.60778999,-42.345539,-40.5326,-162.95959
4028125000,-39.407051,-121.77876,-0.61009657,-42.43734,-0.60648549,-42.447395,-40.521915,-163.12547
4028437500,-39.249096,-121.91433,-0.60728127,-42.553268,-0.60817075,-42.549301,-40.562508,-163.1188
4028750000,-39.335167,-120.60268,-0.60746807,-42.649837,-0.60891217,-42.670185,-40.598652,-163.48465
4029062500,-39.239372,-119.09987,-0.60650271,-42.773048,-0.60833234,-42.777767,-40.431854,-162.43495
4029375000,-39.207512,-118.84012,-0.60425854,-42.908958,-0.61054748,-42.910458,-40.54673,-163.3334
4029687500,-39.183884,-119.05254,-0.60874575,-42.995667,-0.61116886,-43.04549,-40.428478,-162.21992
4030000000,-39.212101,-117.75571,-0.60831839,-43.117817,-0.61166888,-43.127308,-40.395191,-163.5473
4030312500,-39.109444,-118.91511,-0.61003679,-43.242264,-0.61188418,-43.248894,-40.519928,-164.54781
4030625000,-39.175911,-117.92837,-0.60807914,-43.348839,-0.60991055,-43.362286,-40.474491,-164.79939
4030937500,-39.130474,-117.98383,-0.60776055,-43.462765,-0.61070329,-43.462219,-40.621494,-165.49951
4031250000,-39.155334,-117.16993,-0.60696077,-43.58791,-0.610367,-43.573814,-40.622425,-166.27596
4031562500,-39.053596,-117.85538,-0.61032897,-43.689472,-0.61146814,-43.678722,-40.47155,-166.08014
4031875000,-38.883392,-118.06245,-0.60821408,-43.81741,-0.60993862,-43.805908,-40.261284,-165.37955
4032187500,-38.806946,-117.61325,-0.60812169,-43.926586,-0.60857743,-43.922371,-40.200169,-165.22134
4032500000,-38.827103,-117.30318,-0.60969299,-44.02832,-0.61125302,-44.039627,-39.995335,-165.86629
4032812500,-38.6628,-116.98959,-0.60673094,-44.173023,-0.60952812,-44.159569,-40.032345,-165.15111
4033125000,-38.669056,-117.25479,-0.60610139,-44.262657,-0.61280751,-44.266865,-40.141121,-165.74562
4033437500,-38.728035,-117.04999,-0.60722518,-44.379925,-0.61259669,-44.386456,-39.981781,-165.81131
4033750000,-38.746387,-117.68487,-0.60715246,-44.499264,-0.61041999,-44.511608,-39.961269,-166.14871
4034062500,-38.773323,-117.24859,-0.60661983,-44.609188,-0.61365688,-44.630356,-39.953926,-167.35492
4034375000,-38.905193,-116.33281,-0.60784525,-44.726929,-0.61057657,-44.737129,-39.883106,-168.45386
4034687500,-38.739464,-115.66821,-0.60784125,-44.84362,-0.60854834,-44.871552,-39.874348,-168.16679
4035000000,-38.680355,-115.04249,-0.61169016,-44.949978,-0.60784382,-44.95134,-39.955967,-168.89786
4035312500,-38.696335,-114.76815,-0.60954452,-45.07233,-0.60840166,-45.073536,-40.059669,-168.03932
4035625000,-38.553604,-114.41338,-0.61030811,-45.176796,-0.60603231,-45.197422,-39.951569,-167.85385
4035937500,-38.452095,-114.51347,-0.61158431,-45.29847,-0.61039501,-45.296967,-39.965778,-167.57599
4036250000,-38.362804,-115.29487,-0.60989153,-45.400375,-0.61036009,-45.427956,-39.872364,-167.06902
4036562500,-38.395153,-113.85938,-0.60830963,-45.521015,-0.6119529,-45.544228,-39.614185,-167.41087
4036875000,-38.350277,-114.30907,-0.60913604,-45.649876,-0.61280596,-45.650719,-39.583801,-166.53656
4037187500,-38.284973,-114.27673,-0.60974377,-45.759712,-0.61279511,-45.760891,-39.497265,-167.49747
4037500000,-38.19817,-114.58505,-0.60990584,-45.883198,-0.61156809,-45.883549,-39.538639,-168.40118
4037812500,-38.095036,-115.14816,-0.61083335,-46.000534,-0.61226648,-45.999203,-39.420551,-168.45941
4038125000,-38.111801,-115.29885,-0.61051923,-46.114204,-0.61231601,-46.093277,-39.586155,-168.78935
4038437500,-37.938065,-115.95834,-0.60999358,-46.230473,-0.61435777,-46.207638,-39.655659,-169.74071
4038750000,-37.961441,-116.16872,-0.60953015,-46.338936,-0.60959321,-46.330978,-39.559994,-170.4292
4039062500,-37.958424,-116.21402,-0.61024797,-46.474907,-0.61304313,-46.44799,-39.34227,-170.05583
4039375000,-37.895355,-116.58209,-0.61124676,-46.580338,-0.61163998,-46.583836,-39.147995,-171.93903
4039687500,-38.068611,-116.09975,-0.61203992,-46.691563,-0.61046374,-46.679333,-39.094955,-171.09473
4040000000,-38.104595,-116.6691,-0.61131942,-46.822163,-0.61006629,-46.780476,-39.088951,-171.42853
4040312500,-38.040573,-115.73301,-0.61135978,-46.93145,-0.60784751,-46.921719,-38.895092,-170.77205
4040625000,-38.097862,-115.53094,-0.61153096,-47.02808,-0.60807449,-47.01133,-39.051762,-170.28326
4040937500,-37.959122,-114.46982,-0.61044723,-47.158958,-0.60949022,-47.134487,-39.071651,-170.74701
4041250000,-37.917912,-114.81165,-0.61055374,-47.272598,-0.61074454,-47.257954,-39.168171,-170.04597
4041562500,-37.897274,-114.69414,-0.6097607,-47.395351,-0.60864687,-47.376869,-39.09034,-170.69186
4041875000,-38.069839,-114.8167,-0.61038506,-47.490742,-0.60734743,-47.504559,-39.292011,-172.47202
4042187500,-38.057934,-114.36888,-0.61027974,-47.61179,-0.60986871,-47.614948,-39.180489,-172.69279
4042500000,-38.05846,-115.19217,-0.61108845,-47.71286,-0.60984558,-47.726894,-39.224899,-173.09982
4042812500,-38.111523,-115.19945,-0.61316478,-47.841755,-0.61270428,-47.835209,-39.166584,-173.49562
4043125000,-37.900818,-114.79333,-0.61246651,-47.949951,-0.61153316,-47.961502,-39.233059,-173.78372
4043437500,-37.794353,-113.45319,-0.61190146,-48.058781,-0.61194944,-48.079212,-39.112366,-173.84909
4043750000,-37.60083,-113.40008,-0.6101886,-48.184422,-0.60852963,-48.187222,-38.96291,-173.73355
4044062500,-37.486839,-112.20024,-0.61035192,-48.300064,-0.607876,-48.286438,-38.946739,-174.65317
4044375000,-37.394878,-111.92758,-0.60820222,-48.418098,-0.60653538,-48.405098,-38.898033,-173.53415
4044687500,-37.439861,-111.72558,-0.60927683,-48.543537,-0.60985619,-48.535713,-38.744186,-173.48555
4045000000,-37.612118,-112.58835,-0.61254555,-48.635155,-0.61253905,-48.650715,-38.836315,-174.15245
4045312500,-37.667694,-113.16906,-0.61114764,-48.750427,-0.61184359,-48.747101,-38.872841,-173.64813
4045625000,-37.65181,-113.36964,-0.60837978,-48.8591,-0.61149889,-48.885975,-38.831791,-173.76195
4045937500,-37.66283,-113.98488,-0.60976899,-48.973984,-0.61152959,-48.987045,-38.868046,-173.91888
4046250000,-37.686035,-113.37519,-0.61061639,-49.078934,-0.60955489,-49.09177,-38.810425,-174.99457
4046562500,-37.610725,-113.88268,-0.61282295,-49.195297,-0.61186302,-49.202629,-38.791496,-176.05977
4046875000,-37.456806,-114.2751,-0.61226553,-49.293995,-0.61006778,-49.335445,-38.828686,-176.93578
4047187500,-37.528851,-114.58411,-0.61018199,-49.434986,-0.60985744,-49.465466,-38.759296,-177.1599
4047500000,-37.374786,-114.25473,-0.61253738,-49.558113,-0.6097638,-49.583511,-38.709797,-177.42844
4047812500,-37.504185,-113.87243,-0.61110038,-49.661972,-0.61033279,-49.669037,-38.791592,-177.30737
4048125000,-37.558643,-112.48862,-0.60889965,-49.780834,-0.61060566,-49.769905,-38.984722,-176.52051
4048437500,-37.619377,-112.57224,-0.61086857,-49.889755,-0.61136287,-49.928062,-39.013233,-176.95085
4048750000,-37.707531,-111.65133,-0.61219567,-50.025364,-0.61298424,-50.008694,-38.912403,-176.40089
4049062500,-37.623207,-111.23274,-0.61086935,-50.125278,-0.61423469,-50.145359,-38.932892,-176.55469
4049375000,-37.590801,-112.14719,-0.60918182,-50.247631,-0.61143816,-50.267784,-38.899017,-177.02676
4049687500,-37.53149,-112.7759,-0.6106497,-50.365196,-0.61212969,-50.378361,-38.813618,-177.49174
4050000000,-37.542194,-113.95576,-0.60999161,-50.47184,-0.6133768,-50.492645,-38.799324,-178.93159
4050312500,-37.384422,-113.53688,-0.61291546,-50.584122,-0.61430967,-50.608898,-38.738686,-178.99078
4050625000,-37.444046,-113.92294,-0.61219221,-50.696915,-0.61340708,-50.719425,-38.639236,-179.77948
4050937500,-37.344471,-113.99598,-0.60842013,-50.810802,-0.60869652,-50.848465,-38.512268,-179.28603
4051250000,-37.39283,-113.47464,-0.61151898,-50.94379,-0.60984689,-50.920895,-38.494389,-179.76953
4051562500,-37.380688,-113.47168,-0.61372334,-51.054012,-0.60985178,-51.069477,-38.570049,179.91042
4051875000,-37.3494,-113.64301,-0.61386055,-51.171436,-0.60842144,-51.14925,-38.35405,179.62704
4052187500,-37.371399,-113.27014,-0.6108883,-51.293705,-0.61069667,-51.274651,-38.367367,-179.7793
4052500000,-37.363094,-112.96173,-0.61137712,-51.401039,-0.61149275,-51.394142,-38.434334,179.70174
4052812500,-37.320496,-112.42777,-0.61060691,-51.496391,-0.61282593,-51.5219,-38.355778,-179.83284
4053125000,-37.294258,-112.02449,-0.60907066,-51.61475,-0.61213171,-51.64502,-38.44783,-179.82135
4053437500,-37.143703,-111.4889,-0.60865569,-51.728336,-0.61293501,-51.76263,-38.443222,-179.48773
4053750000,-37.027359,-112.07162,-0.61025435,-51.8437,-0.61187065,-51.87458,-38.320206,-179.59644
4054062500,-36.953289,-111.96727,-0.60953742,-51.964024,-0.61214519,-51.973965,-38.462856,-179.34622
4054375000,-36.811642,-112.13187,-0.61088204,-52.087646,-0.61186588,-52.08482,-38.203232,-179.70744
4054687500,-36.797161,-112.54848,-0.61196262,-52.204086,-0.61210215,-52.202881,-38.289742,-179.89218
4055000000,-36.687565,-112.91811,-0.61072445,-52.305649,-0.61105603,-52.322083,-38.181232,-179.21313
4055312500,-36.760715,-112.4759,-0.61065,-52.404686,-0.61189282,-52.43927,-38.153469,-179.38748
4055625000,-36.807388,-111.92417,-0.60892618,-52.541958,-0.61500537,-52.553867,-38.052235,-179.90514
4055937500,-36.712067,-112.06315,-0.60706264,-52.656673,-0.61253434,-52.665268,-37.948048,179.6902
4056250000,-36.707088,-112.33121,-0.60766268,-52.782944,-0.61618155,-52.787468,-37.957726,179.2912
4056562500,-36.733021,-112.28013,-0.60995632,-52.883293,-0.61476272,-52.920349,-37.922653,178.31108
4056875000,-36.774158,-111.84917,-0.60939229,-53.011436,-0.6130814,-53.007351,-37.881321,177.25668
4057187500,-36.779732,-110.97328,-0.61162263,-53.096424,-0.61320859,-53.136913,-37.929764,176.5625
4057500000,-36.824379,-111.50627,-0.61020118,-53.224159,-0.61270541,-53.257191,-37.888214,174.73489
4057812500,-36.799145,-112.20441,-0.61154485,-53.341072,-0.61332023,-53.35844,-37.98563,174.34735
4058125000,-36.780537,-111.74622,-0.61364269,-53.443851,-0.61265618,-53.48933,-37.894833,174.41112
4058437500,-36.760326,-111.69511,-0.61290491,-53.578403,-0.61397642,-53.59354,-37.905293,174.32608
4058750000,-36.773857,-111.54131,-0.61180389,-53.700584,-0.61367863,-53.693565,-38.050644,174.12744
4059062500,-36.703545,-110.83878,-0.61052549,-53.81287,-0.61409342,-53.81636,-37.974369,173.88037
4059375000,-36.654507,-110.95474,-0.61147499,-53.904697,-0.61521119,-53.933132,-38.055485,174.09096
4059687500,-36.713436,-110.69624,-0.60957724,-54.018375,-0.61555612,-54.043823,-38.099396,173.04587
4060000000,-36.681683,-111.09641,-0.60978752,-54.142792,-0.61437285,-54.170666,-37.922474,173.87134
4060312500,-36.76231,-111.12813,-0.60863984,-54.256145,-0.61236507,-54.281197,-37.873245,174.65079
4060625000,-36.63868,-111.29534,-0.61017114,-54.383308,-0.61524671,-54.389565,-37.866631,173.81422
