!CSV A.01.01
!Agilent Technologies,N5222A,MY51421451,A.09.90.02
!Agilent N5222A: A.09.90.02
!Date: Tuesday, June 23, 2015 15:06:54
!Source: Standard

BEGIN CH20_DATA
Freq(Hz),S33(DB),S33(DEG),S34(DB),S34(DEG),S43(DB),S43(DEG),S44(DB),S44(DEG)
4000000000,-34.787701,-156.57581,-0.59217364,-16.29862,-0.59296006,-16.343603,-34.82774,-52.181068
4000316406.25,-34.197903,-154.63019,-0.62095463,-18.156525,-0.57596052,-16.451426,-34.712307,-55.841541
4000632812.5,-34.421558,-155.01558,-0.6099934,-17.731192,-0.58296329,-16.559238,-34.703049,-54.092484
4000949218.75,-34.639915,-154.97653,-0.60357046,-17.266441,-0.58830231,-16.649393,-34.717968,-53.239006
4001265625,-34.784447,-155.33519,-0.59537685,-16.959555,-0.59202343,-16.789692,-34.753326,-51.835052
4001582031.25,-34.853172,-156.091,-0.59546435,-16.833591,-0.59104598,-16.897198,-34.736294,-52.158619
4001898437.5,-34.87788,-156.22368,-0.59286642,-16.884138,-0.5902406,-17.005287,-34.794147,-51.518742
4002214843.75,-34.829765,-156.8468,-0.59367949,-17.046768,-0.59048915,-17.138529,-34.847645,-51.910866
4002531250,-34.806686,-157.37508,-0.59385508,-17.228424,-0.59187955,-17.263041,-34.867332,-52.311737
4002847656.25,-34.805088,-157.39084,-0.59228313,-17.394424,-0.5921042,-17.366104,-34.908875,-52.682827
4003164062.5,-34.712467,-157.6947,-0.59467995,-17.508844,-0.59218937,-17.473091,-34.868057,-52.982208
4003480468.75,-34.724174,-157.0631,-0.59365237,-17.635941,-0.59253168,-17.600822,-34.853813,-53.382317
4003796875,-34.723797,-157.29955,-0.5941543,-17.756464,-0.59100759,-17.709618,-34.809059,-53.119465
4004113281.25,-34.760273,-157.01831,-0.59386039,-17.862297,-0.59089363,-17.819029,-34.821697,-52.922081
4004429687.5,-34.748207,-157.49886,-0.59263802,-17.993523,-0.5930019,-17.946136,-34.81385,-53.464073
4004746093.75,-34.729378,-157.74043,-0.59383714,-18.121525,-0.59543067,-18.058277,-34.767303,-53.110912
4005062500,-34.727848,-157.80336,-0.59339601,-18.234167,-0.59396935,-18.161636,-34.755802,-53.266479
4005378906.25,-34.71907,-158.27298,-0.59143245,-18.335377,-0.59640616,-18.277679,-34.73695,-54.002743
4005695312.5,-34.73243,-158.42667,-0.59318542,-18.455181,-0.59636647,-18.387146,-34.724358,-53.524857
4006011718.75,-34.646004,-158.04509,-0.5926407,-18.552061,-0.59572285,-18.506165,-34.773945,-53.862778
4006328125,-34.623341,-158.05975,-0.59229505,-18.676422,-0.59458756,-18.614906,-34.806755,-54.673973
4006644531.25,-34.662418,-158.3542,-0.59255791,-18.79278,-0.59292644,-18.751974,-34.795647,-54.741619
4006960937.5,-34.601265,-157.87556,-0.59089333,-18.914299,-0.59524643,-18.857891,-34.740936,-55.031246
4007277343.75,-34.608166,-158.16695,-0.59266341,-19.025688,-0.59123051,-18.975218,-34.7034,-55.582275
4007593750,-34.614326,-158.30756,-0.59298998,-19.131287,-0.59166545,-19.088528,-34.700611,-55.754456
4007910156.25,-34.710171,-158.56868,-0.59342307,-19.249357,-0.59226215,-19.202806,-34.733139,-56.14196
4008226562.5,-34.819813,-158.93768,-0.59688127,-19.372324,-0.59448868,-19.307081,-34.685734,-55.961143
4008542968.75,-34.888851,-158.71133,-0.59694904,-19.493507,-0.59299564,-19.444864,-34.688774,-56.244576
4008859375,-34.99176,-158.46712,-0.59419793,-19.595825,-0.59364605,-19.542252,-34.646294,-56.596363
4009175781.25,-34.945408,-157.97775,-0.5965032,-19.699177,-0.59109306,-19.643785,-34.751102,-56.756081
4009492187.5,-34.92313,-157.23936,-0.59747058,-19.836231,-0.59543079,-19.781448,-34.665745,-56.507256
4009808593.75,-34.957878,-156.93356,-0.59690654,-19.924028,-0.59417564,-19.88743,-34.734554,-57.323669
4010125000,-34.923225,-156.60608,-0.59886128,-20.043171,-0.59082305,-20.011314,-34.684517,-57.263062
4010441406.25,-34.887356,-156.25273,-0.59604985,-20.157536,-0.59194207,-20.130985,-34.601791,-57.2365
4010757812.5,-34.813026,-157.13914,-0.59555912,-20.276726,-0.59266281,-20.257008,-34.664387,-57.708618
4011074218.75,-34.850189,-157.80881,-0.59463716,-20.388269,-0.59559566,-20.364618,-34.696316,-57.676796
4011390625,-34.839607,-158.52399,-0.59630692,-20.503172,-0.59340119,-20.471996,-34.662247,-57.960495
4011707031.25,-34.831871,-159.1114,-0.59649837,-20.609486,-0.59309083,-20.588419,-34.647934,-58.118687
4012023437.5,-34.904308,-159.72691,-0.59634757,-20.736879,-0.59281236,-20.708864,-34.60619,-57.663273
4012339843.75,-34.920322,-160.01178,-0.59364849,-20.851959,-0.59535062,-20.808495,-34.587238,-58.073547
4012656250,-34.945564,-160.06444,-0.59474468,-20.97175,-0.59529823,-20.944395,-34.608486,-57.644699
4012972656.25,-34.995411,-160.3791,-0.59525275,-21.094769,-0.59425443,-21.058842,-34.595627,-57.463516
4013289062.5,-35.001263,-160.79877,-0.59489018,-21.21545,-0.59661943,-21.161009,-34.63129,-57.937485
4013605468.75,-34.941143,-160.18547,-0.59481317,-21.325039,-0.59397084,-21.278225,-34.778889,-58.121132
4013921875,-34.851578,-159.71172,-0.59579885,-21.449059,-0.59730273,-21.39822,-34.764511,-58.710041
4014238281.25,-34.79353,-159.43877,-0.59637117,-21.543602,-0.59450608,-21.495747,-34.785923,-60.081978
4014554687.5,-34.798412,-158.96806,-0.5936057,-21.658855,-0.59400076,-21.63868,-34.852745,-60.388031
4014871093.75,-34.766224,-158.72591,-0.59405249,-21.767778,-0.59389144,-21.735807,-34.819828,-60.668568
4015187500,-34.74641,-158.93033,-0.59434015,-21.896208,-0.59352237,-21.855408,-34.780678,-60.655331
4015503906.25,-34.852493,-159.12703,-0.59436029,-22.000811,-0.59349972,-21.969997,-34.826122,-60.094765
4015820312.5,-34.872467,-158.95522,-0.59549671,-22.130884,-0.59503889,-22.096035,-34.838703,-59.714931
4016136718.75,-34.918522,-159.83939,-0.59788156,-22.221489,-0.59524548,-22.188234,-34.785347,-59.458824
4016453125,-34.903915,-159.21898,-0.59442008,-22.332314,-0.59518439,-22.313293,-34.742249,-59.733086
4016769531.25,-34.880451,-159.28558,-0.59529549,-22.47241,-0.59508258,-22.435965,-34.806152,-60.388306
4017085937.5,-34.736069,-158.73668,-0.5950675,-22.575748,-0.59471428,-22.545067,-34.778305,-60.359825
4017402343.75,-34.64909,-158.48434,-0.59604239,-22.703007,-0.59394664,-22.655169,-34.796005,-60.750584
4017718750,-34.619286,-158.12703,-0.59588355,-22.818205,-0.59324223,-22.792467,-34.794098,-61.132645
4018035156.25,-34.626808,-158.53014,-0.59510827,-22.911331,-0.59476489,-22.911646,-34.742363,-61.578659
4018351562.5,-34.606445,-159.39261,-0.59606147,-23.040562,-0.59475684,-23.020216,-34.879902,-60.784485
4018667968.75,-34.657814,-159.86172,-0.59515548,-23.161005,-0.59466559,-23.13209,-34.769337,-60.187019
4018984375,-34.664261,-160.25003,-0.59619415,-23.23575,-0.59567755,-23.239265,-34.755398,-60.265102
4019300781.25,-34.56982,-160.05231,-0.5954442,-23.376602,-0.59450781,-23.352804,-34.673702,-60.180885
4019617187.5,-34.661167,-160.88087,-0.59428555,-23.484381,-0.59602618,-23.47438,-34.69648,-61.488438
4019933593.75,-34.720337,-160.76575,-0.59474045,-23.607542,-0.5958432,-23.575598,-34.642391,-61.85828
4020250000,-34.753143,-160.65457,-0.59235388,-23.725792,-0.59826046,-23.715618,-34.721992,-62.783604
4020566406.25,-34.829952,-160.81557,-0.59223604,-23.843538,-0.59683514,-23.814922,-34.694031,-63.390999
4020882812.5,-34.863129,-160.85478,-0.59217399,-23.977018,-0.5963192,-23.932909,-34.665115,-62.86293
4021199218.75,-34.956638,-160.61281,-0.59563017,-24.068573,-0.5956912,-24.043255,-34.712158,-63.032497
4021515625,-34.949978,-160.32018,-0.59501916,-24.211191,-0.59435505,-24.161747,-34.793278,-62.407761
4021832031.25,-35.062355,-160.36862,-0.59703499,-24.317186,-0.59263211,-24.260519,-34.75885,-62.181271
4022148437.5,-35.044182,-160.62996,-0.59785265,-24.440371,-0.59386474,-24.37257,-34.843296,-61.979301
4022464843.75,-34.933102,-160.75946,-0.59730786,-24.536375,-0.59306651,-24.508627,-34.785828,-62.892887
4022781250,-34.806446,-161.15608,-0.59644532,-24.647003,-0.59335077,-24.605129,-34.774479,-63.541386
4023097656.25,-34.721462,-160.80595,-0.59671843,-24.760719,-0.59087652,-24.738827,-34.812599,-63.293484
4023414062.5,-34.629028,-161.18954,-0.59658194,-24.859943,-0.59157473,-24.851347,-34.835709,-63.739361
4023730468.75,-34.565834,-161.22301,-0.59580874,-24.980579,-0.59188569,-24.967562,-34.826759,-64.596878
4024046875,-34.428143,-161.66376,-0.59610152,-25.119656,-0.59569579,-25.084986,-34.896198,-64.470039
4024363281.25,-34.534985,-161.58414,-0.59440207,-25.223307,-0.59433252,-25.176416,-34.926193,-64.274559
4024679687.5,-34.492989,-161.52145,-0.59695792,-25.336891,-0.59488654,-25.303288,-34.985065,-64.462769
4024996093.75,-34.507481,-161.44649,-0.59443998,-25.463093,-0.5971303,-25.4074,-35.024757,-64.983421
4025312500,-34.543449,-161.62532,-0.59602034,-25.582275,-0.59439969,-25.540842,-34.952347,-65.238922
4025628906.25,-34.579651,-161.56027,-0.59617859,-25.692551,-0.5960024,-25.650391,-34.868977,-65.872696
4025945312.5,-34.576786,-161.74358,-0.59467041,-25.817553,-0.59409201,-25.751198,-34.7341,-65.543137
4026261718.75,-34.664963,-161.58531,-0.59628439,-25.938782,-0.5933584,-25.874733,-34.658627,-65.55127
4026578125,-34.73246,-162.02383,-0.59416765,-26.031189,-0.59239072,-25.993034,-34.609066,-65.651917
4026894531.25,-34.694584,-162.4169,-0.59344286,-26.151907,-0.59333616,-26.115053,-34.541752,-65.362015
4027210937.5,-34.706223,-162.15372,-0.59235209,-26.243752,-0.59605557,-26.243225,-34.550106,-65.491478
4027527343.75,-34.690224,-162.77423,-0.59402615,-26.35405,-0.59586966,-26.347338,-34.544857,-65.558594
4027843750,-34.773998,-162.94136,-0.59438908,-26.458096,-0.59695244,-26.476213,-34.672756,-65.374763
4028160156.25,-34.689198,-163.46837,-0.59403992,-26.599735,-0.59765297,-26.575472,-34.761433,-65.44928
4028476562.5,-34.711754,-163.30719,-0.59733373,-26.703074,-0.59742689,-26.704393,-34.758217,-65.722595
4028792968.75,-34.815395,-163.32219,-0.59629554,-26.808201,-0.5942654,-26.819654,-34.945797,-65.835701
4029109375,-34.861591,-163.36598,-0.5994398,-26.936819,-0.59815687,-26.919621,-34.955044,-65.846893
4029425781.25,-34.946049,-162.98921,-0.60165191,-27.043814,-0.59702235,-27.033998,-34.972157,-66.034126
4029742187.5,-34.9333,-163.00095,-0.60026401,-27.162474,-0.59431034,-27.13629,-35.002056,-66.181419
4030058593.75,-34.864212,-163.11885,-0.5987398,-27.287977,-0.59571767,-27.267939,-34.933376,-66.858826
4030375000,-34.815399,-162.36441,-0.59502286,-27.415178,-0.59555948,-27.353828,-34.929199,-67.188377
4030691406.25,-34.790943,-162.63177,-0.59262002,-27.508926,-0.5973801,-27.494581,-34.808327,-67.395721
4031007812.5,-34.700542,-162.9584,-0.59512848,-27.651018,-0.5963003,-27.59458,-34.803394,-67.692902
4031324218.75,-34.718529,-162.46683,-0.59453094,-27.75329,-0.59530431,-27.710035,-34.742851,-67.469406
4031640625,-34.694744,-162.60294,-0.59755456,-27.872368,-0.59792507,-27.844658,-34.758827,-67.474304
4031957031.25,-34.720188,-162.89536,-0.59656322,-27.969112,-0.59509206,-27.961082,-34.881859,-67.64386
4032273437.5,-34.765221,-162.91718,-0.59733117,-28.069693,-0.59587085,-28.096828,-34.806168,-67.168716
4032589843.75,-34.70779,-162.73897,-0.59760177,-28.188286,-0.59589392,-28.183102,-34.84124,-67.280693
4032906250,-34.816036,-163.38477,-0.59815794,-28.302586,-0.59713596,-28.310158,-34.897549,-67.148537
4033222656.25,-34.877777,-164.11433,-0.59840685,-28.437515,-0.59817964,-28.418142,-34.901447,-66.983261
4033539062.5,-34.914402,-164.51599,-0.59735543,-28.55242,-0.59843218,-28.498581,-34.935856,-67.209961
4033855468.75,-35.028564,-164.98973,-0.59807241,-28.666199,-0.59612387,-28.615818,-34.948181,-67.48687
4034171875,-35.030235,-164.63828,-0.59637386,-28.791035,-0.59520817,-28.731201,-34.979729,-67.788628
4034488281.25,-34.980625,-164.52026,-0.59770167,-28.898251,-0.59650695,-28.853287,-34.906567,-68.121445
4034804687.5,-34.985146,-164.18094,-0.5989548,-29.015221,-0.59603459,-28.994293,-34.809532,-69.202141
4035121093.75,-34.895191,-163.77655,-0.59806097,-29.123407,-0.59606719,-29.11319,-34.87991,-69.595909
4035437500,-34.870647,-162.84634,-0.59668398,-29.24155,-0.59440345,-29.230406,-34.87862,-70.439323
4035753906.25,-34.819012,-162.9743,-0.59905416,-29.338753,-0.59329492,-29.350901,-34.768585,-70.451576
4036070312.5,-34.8354,-163.58315,-0.59740746,-29.468376,-0.59343952,-29.45499,-34.73217,-70.79586
4036386718.75,-34.779835,-163.71336,-0.59723598,-29.601145,-0.59332293,-29.584217,-34.615814,-71.138115
4036703125,-34.883114,-164.58519,-0.59755713,-29.675888,-0.59686267,-29.676086,-34.649052,-71.216339
4037019531.25,-34.795288,-164.70663,-0.5973419,-29.833027,-0.59355247,-29.772911,-34.709007,-71.917511
4037335937.5,-34.896282,-164.35698,-0.59662807,-29.91947,-0.59670323,-29.902514,-34.657883,-72.279236
4037652343.75,-34.925591,-164.7923,-0.59692901,-30.039373,-0.5956974,-30.011282,-34.720421,-72.183128
4037968750,-34.888622,-165.22231,-0.5989846,-30.173891,-0.59485638,-30.138004,-34.743961,-72.456078
4038285156.25,-34.915417,-164.87819,-0.59458637,-30.275126,-0.597408,-30.251261,-34.853077,-72.396164
4038601562.5,-34.943142,-165.17516,-0.59622598,-30.425638,-0.5958885,-30.366079,-34.83054,-72.559006
4038917968.75,-34.936668,-165.08812,-0.59553003,-30.529768,-0.59719527,-30.476496,-34.787537,-71.747032
4039234375,-34.996983,-165.12032,-0.59741151,-30.632566,-0.59737879,-30.592493,-34.971828,-71.759918
4039550781.25,-35.048901,-165.12321,-0.59772319,-30.756428,-0.59839886,-30.709019,-34.912655,-71.740425
4039867187.5,-34.968105,-165.00934,-0.5996123,-30.86661,-0.5975033,-30.813692,-34.841972,-71.912041
4040183593.75,-35.053902,-165.12563,-0.59695727,-31.00462,-0.59710944,-30.919071,-34.815907,-72.381844
4040500000,-35.016056,-164.78419,-0.59842813,-31.11828,-0.59467244,-31.042715,-34.750671,-72.895889
4040816406.25,-35.029835,-165.13416,-0.59803474,-31.202801,-0.59616625,-31.176208,-34.753098,-73.242027
4041132812.5,-35.04472,-164.88902,-0.59785897,-31.321075,-0.59366751,-31.265776,-34.614521,-73.905144
4041449218.75,-35.014622,-165.22896,-0.59899521,-31.42161,-0.59669757,-31.401997,-34.68079,-73.791382
4041765625,-34.968212,-165.46545,-0.59953749,-31.547585,-0.59542918,-31.517628,-34.653595,-73.384453
4042082031.25,-34.81567,-165.00819,-0.59738815,-31.66997,-0.59524083,-31.642508,-34.693626,-73.818642
4042398437.5,-34.776073,-165.0722,-0.59880507,-31.785965,-0.59309709,-31.747242,-34.786518,-73.35347
4042714843.75,-34.643234,-164.77121,-0.597359,-31.911755,-0.59541571,-31.883333,-34.813946,-73.307701
4043031250,-34.530651,-165.00629,-0.59785205,-32.016869,-0.59589624,-31.999908,-34.840065,-73.464371
4043347656.25,-34.630859,-164.72247,-0.59671152,-32.137882,-0.59989846,-32.095669,-34.874046,-73.697647
4043664062.5,-34.626049,-164.98254,-0.59612918,-32.241493,-0.5978564,-32.217808,-34.763554,-74.274414
4043980468.75,-34.718201,-164.98933,-0.59735453,-32.371033,-0.59752637,-32.328644,-34.719543,-74.530182
4044296875,-34.82032,-165.6376,-0.59730953,-32.46508,-0.60110146,-32.442413,-34.720642,-75.063644
4044613281.25,-34.8508,-165.56236,-0.59739202,-32.618702,-0.60040063,-32.558544,-34.695866,-75.541565
4044929687.5,-34.828186,-165.73558,-0.59792429,-32.722744,-0.59723359,-32.673973,-34.769184,-75.985855
4045246093.75,-34.820347,-165.91519,-0.59421134,-32.828228,-0.59710211,-32.788254,-34.767967,-75.609489
4045562500,-34.751438,-165.85899,-0.59732634,-32.946365,-0.59823924,-32.90192,-34.830135,-75.991508
4045878906.25,-34.728939,-165.58554,-0.59533107,-33.067673,-0.59435827,-32.989483,-34.81398,-76.131744
4046195312.5,-34.801357,-165.54802,-0.59895676,-33.178577,-0.59469831,-33.107521,-34.864349,-76.709518
4046511718.75,-34.787922,-165.71184,-0.59719646,-33.289314,-0.5978204,-33.241943,-34.844887,-76.991791
4046828125,-34.817493,-166.11304,-0.59668297,-33.377789,-0.597247,-33.351368,-34.928986,-77.623985
4047144531.25,-34.842098,-166.0659,-0.59743816,-33.510876,-0.59998417,-33.47226,-34.897579,-77.540306
4047460937.5,-34.913513,-165.92203,-0.59448606,-33.624607,-0.59985769,-33.572449,-34.94223,-77.782234
4047777343.75,-34.837036,-165.81497,-0.59815657,-33.721382,-0.59738588,-33.700134,-34.848301,-77.943642
4048093750,-34.749348,-165.9258,-0.59401649,-33.845181,-0.59586221,-33.801414,-34.871307,-77.520226
4048410156.25,-34.70956,-166.02132,-0.5968107,-33.967785,-0.59653705,-33.932816,-34.9244,-78.031853
4048726562.5,-34.691917,-165.92802,-0.59850353,-34.068703,-0.59845138,-34.038017,-34.857063,-78.06797
4049042968.75,-34.672501,-166.14214,-0.59921885,-34.181438,-0.59836668,-34.158432,-34.822987,-78.056419
4049359375,-34.723309,-166.62485,-0.59868425,-34.305969,-0.59909755,-34.289673,-34.825588,-78.318008
4049675781.25,-34.811646,-167.03543,-0.59842908,-34.422234,-0.60131031,-34.384132,-34.834015,-79.016991
4049992187.5,-34.858368,-167.53029,-0.59967804,-34.535683,-0.59825891,-34.503414,-34.781887,-79.243629
4050308593.75,-34.908524,-168.05663,-0.59749526,-34.660519,-0.59783047,-34.608559,-34.710823,-78.740303
4050625000,-34.866035,-167.71465,-0.59827316,-34.7766,-0.6001392,-34.736958,-34.63319,-78.893364
4050941406.25,-34.820202,-167.41214,-0.59520537,-34.904026,-0.60052878,-34.83881,-34.529545,-78.465889
4051257812.5,-34.815598,-167.01329,-0.59782451,-35.007694,-0.59898138,-34.940609,-34.526443,-78.62291
4051574218.75,-34.64024,-167.10788,-0.59655792,-35.119141,-0.59977579,-35.075691,-34.35931,-78.837715
4051890625,-34.693195,-166.65903,-0.59598106,-35.234177,-0.59789634,-35.183666,-34.438046,-79.264259
4052207031.25,-34.610912,-166.98228,-0.59806228,-35.353825,-0.59793806,-35.316746,-34.55172,-79.3862
4052523437.5,-34.598053,-167.0457,-0.59924078,-35.459763,-0.59790301,-35.432083,-34.720901,-79.041359
4052839843.75,-34.617477,-167.62444,-0.59942597,-35.601105,-0.59781474,-35.541416,-34.778912,-78.750511
4053156250,-34.632034,-167.86395,-0.5987584,-35.707561,-0.60044366,-35.666557,-34.9575,-78.413986
4053472656.25,-34.549961,-167.53876,-0.59843117,-35.835735,-0.59802765,-35.79108,-34.962368,-78.79351
4053789062.5,-34.614128,-167.52548,-0.59594536,-35.922928,-0.59538084,-35.90712,-34.967297,-78.881126
4054105468.75,-34.591694,-167.70174,-0.59856838,-36.046341,-0.59584111,-36.002892,-34.942753,-79.325562
4054421875,-34.645519,-167.70692,-0.59731007,-36.172249,-0.59826154,-36.116329,-34.824032,-79.899803
4054738281.25,-34.660118,-167.88159,-0.59670305,-36.257442,-0.596385,-36.236286,-34.825516,-80.033577
4055054687.5,-34.687344,-168.05647,-0.59900475,-36.373215,-0.59646362,-36.337311,-34.90118,-80.212219
4055371093.75,-34.734749,-168.3447,-0.60002857,-36.486668,-0.59714442,-36.446457,-34.922779,-81.1082
4055687500,-34.825741,-168.71281,-0.5999679,-36.614891,-0.59765989,-36.566833,-34.93541,-81.799706
4056003906.25,-34.782593,-169.18851,-0.60083503,-36.733658,-0.59621054,-36.677956,-34.983345,-82.117783
4056320312.5,-34.771324,-169.07416,-0.60273486,-36.851238,-0.5976634,-36.813042,-34.953583,-82.133591
4056636718.75,-34.730198,-168.86053,-0.60251158,-36.965481,-0.59894484,-36.933083,-34.793163,-81.804329
4056953125,-34.742458,-168.95613,-0.6002081,-37.084137,-0.59708565,-37.034138,-34.751183,-82.117058
4057269531.25,-34.765259,-168.30779,-0.59825039,-37.17992,-0.59774232,-37.158192,-34.660786,-81.853012
4057585937.5,-34.736317,-168.15062,-0.59724778,-37.30732,-0.59933412,-37.283989,-34.677864,-81.51535
4057902343.75,-34.690437,-168.22345,-0.60011482,-37.424782,-0.60051113,-37.401878,-34.573353,-82.154266
4058218750,-34.797253,-167.91801,-0.59828508,-37.521034,-0.59851873,-37.503975,-34.566231,-81.803444
4058535156.25,-34.771984,-168.17995,-0.59799397,-37.661144,-0.59864783,-37.613792,-34.633701,-81.588379
4058851562.5,-34.795712,-168.1757,-0.59918159,-37.764034,-0.59658861,-37.729267,-34.51083,-81.453621
4059167968.75,-34.822308,-167.91507,-0.59940875,-37.878857,-0.59665769,-37.838787,-34.537136,-81.510956
4059484375,-34.811275,-168.03383,-0.6005246,-37.990372,-0.59654611,-37.957951,-34.547104,-81.470604
4059800781.25,-34.773754,-168.62881,-0.59921986,-38.1152,-0.59869462,-38.08979,-34.603912,-81.87545
4060117187.5,-34.878796,-169.2661,-0.60115677,-38.232826,-0.5974946,-38.215618,-34.67033,-81.958687
